#   Hz   S  RI   R   50
!
1000000000.0 -0.6633180053813115 0.44457306704899324
1005000000.0 -0.662376549375258 0.4461634292886574
1010000000.0 -0.6614348176359401 0.4477642424231993
1015000000.0 -0.6604922874897635 0.44937518750202066
1020000000.0 -0.6595484627485445 0.4509959391958717
1025000000.0 -0.6586028729914593 0.4526261669356463
1030000000.0 -0.6576550728301683 0.45426553597541713
1035000000.0 -0.6567046411614896 0.45591370838245043
1040000000.0 -0.655751180411625 0.457570343957042
1045000000.0 -0.6547943157755306 0.45923510108510407
1050000000.0 -0.653833694454745 0.4609076375264122
1055000000.0 -0.6528689848965877 0.4625876111415063
1060000000.0 -0.6518998760373926 0.46427468056016485
1065000000.0 -0.6509260765520998 0.4659685057944186
1070000000.0 -0.6499473141122982 0.46766874879895226
1075000000.0 -0.6489633346545431 0.4693750739817467
1080000000.0 -0.6479739016605198 0.47108714866777013
1085000000.0 -0.6469787954504489 0.4728046435183385
1090000000.0 -0.6459778124908835 0.4745272329088574
1095000000.0 -0.6449707647178963 0.4762545952674312
1100000000.0 -0.6439574788764816 0.4779864133767888
1105000000.0 -0.6429377958768282 0.4797223746419145
1110000000.0 -0.6419115701679943 0.48146217132559554
1115000000.0 -0.6408786691293777 0.48320550075409796
1120000000.0 -0.6398389724802795 0.48495206549500647
1125000000.0 -0.6387923717077316 0.486701573509201
1130000000.0 -0.6377387695126764 0.4884537382788552
1135000000.0 -0.6366780792745237 0.490208278913236
1140000000.0 -0.6356102245339971 0.49196492023396304
1145000000.0 -0.6345351384941591 0.49372339284135797
1150000000.0 -0.6334527635394105 0.4954834331633711
1155000000.0 -0.632363050772253 0.4972447834885001
1160000000.0 -0.6312659595675163 0.4990071919840537
1165000000.0 -0.630161457143742 0.5007704127010066
1170000000.0 -0.6290495181513837 0.502534205566619
1175000000.0 -0.6279301242774495 0.5042983363659521
1180000000.0 -0.626803263866187 0.5060625767132764
1185000000.0 -0.6256689315554269 0.5078267040143754
1190000000.0 -0.6245271279281116 0.5095905014206334
1195000000.0 -0.6233778591786412 0.5113537577757359
1200000000.0 -0.6222211367935446 0.5131162675557973
1205000000.0 -0.6210569772460521 0.5148778308036119
1210000000.0 -0.6198854017041252 0.51663825305773
1215000000.0 -0.6187064357514857 0.5183973452769685
1220000000.0 -0.6175201091212136 0.5201549237609477
1225000000.0 -0.6163264554414546 0.5219108100671843
1230000000.0 -0.6151255119928198 0.5236648309252422
1235000000.0 -0.6139173194770277 0.5254168181483879
1240000000.0 -0.6127019217963829 0.5271666085431845
1245000000.0 -0.6114793658436699 0.5289140438173999
1250000000.0 -0.6102497013020378 0.5306589704865798
1255000000.0 -0.6090129804545169 0.5324012397796298
1260000000.0 -0.6077692580027373 0.5341407075436764
1265000000.0 -0.6065185908945054 0.5358772341484971
1270000000.0 -0.6052610381598471 0.5376106843907548
1275000000.0 -0.6039966607551833 0.5393409273982671
1280000000.0 -0.6027255214152736 0.541067836534501
1285000000.0 -0.6014476845126019 0.5427912893034942
1290000000.0 -0.6001632159238924 0.544511167255345
1295000000.0 -0.5988721829034128 0.5462273558924332
1300000000.0 -0.5975746539628035 0.5479397445765063
1305000000.0 -0.5962706987571036 0.5496482264367303
1310000000.0 -0.5949603879767237 0.5513526982788295
1315000000.0 -0.5936437932450801 0.5530530604953948
1320000000.0 -0.5923209870216305 0.5547492169774414
1325000000.0 -0.590992042510074 0.5564410750272932
1330000000.0 -0.589657033571461 0.5581285452728437
1335000000.0 -0.5883160346419976 0.559811541583253
1340000000.0 -0.5869691206553106 0.5614899809861157
1345000000.0 -0.585616366968975 0.5631637835861484
1350000000.0 -0.5842578492950888 0.5648328724854049
1355000000.0 -0.582893643634711 0.566497173705069
1360000000.0 -0.5815238262159712 0.5681566161088081
1365000000.0 -0.5801484734356771 0.5698111313277324
1370000000.0 -0.5787676618042455 0.5714606536869493
1375000000.0 -0.5773814678937994 0.5731051201337088
1380000000.0 -0.5759899682892701 0.5747444701671592
1385000000.0 -0.5745932395423653 0.5763786457696906
1390000000.0 -0.5731913581282456 0.578007591339867
1395000000.0 -0.571784400404793 0.579631253626936
1400000000.0 -0.5703724425743277 0.5812495816668986
1405000000.0 -0.5689555606476547 0.5828625267201276
1410000000.0 -0.567533830410333 0.5844700422105182
1415000000.0 -0.5661073273910259 0.5860720836661467
1420000000.0 -0.5646761268318666 0.5876686086614245
1425000000.0 -0.5632403036607038 0.5892595767607137
1430000000.0 -0.5617999324651423 0.590844949463398
1435000000.0 -0.5603550874682899 0.5924246901503675
1440000000.0 -0.5589058425061194 0.5939987640319032
1445000000.0 -0.557452271006355 0.5955671380969347
1450000000.0 -0.5559944459688149 0.5971297810636399
1455000000.0 -0.5545324399471265 0.5986866633313667
1460000000.0 -0.553066325031746 0.6002377569338413
1465000000.0 -0.5515961728342049 0.6017830354936515
1470000000.0 -0.5501220544725305 0.6033224741779517
1475000000.0 -0.5486440405577703 0.6048560496553962
1480000000.0 -0.5471622011815618 0.6063837400542382
1485000000.0 -0.5456766059046918 0.6079055249215956
1490000000.0 -0.5441873237465921 0.6094213851838387
1495000000.0 -0.5426944231757194 0.610931303108084
1500000000.0 -0.5411979721007752 0.6124352622647544
1505000000.0 -0.5396980378627103 0.613933247491196
1510000000.0 -0.5381946872274813 0.6154252448563107
1515000000.0 -0.536687986379512 0.6169112416261809
1520000000.0 -0.5351780009158148 0.6183912262306727
1525000000.0 -0.533664795840748 0.6198651882309764
1530000000.0 -0.5321484355613579 0.621333118288068
1535000000.0 -0.5306289838832866 0.6227950081320651
1540000000.0 -0.5291065040071994 0.6242508505324563
1545000000.0 -0.5275810585257122 0.6257006392691742
1550000000.0 -0.5260527094207855 0.6271443691044942
1555000000.0 -0.5245215180615511 0.6285820357557336
1560000000.0 -0.5229875452025637 0.6300136358687333
1565000000.0 -0.5214508509824294 0.63143916699209
1570000000.0 -0.5199114949228028 0.6328586275521322
1575000000.0 -0.518369535927728 0.6342720168286029
1580000000.0 -0.5168250322832988 0.6356793349310452
1585000000.0 -0.5152780416576173 0.6370805827758591
1590000000.0 -0.5137286211010392 0.6384757620640102
1595000000.0 -0.5121768270466787 0.6398648752593811
1600000000.0 -0.5106227153111601 0.6412479255677378
1605000000.0 -0.5090663410956007 0.642624916916295
1610000000.0 -0.5075077589868058 0.6439958539338657
1615000000.0 -0.5059470229586676 0.6453607419315758
1620000000.0 -0.5043841863737457 0.6467195868841246
1625000000.0 -0.5028193019850223 0.648072395411581
1630000000.0 -0.5012524219378159 0.6494191747616967
1635000000.0 -0.4996835977718459 0.6507599327927145
1640000000.0 -0.49811288042343155 0.6520946779566689
1645000000.0 -0.496540320227819 0.6534234192831567
1650000000.0 -0.49496596692162376 0.654746166363561
1655000000.0 -0.4933898696453792 0.6560629293357256
1660000000.0 -0.49181207694618484 0.6573737188690528
1665000000.0 -0.4902326367804395 0.6586785461500217
1670000000.0 -0.48865159651665935 0.6599774228681099
1675000000.0 -0.4870690029383688 0.6612703612021098
1680000000.0 -0.4854849022470529 0.6625573738068183
1685000000.0 -0.4838993400651731 0.6638384738001029
1690000000.0 -0.4823123614392341 0.6651136747503195
1695000000.0 -0.4807240108428935 0.6663829906640776
1700000000.0 -0.4791343321801197 0.6676464359743425
1705000000.0 -0.4775433687883731 0.6689040255288616
1710000000.0 -0.4759511634418274 0.6701557745789041
1715000000.0 -0.4743577583546082 0.6714016987683086
1720000000.0 -0.47276319518405185 0.6726418141228246
1725000000.0 -0.4711675150339867 0.6738761370397409
1730000000.0 -0.4695707584580125 0.6751046842777928
1735000000.0 -0.4679729654627998 0.6763274729473372
1740000000.0 -0.46637417551138177 0.6775445205007858
1745000000.0 -0.46477442752645337 0.678755844723296
1750000000.0 -0.46317375989366144 0.6799614637237001
1755000000.0 -0.4615722104648907 0.6811613959256761
1760000000.0 -0.4599698165615374 0.682355660059142
1765000000.0 -0.4583666149777707 0.6835442751518784
1770000000.0 -0.45676264198378086 0.6847272605213593
1775000000.0 -0.45515793332900306 0.6859046357667952
1780000000.0 -0.4535525242453263 0.6870764207613727
1785000000.0 -0.45194644945027457 0.6882426356446942
1790000000.0 -0.45033974315016867 0.6894033008154006
1795000000.0 -0.44873243904325266 0.6905584369239798
1800000000.0 -0.44712457032279557 0.691708064865746
1805000000.0 -0.4455161696801648 0.6928522057739959
1810000000.0 -0.4439072693078571 0.6939908810133244
1815000000.0 -0.4422979009025051 0.6951241121731002
1820000000.0 -0.4406880956678416 0.6962519210610966
1825000000.0 -0.4390778843176262 0.6973743296972682
1830000000.0 -0.43746729707853527 0.6984913603076743
1835000000.0 -0.435856363693009 0.6996030353185356
1840000000.0 -0.43424511342205785 0.7007093773504296
1845000000.0 -0.4326335750480242 0.7018104092126123
1850000000.0 -0.43102177687730225 0.7029061538974624
1855000000.0 -0.4294097467430088 0.7039966345750487
1860000000.0 -0.4277975120076124 0.7050818745878107
1865000000.0 -0.42618509956550926 0.7061618974453503
1870000000.0 -0.42457253584555515 0.7072367268193308
1875000000.0 -0.4229598468135458 0.7083063865384795
1880000000.0 -0.42134705797464805 0.7093709005836888
1885000000.0 -0.41973419437577575 0.710430293083208
1890000000.0 -0.4181212806079226 0.711484588307935
1895000000.0 -0.41650834080843063 0.712533810666788
1900000000.0 -0.4148953986632158 0.7135779847021645
1905000000.0 -0.413282477408931 0.7146171350854763
1910000000.0 -0.41166959983507945 0.7156512866127699
1915000000.0 -0.4100567882860697 0.7166804642004094
1920000000.0 -0.40844406466321465 0.717704692880837
1925000000.0 -0.4068314504266768 0.7187239977983961
1930000000.0 -0.40521896659734713 0.7197384042052198
1935000000.0 -0.40360663375867906 0.7207479374571778
1940000000.0 -0.40199447205845085 0.7217526230098823
1945000000.0 -0.4003825012104749 0.722752486414743
1950000000.0 -0.3987707404962472 0.723747553315079
1955000000.0 -0.39715920876653593 0.7247378494422736
1960000000.0 -0.39554792444290554 0.7257234006119757
1965000000.0 -0.3939369055191837 0.7267042327203409
1970000000.0 -0.3923261695628642 0.7276803717403132
1975000000.0 -0.39071573371644713 0.7286518437179427
1980000000.0 -0.38910561469871563 0.7296186747687327
1985000000.0 -0.3874958288059484 0.7305808910740217
1990000000.0 -0.3858863919130719 0.7315385188773867
1995000000.0 -0.3842773194747407 0.7324915844810754
2000000000.0 -0.3826686265263587 0.7334401142424576
2005000000.0 -0.38106032768503295 0.7343841345704952
2010000000.0 -0.3794524371504612 0.7353236719222278
2015000000.0 -0.3778449687057487 0.7362587527992724
2020000000.0 -0.3762379357181655 0.7371894037443297
2025000000.0 -0.37463135113982887 0.738115651337703
2030000000.0 -0.37302522750832157 0.7390375221938136
2035000000.0 -0.37141957694724054 0.7399550429577298
2040000000.0 -0.3698144111666736 0.7408682403016785
2045000000.0 -0.36820974146361135 0.7417771409215675
2050000000.0 -0.3666055787222838 0.7426817715334912
2055000000.0 -0.3650019334144295 0.7435821588702312
2060000000.0 -0.3633988155994913 0.7444783296777404
2065000000.0 -0.36179623492474283 0.7453703107116144
2070000000.0 -0.3601942006253398 0.7462581287335424
2075000000.0 -0.3585927215242995 0.7471418105077353
2080000000.0 -0.35699180603240793 0.7480213827973304
2085000000.0 -0.35539146214805195 0.7488968723607684
2090000000.0 -0.3537916974569782 0.7497683059481381
2095000000.0 -0.3521925191319749 0.7506357102974862
2100000000.0 -0.3505939339324814 0.7514991121310906
2105000000.0 -0.34899594820411883 0.752358538151694
2110000000.0 -0.34739856787814816 0.7532140150386911
2115000000.0 -0.3458017984708474 0.7540655694442691
2120000000.0 -0.344205645082813 0.7549132279894969
2125000000.0 -0.3426101123981855 0.7557570172603617
2130000000.0 -0.3410152046837935 0.7565969638037453
2135000000.0 -0.33942092578822414 0.7574330941233401
2140000000.0 -0.3378272791408067 0.7582654346754986
2145000000.0 -0.33623426775052173 0.759094011865013
2150000000.0 -0.334641894204835 0.7599188520408263
2155000000.0 -0.3330501606684382 0.7607399814916613
2160000000.0 -0.3314590688819219 0.7615574264415687
2165000000.0 -0.32986862016035984 0.7623712130453931
2170000000.0 -0.3282788153918137 0.7631813673841495
2175000000.0 -0.32668965503575803 0.763987915460301
2180000000.0 -0.3251011391214199 0.7647908831929437
2185000000.0 -0.32351326724604107 0.7655902964128862
2190000000.0 -0.3219260385730514 0.7663861808576229
2195000000.0 -0.3203394518301653 0.7671785621661905
2200000000.0 -0.31875350530739316 0.7679674658739145
2205000000.0 -0.31716819685497033 0.7687529174070297
2210000000.0 -0.3155835238812029 0.7695349420771688
2215000000.0 -0.3139994833502314 0.7703135650757262
2220000000.0 -0.3124160717797098 0.7710888114680782
2225000000.0 -0.3108332852384057 0.7718607061876597
2230000000.0 -0.30925111934371496 0.7726292740298939
2235000000.0 -0.30766956925909517 0.773394539645961
2240000000.0 -0.3060886296914166 0.7741565275364136
2245000000.0 -0.3045082948882357 0.7749152620446105
2250000000.0 -0.30292855863498114 0.7756707673499927
2255000000.0 -0.3013494142520644 0.7764230674611613
2260000000.0 -0.2997708545919099 0.7771721862087818
2265000000.0 -0.2981928720359097 0.777918147238283
2270000000.0 -0.2966154584912917 0.7786609740023562
2275000000.0 -0.2950386053879187 0.7794006897532468
2280000000.0 -0.2934623036750129 0.7801373175348287
2285000000.0 -0.2918865438178005 0.7808708801744443
2290000000.0 -0.2903113157940889 0.781601400274525
2295000000.0 -0.2887366090907682 0.7823289002039568
2300000000.0 -0.2871624127002509 0.783053402089204
2305000000.0 -0.2855887151168368 0.7837749278051644
2310000000.0 -0.2840155043330173 0.7844934989657681
2315000000.0 -0.2824427678357179 0.7852091369142817
2320000000.0 -0.2808704926024799 0.7859218627133429
2325000000.0 -0.2792986650975832 0.7866316971346795
2330000000.0 -0.27772727126811947 0.7873386606485335
2335000000.0 -0.27615629654001106 0.7880427734127565
2340000000.0 -0.2745857258139923 0.7887440552615861
2345000000.0 -0.27301554346153273 0.789442525694068
2350000000.0 -0.2714457333207382 0.7901382038621363
2355000000.0 -0.2698762786922075 0.7908311085583233
2360000000.0 -0.2683071623348666 0.7915212582030956
2365000000.0 -0.2667383664617786 0.792208670831802
2370000000.0 -0.26516987273593506 0.7928933640812088
2375000000.0 -0.2636016622660379 0.7935753551756326
2380000000.0 -0.2620337156022757 0.7942546609126413
2385000000.0 -0.2604660127321056 0.7949312976483005
2390000000.0 -0.25889853307604377 0.7956052812819752
2395000000.0 -0.25733125548347463 0.796276627240648
2400000000.0 -0.25576415822849247 0.7969453504627613
2405000000.0 -0.25419721900576986 0.7976114653815377
2410000000.0 -0.25263041492648985 0.7982749859077969
2415000000.0 -0.2510637225143174 0.7989359254122284
2420000000.0 -0.24949711770145575 0.7995942967071055
2425000000.0 -0.24793057582477684 0.8002501120274395
2430000000.0 -0.2463640716220488 0.8009033830115286
2435000000.0 -0.24479757922827022 0.8015541206809194
2440000000.0 -0.2432310721721315 0.8022023354197163
2445000000.0 -0.24166452337261046 0.8028480369532709
2450000000.0 -0.24009790513572862 0.8034912343261815
2455000000.0 -0.23853118915147872 0.8041319358796242
2460000000.0 -0.23696434649094084 0.8047701492279662
2465000000.0 -0.23539734760361922 0.8054058812346532
2470000000.0 -0.2338301623150051 0.8060391379873506
2475000000.0 -0.2322627598243977 0.8066699247723067
2480000000.0 -0.2306951087030072 0.8072982460479206
2485000000.0 -0.2291271768923614 0.8079241054175006
2490000000.0 -0.2275589317030383 0.808547505601167
2495000000.0 -0.22599033981377092 0.8091684484068988
2500000000.0 -0.2244213672709333 0.8097869347006902
2505000000.0 -0.2228519794884465 0.8104029643757864
2510000000.0 -0.2212821412481495 0.8110165363209825
2515000000.0 -0.2197118167006534 0.8116276483879535
2520000000.0 -0.21814096936672378 0.8122362973576004
2525000000.0 -0.21656956213923992 0.8128424789053637
2530000000.0 -0.2149975572857524 0.8134461875655057
2535000000.0 -0.2134249164517007 0.8140474166943171
2540000000.0 -0.21185160066433448 0.8146461584322224
2545000000.0 -0.2102775703373825 0.8152424036647564
2550000000.0 -0.20870278527652303 0.815836141982397
2555000000.0 -0.2071272046857093 0.8164273616392125
2560000000.0 -0.20555078717442027 0.8170160495103002
2565000000.0 -0.2039734907658759 0.817602191047993
2570000000.0 -0.2023952729062978 0.8181857702368002
2575000000.0 -0.20081609047528085 0.8187667695470643
2580000000.0 -0.19923589979733805 0.8193451698873004
2585000000.0 -0.19765465665470244 0.8199209505551956
2590000000.0 -0.19607231630146715 0.8204940891872406
2595000000.0 -0.19448883347913123 0.8210645617069737
2600000000.0 -0.1929041624336596 0.8216323422718056
2605000000.0 -0.1913182569341281 0.8221974032184082
2610000000.0 -0.18973107029307137 0.8227597150066535
2615000000.0 -0.18814255538861135 0.8233192461620541
2620000000.0 -0.18655266468849305 0.8238759632167287
2625000000.0 -0.1849613502761264 0.8244298306488326
2630000000.0 -0.1833685638787572 0.8249808108204734
2635000000.0 -0.1817742568978881 0.8255288639140732
2640000000.0 -0.18017838044206622 0.8260739478671872
2645000000.0 -0.178580885362206 0.8266160183057601
2650000000.0 -0.17698172228954465 0.8271550284758155
2655000000.0 -0.1753808416763984 0.8276909291735789
2660000000.0 -0.1737781938398871 0.8282236686740528
2665000000.0 -0.1721737290087611 0.8287531926580164
2670000000.0 -0.17056739737351745 0.8292794441375054
2675000000.0 -0.16895914913996427 0.8298023633797473
2680000000.0 -0.16734893458644343 0.8303218878296084
2685000000.0 -0.16573670412486627 0.8308379520305662
2690000000.0 -0.16412240836579842 0.8313504875442306
2695000000.0 -0.1625059981877663 0.8318594228684917
2700000000.0 -0.16088742481102544 0.8323646833543052
2705000000.0 -0.15926663987600975 0.8328661911212091
2710000000.0 -0.15764359552666726 0.8333638649716086
2715000000.0 -0.15601824449898516 0.8338576203039385
2720000000.0 -0.15439054021487275 0.8343473690247739
2725000000.0 -0.1527604368817326 0.8348330194599927
2730000000.0 -0.15112788959794063 0.8353144762651203
2735000000.0 -0.14949285446455454 0.8357916403349535
2740000000.0 -0.1478552887034731 0.83626440871264
2745000000.0 -0.14621515078240355 0.8367326744983581
2750000000.0 -0.14457240054691972 0.8371963267577619
2755000000.0 -0.1429269993599025 0.8376552504304136
2760000000.0 -0.14127891024870076 0.8381093262383722
2765000000.0 -0.1396280980603408 0.8385584305952448
2770000000.0 -0.13797452962511236 0.8390024355158686
2775000000.0 -0.1363181739288695 0.83944120852698
2780000000.0 -0.1346590022944091 0.8398746125791325
2785000000.0 -0.132996988572266 0.8403025059602149
2790000000.0 -0.13133210934128375 0.8407247422109327
2795000000.0 -0.1296643441193278 0.8411411700426237
2800000000.0 -0.12799367558449962 0.8415516332578643
2805000000.0 -0.12632008980723908 0.8419559706742998
2810000000.0 -0.12464357649363511 0.8423540160521908
2815000000.0 -0.12296412924035163 0.8427455980262278
2820000000.0 -0.12128174580150948 0.8431305400421756
2825000000.0 -0.11959642836787358 0.8435086602989268
2830000000.0 -0.11790818385871968 0.8438797716966904
2835000000.0 -0.11621702422666408 0.8442436817919614
2840000000.0 -0.11452296677584209 0.8446001927600041
2845000000.0 -0.11282603449369555 0.8449491013657313
2850000000.0 -0.11112625639667278 0.8452901989437376
2855000000.0 -0.10942366789011046 0.8456232713884418
2860000000.0 -0.1077183111425237 0.8459480991552641
2865000000.0 -0.10601023547451406 0.8462644572739023
2870000000.0 -0.1042994977624872 0.8465721153747208
2875000000.0 -0.1025861628572406 0.8468708377293954
2880000000.0 -0.10087030401760362 0.8471603833070498
2885000000.0 -0.09915200335907921 0.8474405058470673
2890000000.0 -0.09743135231748999 0.8477109539499637
2895000000.0 -0.09570845212753891 0.8479714711876087
2900000000.0 -0.09398341431610706 0.8482217962343279
2905000000.0 -0.09225636121004022 0.8484616630203067
