#   Hz   S  RI   R   50
!
0.000000e+00 6.351178e-03 0.000000e+00 9.936855e-01 0.000000e+00 9.937304e-01 0.000000e+00 6.402671e-03 0.000000e+00
1.000000e+08 6.351868e-03 2.594102e-05 9.936841e-01 -1.190484e-03 9.937289e-01 -1.194935e-03 6.403301e-03 2.136014e-05
2.000000e+08 6.353935e-03 5.184155e-05 9.936799e-01 -2.380922e-03 9.937245e-01 -2.389819e-03 6.405189e-03 4.268433e-05
3.000000e+08 6.357378e-03 7.766113e-05 9.936728e-01 -3.571268e-03 9.937172e-01 -3.584598e-03 6.408334e-03 6.393668e-05
4.000000e+08 6.362193e-03 1.033594e-04 9.936630e-01 -4.761474e-03 9.937069e-01 -4.779221e-03 6.412733e-03 8.508137e-05
5.000000e+08 6.368376e-03 1.288963e-04 9.936503e-01 -5.951496e-03 9.936936e-01 -5.973637e-03 6.418383e-03 1.060827e-04
6.000000e+08 6.375921e-03 1.542317e-04 9.936349e-01 -7.141288e-03 9.936775e-01 -7.167795e-03 6.425276e-03 1.269052e-04
7.000000e+08 6.384820e-03 1.793260e-04 9.936166e-01 -8.330804e-03 9.936584e-01 -8.361642e-03 6.433409e-03 1.475136e-04
8.000000e+08 6.395063e-03 2.041398e-04 9.935956e-01 -9.519999e-03 9.936364e-01 -9.555129e-03 6.442772e-03 1.678728e-04
9.000000e+08 6.406642e-03 2.286341e-04 9.935718e-01 -1.070883e-02 9.936116e-01 -1.074821e-02 6.453357e-03 1.879482e-04
1.000000e+09 6.419545e-03 2.527703e-04 9.935452e-01 -1.189725e-02 9.935838e-01 -1.194082e-02 6.465154e-03 2.077052e-04
1.100000e+09 6.433758e-03 2.765102e-04 9.935159e-01 -1.308522e-02 9.935533e-01 -1.313293e-02 6.478153e-03 2.271100e-04
1.200000e+09 6.449268e-03 2.998163e-04 9.934839e-01 -1.427269e-02 9.935198e-01 -1.432449e-02 6.492342e-03 2.461290e-04
1.300000e+09 6.466060e-03 3.226515e-04 9.934491e-01 -1.545962e-02 9.934836e-01 -1.551544e-02 6.507707e-03 2.647291e-04
1.400000e+09 6.484117e-03 3.449794e-04 9.934117e-01 -1.664597e-02 9.934445e-01 -1.670574e-02 6.524235e-03 2.828776e-04
1.500000e+09 6.503422e-03 3.667642e-04 9.933716e-01 -1.783170e-02 9.934027e-01 -1.789534e-02 6.541910e-03 3.005424e-04
1.600000e+09 6.523955e-03 3.879709e-04 9.933288e-01 -1.901677e-02 9.933582e-01 -1.908421e-02 6.560717e-03 3.176922e-04
1.700000e+09 6.545698e-03 4.085650e-04 9.932834e-01 -2.020114e-02 9.933109e-01 -2.027229e-02 6.580638e-03 3.342961e-04
1.800000e+09 6.568629e-03 4.285131e-04 9.932354e-01 -2.138477e-02 9.932609e-01 -2.145955e-02 6.601656e-03 3.503237e-04
1.900000e+09 6.592726e-03 4.477824e-04 9.931849e-01 -2.256762e-02 9.932082e-01 -2.264594e-02 6.623751e-03 3.657456e-04
2.000000e+09 6.617966e-03 4.663410e-04 9.931317e-01 -2.374966e-02 9.931529e-01 -2.383142e-02 6.646904e-03 3.805329e-04
2.100000e+09 6.644325e-03 4.841580e-04 9.930761e-01 -2.493086e-02 9.930950e-01 -2.501596e-02 6.671095e-03 3.946574e-04
2.200000e+09 6.671778e-03 5.012032e-04 9.930179e-01 -2.611117e-02 9.930346e-01 -2.619952e-02 6.696301e-03 4.080920e-04
2.300000e+09 6.700299e-03 5.174477e-04 9.929573e-01 -2.729056e-02 9.929716e-01 -2.738205e-02 6.722500e-03 4.208100e-04
2.400000e+09 6.729861e-03 5.328633e-04 9.928942e-01 -2.846901e-02 9.929061e-01 -2.856354e-02 6.749670e-03 4.327857e-04
2.500000e+09 6.760438e-03 5.474230e-04 9.928287e-01 -2.964648e-02 9.928381e-01 -2.974394e-02 6.777787e-03 4.439942e-04
2.600000e+09 6.792000e-03 5.611006e-04 9.927609e-01 -3.082294e-02 9.927677e-01 -3.092321e-02 6.806826e-03 4.544116e-04
2.700000e+09 6.824518e-03 5.738713e-04 9.926906e-01 -3.199836e-02 9.926949e-01 -3.210135e-02 6.836763e-03 4.640147e-04
2.800000e+09 6.857964e-03 5.857111e-04 9.926181e-01 -3.317272e-02 9.926197e-01 -3.327830e-02 6.867571e-03 4.727813e-04
2.900000e+09 6.892305e-03 5.965973e-04 9.925433e-01 -3.434599e-02 9.925423e-01 -3.445405e-02 6.899224e-03 4.806902e-04
3.000000e+09 6.927512e-03 6.065082e-04 9.924663e-01 -3.551814e-02 9.924625e-01 -3.562856e-02 6.931695e-03 4.877210e-04
3.100000e+09 6.963553e-03 6.154234e-04 9.923870e-01 -3.668916e-02 9.923805e-01 -3.680183e-02 6.964958e-03 4.938544e-04
3.200000e+09 7.000396e-03 6.233236e-04 9.923056e-01 -3.785901e-02 9.922963e-01 -3.797381e-02 6.998983e-03 4.990719e-04
3.300000e+09 7.038008e-03 6.301905e-04 9.922220e-01 -3.902768e-02 9.922100e-01 -3.914450e-02 7.033743e-03 5.033562e-04
3.400000e+09 7.076356e-03 6.360072e-04 9.921363e-01 -4.019516e-02 9.921216e-01 -4.031386e-02 7.069210e-03 5.066908e-04
3.500000e+09 7.115407e-03 6.407579e-04 9.920486e-01 -4.136141e-02 9.920310e-01 -4.148190e-02 7.105353e-03 5.090604e-04
3.600000e+09 7.155128e-03 6.444280e-04 9.919588e-01 -4.252643e-02 9.919385e-01 -4.264858e-02 7.142145e-03 5.104504e-04
3.700000e+09 7.195485e-03 6.470042e-04 9.918670e-01 -4.369020e-02 9.918440e-01 -4.381389e-02 7.179554e-03 5.108475e-04
3.800000e+09 7.236443e-03 6.484741e-04 9.917733e-01 -4.485270e-02 9.917475e-01 -4.497783e-02 7.217552e-03 5.102394e-04
3.900000e+09 7.277968e-03 6.488269e-04 9.916777e-01 -4.601393e-02 9.916492e-01 -4.614037e-02 7.256107e-03 5.086147e-04
4.000000e+09 7.320027e-03 6.480527e-04 9.915802e-01 -4.717387e-02 9.915489e-01 -4.730151e-02 7.295191e-03 5.059630e-04
4.100000e+09 7.362583e-03 6.461430e-04 9.914808e-01 -4.833251e-02 9.914469e-01 -4.846125e-02 7.334772e-03 5.022750e-04
4.200000e+09 7.405604e-03 6.430902e-04 9.913797e-01 -4.948984e-02 9.913431e-01 -4.961957e-02 7.374821e-03 4.975424e-04
4.300000e+09 7.449055e-03 6.388882e-04 9.912768e-01 -5.064586e-02 9.912376e-01 -5.077647e-02 7.415305e-03 4.917580e-04
4.400000e+09 7.492900e-03 6.335320e-04 9.911722e-01 -5.180056e-02 9.911304e-01 -5.193194e-02 7.456196e-03 4.849154e-04
4.500000e+09 7.537106e-03 6.270175e-04 9.910658e-01 -5.295394e-02 9.910216e-01 -5.308600e-02 7.497462e-03 4.770094e-04
4.600000e+09 7.581638e-03 6.193421e-04 9.909579e-01 -5.410599e-02 9.909111e-01 -5.423862e-02 7.539073e-03 4.680357e-04
4.700000e+09 7.626463e-03 6.105042e-04 9.908483e-01 -5.525671e-02 9.907991e-01 -5.538982e-02 7.580999e-03 4.579909e-04
4.800000e+09 7.671546e-03 6.005031e-04 9.907371e-01 -5.640610e-02 9.906856e-01 -5.653960e-02 7.623209e-03 4.468727e-04
4.900000e+09 7.716855e-03 5.893396e-04 9.906244e-01 -5.755417e-02 9.905706e-01 -5.768796e-02 7.665673e-03 4.346797e-04
5.000000e+09 7.762355e-03 5.770152e-04 9.905102e-01 -5.870090e-02 9.904542e-01 -5.883491e-02 7.708361e-03 4.214116e-04
5.100000e+09 7.808014e-03 5.635327e-04 9.903946e-01 -5.984631e-02 9.903364e-01 -5.998045e-02 7.751243e-03 4.070687e-04
5.200000e+09 7.853799e-03 5.488959e-04 9.902775e-01 -6.099040e-02 9.902172e-01 -6.112459e-02 7.794291e-03 3.916525e-04
5.300000e+09 7.899677e-03 5.331096e-04 9.901590e-01 -6.213318e-02 9.900967e-01 -6.226735e-02 7.837474e-03 3.751652e-04
5.400000e+09 7.945618e-03 5.161795e-04 9.900391e-01 -6.327465e-02 9.899749e-01 -6.340873e-02 7.880765e-03 3.576101e-04
5.500000e+09 7.991590e-03 4.981123e-04 9.899179e-01 -6.441482e-02 9.898519e-01 -6.454874e-02 7.924134e-03 3.389913e-04
5.600000e+09 8.037563e-03 4.789158e-04 9.897955e-01 -6.555370e-02 9.897277e-01 -6.568739e-02 7.967553e-03 3.193135e-04
5.700000e+09 8.083505e-03 4.585986e-04 9.896717e-01 -6.669129e-02 9.896023e-01 -6.682471e-02 8.010994e-03 2.985825e-04
5.800000e+09 8.129387e-03 4.371702e-04 9.895468e-01 -6.782761e-02 9.894757e-01 -6.796070e-02 8.054431e-03 2.768049e-04
5.900000e+09 8.175180e-03 4.146408e-04 9.894206e-01 -6.896267e-02 9.893481e-01 -6.909538e-02 8.097836e-03 2.539878e-04
6.000000e+09 8.220855e-03 3.910217e-04 9.892933e-01 -7.009649e-02 9.892193e-01 -7.022878e-02 8.141182e-03 2.301394e-04
6.100000e+09 8.266385e-03 3.663248e-04 9.891648e-01 -7.122907e-02 9.890895e-01 -7.136089e-02 8.184444e-03 2.052685e-04
6.200000e+09 8.311743e-03 3.405629e-04 9.890352e-01 -7.236043e-02 9.889588e-01 -7.249176e-02 8.227596e-03 1.793844e-04
6.300000e+09 8.356901e-03 3.137495e-04 9.889046e-01 -7.349058e-02 9.888270e-01 -7.362138e-02 8.270614e-03 1.524975e-04
6.400000e+09 8.401833e-03 2.858987e-04 9.887728e-01 -7.461955e-02 9.886943e-01 -7.474980e-02 8.313472e-03 1.246184e-04
6.500000e+09 8.446516e-03 2.570254e-04 9.886401e-01 -7.574734e-02 9.885606e-01 -7.587702e-02 8.356146e-03 9.575881e-05
6.600000e+09 8.490923e-03 2.271451e-04 9.885063e-01 -7.687398e-02 9.884260e-01 -7.700307e-02 8.398615e-03 6.593068e-05
6.700000e+09 8.535033e-03 1.962739e-04 9.883716e-01 -7.799947e-02 9.882906e-01 -7.812797e-02 8.440854e-03 3.514672e-05
6.800000e+09 8.578820e-03 1.644285e-04 9.882359e-01 -7.912385e-02 9.881543e-01 -7.925174e-02 8.482842e-03 3.420140e-06
6.900000e+09 8.622264e-03 1.316261e-04 9.880993e-01 -8.024713e-02 9.880172e-01 -8.037441e-02 8.524557e-03 -2.923528e-05
7.000000e+09 8.665342e-03 9.788454e-05 9.879618e-01 -8.136933e-02 9.878792e-01 -8.149600e-02 8.565979e-03 -6.280527e-05
7.100000e+09 8.708035e-03 6.322196e-05 9.878234e-01 -8.249046e-02 9.877405e-01 -8.261655e-02 8.607086e-03 -9.727509e-05
7.200000e+09 8.750322e-03 2.765705e-05 9.876841e-01 -8.361056e-02 9.876010e-01 -8.373606e-02 8.647860e-03 -1.326295e-04
7.300000e+09 8.792185e-03 -8.791109e-06 9.875440e-01 -8.472963e-02 9.874607e-01 -8.485457e-02 8.688282e-03 -1.688529e-04
7.400000e+09 8.833604e-03 -4.610305e-05 9.874031e-01 -8.584771e-02 9.873197e-01 -8.597210e-02 8.728333e-03 -2.059293e-04
7.500000e+09 8.874564e-03 -8.425897e-05 9.872613e-01 -8.696481e-02 9.871780e-01 -8.708868e-02 8.767995e-03 -2.438422e-04
7.600000e+09 8.915046e-03 -1.232387e-04 9.871187e-01 -8.808096e-02 9.870356e-01 -8.820433e-02 8.807252e-03 -2.825749e-04
7.700000e+09 8.955035e-03 -1.630219e-04 9.869754e-01 -8.919617e-02 9.868925e-01 -8.931909e-02 8.846088e-03 -3.221103e-04
7.800000e+09 8.994517e-03 -2.035879e-04 9.868313e-01 -9.031048e-02 9.867487e-01 -9.043297e-02 8.884487e-03 -3.624311e-04
7.900000e+09 9.033477e-03 -2.449158e-04 9.866864e-01 -9.142389e-02 9.866042e-01 -9.154601e-02 8.922433e-03 -4.035195e-04
8.000000e+09 9.071901e-03 -2.869845e-04 9.865408e-01 -9.253644e-02 9.864591e-01 -9.265822e-02 8.959914e-03 -4.453577e-04
8.100000e+09 9.109778e-03 -3.297727e-04 9.863945e-01 -9.364815e-02 9.863133e-01 -9.376965e-02 8.996914e-03 -4.879276e-04
8.200000e+09 9.147095e-03 -3.732592e-04 9.862474e-01 -9.475904e-02 9.861669e-01 -9.488030e-02 9.033422e-03 -5.312109e-04
8.300000e+09 9.183841e-03 -4.174224e-04 9.860997e-01 -9.586914e-02 9.860198e-01 -9.599022e-02 9.069425e-03 -5.751891e-04
8.400000e+09 9.220007e-03 -4.622408e-04 9.859512e-01 -9.697846e-02 9.858722e-01 -9.709942e-02 9.104912e-03 -6.198437e-04
8.500000e+09 9.255583e-03 -5.076929e-04 9.858021e-01 -9.808703e-02 9.857238e-01 -9.820793e-02 9.139872e-03 -6.651557e-04
8.600000e+09 9.290561e-03 -5.537569e-04 9.856522e-01 -9.919488e-02 9.855749e-01 -9.931578e-02 9.174294e-03 -7.111065e-04
8.700000e+09 9.324932e-03 -6.004114e-04 9.855017e-01 -1.003020e-01 9.854254e-01 -1.004230e-01 9.208170e-03 -7.576771e-04
8.800000e+09 9.358689e-03 -6.476348e-04 9.853505e-01 -1.014085e-01 9.852752e-01 -1.015296e-01 9.241490e-03 -8.048486e-04
8.900000e+09 9.391827e-03 -6.954055e-04 9.851987e-01 -1.025143e-01 9.851244e-01 -1.026356e-01 9.274247e-03 -8.526019e-04
9.000000e+09 9.424340e-03 -7.437023e-04 9.850462e-01 -1.036194e-01 9.849730e-01 -1.037411e-01 9.306432e-03 -9.009181e-04
9.100000e+09 9.456222e-03 -7.925037e-04 9.848930e-01 -1.047240e-01 9.848210e-01 -1.048460e-01 9.338040e-03 -9.497782e-04
9.200000e+09 9.487471e-03 -8.417887e-04 9.847391e-01 -1.058280e-01 9.846684e-01 -1.059504e-01 9.369063e-03 -9.991632e-04
9.300000e+09 9.518081e-03 -8.915361e-04 9.845846e-01 -1.069313e-01 9.845152e-01 -1.070543e-01 9.399496e-03 -1.049054e-03
9.400000e+09 9.548052e-03 -9.417253e-04 9.844295e-01 -1.080342e-01 9.843613e-01 -1.081577e-01 9.429335e-03 -1.099433e-03
9.500000e+09 9.577380e-03 -9.923356e-04 9.842736e-01 -1.091365e-01 9.842068e-01 -1.092607e-01 9.458574e-03 -1.150279e-03
9.600000e+09 9.606064e-03 -1.043347e-03 9.841172e-01 -1.102383e-01 9.840517e-01 -1.103633e-01 9.487210e-03 -1.201576e-03
9.700000e+09 9.634104e-03 -1.094738e-03 9.839600e-01 -1.113396e-01 9.838959e-01 -1.114654e-01 9.515240e-03 -1.253304e-03
9.800000e+09 9.661499e-03 -1.146490e-03 9.838022e-01 -1.124405e-01 9.837395e-01 -1.125672e-01 9.542661e-03 -1.305445e-03
9.900000e+09 9.688249e-03 -1.198583e-03 9.836437e-01 -1.135409e-01 9.835824e-01 -1.136686e-01 9.569471e-03 -1.357981e-03
1.000000e+10 9.714357e-03 -1.250998e-03 9.834846e-01 -1.146408e-01 9.834247e-01 -1.147697e-01 9.595668e-03 -1.410893e-03
1.010000e+10 9.739823e-03 -1.303715e-03 9.833248e-01 -1.157404e-01 9.832663e-01 -1.158705e-01 9.621252e-03 -1.464165e-03
1.020000e+10 9.764650e-03 -1.356716e-03 9.831643e-01 -1.168396e-01 9.831072e-01 -1.169709e-01 9.646222e-03 -1.517778e-03
1.030000e+10 9.788840e-03 -1.409983e-03 9.830031e-01 -1.179384e-01 9.829475e-01 -1.180711e-01 9.670578e-03 -1.571715e-03
1.040000e+10 9.812397e-03 -1.463497e-03 9.828412e-01 -1.190368e-01 9.827870e-01 -1.191710e-01 9.694321e-03 -1.625959e-03
1.050000e+10 9.835325e-03 -1.517242e-03 9.826786e-01 -1.201349e-01 9.826259e-01 -1.202706e-01 9.717452e-03 -1.680493e-03
1.060000e+10 9.857627e-03 -1.571198e-03 9.825154e-01 -1.212327e-01 9.824640e-01 -1.213700e-01 9.739971e-03 -1.735301e-03
1.070000e+10 9.879308e-03 -1.625351e-03 9.823514e-01 -1.223302e-01 9.823014e-01 -1.224692e-01 9.761882e-03 -1.790365e-03
1.080000e+10 9.900374e-03 -1.679683e-03 9.821867e-01 -1.234274e-01 9.821381e-01 -1.235682e-01 9.783186e-03 -1.845670e-03
1.090000e+10 9.920830e-03 -1.734178e-03 9.820212e-01 -1.245243e-01 9.819740e-01 -1.246670e-01 9.803886e-03 -1.901201e-03
1.100000e+10 9.940682e-03 -1.788820e-03 9.818550e-01 -1.256210e-01 9.818091e-01 -1.257656e-01 9.823986e-03 -1.956941e-03
1.110000e+10 9.959936e-03 -1.843595e-03 9.816881e-01 -1.267174e-01 9.816435e-01 -1.268640e-01 9.843489e-03 -2.012876e-03
1.120000e+10 9.978599e-03 -1.898488e-03 9.815204e-01 -1.278136e-01 9.814771e-01 -1.279623e-01 9.862399e-03 -2.068990e-03
1.130000e+10 9.996678e-03 -1.953483e-03 9.813520e-01 -1.289096e-01 9.813098e-01 -1.290604e-01 9.880720e-03 -2.125270e-03
1.140000e+10 1.001418e-02 -2.008568e-03 9.811828e-01 -1.300053e-01 9.811418e-01 -1.301584e-01 9.898458e-03 -2.181700e-03
1.150000e+10 1.003111e-02 -2.063728e-03 9.810128e-01 -1.311009e-01 9.809729e-01 -1.312562e-01 9.915616e-03 -2.238268e-03
1.160000e+10 1.004749e-02 -2.118951e-03 9.808420e-01 -1.321962e-01 9.808032e-01 -1.323540e-01 9.932202e-03 -2.294959e-03
1.170000e+10 1.006331e-02 -2.174225e-03 9.806704e-01 -1.332914e-01 9.806327e-01 -1.334516e-01 9.948219e-03 -2.351761e-03
1.180000e+10 1.007858e-02 -2.229536e-03 9.804979e-01 -1.343865e-01 9.804612e-01 -1.345492e-01 9.963674e-03 -2.408660e-03
1.190000e+10 1.009332e-02 -2.284874e-03 9.803247e-01 -1.354813e-01 9.802889e-01 -1.356466e-01 9.978574e-03 -2.465645e-03
1.200000e+10 1.010754e-02 -2.340227e-03 9.801506e-01 -1.365761e-01 9.801157e-01 -1.367440e-01 9.992925e-03 -2.522703e-03
1.210000e+10 1.012123e-02 -2.395585e-03 9.799756e-01 -1.376706e-01 9.799416e-01 -1.378413e-01 1.000673e-02 -2.579822e-03
1.220000e+10 1.013442e-02 -2.450937e-03 9.797998e-01 -1.387651e-01 9.797665e-01 -1.389385e-01 1.002001e-02 -2.636992e-03
1.230000e+10 1.014711e-02 -2.506273e-03 9.796232e-01 -1.398594e-01 9.795905e-01 -1.400356e-01 1.003275e-02 -2.694201e-03
1.240000e+10 1.015931e-02 -2.561585e-03 9.794456e-01 -1.409537e-01 9.794136e-01 -1.411326e-01 1.004497e-02 -2.751439e-03
1.250000e+10 1.017103e-02 -2.616863e-03 9.792671e-01 -1.420478e-01 9.792357e-01 -1.422296e-01 1.005668e-02 -2.808696e-03
1.260000e+10 1.018228e-02 -2.672098e-03 9.790877e-01 -1.431418e-01 9.790568e-01 -1.433265e-01 1.006789e-02 -2.865961e-03
1.270000e+10 1.019307e-02 -2.727284e-03 9.789074e-01 -1.442357e-01 9.788769e-01 -1.444234e-01 1.007859e-02 -2.923226e-03
1.280000e+10 1.020342e-02 -2.782412e-03 9.787262e-01 -1.453295e-01 9.786960e-01 -1.455202e-01 1.008881e-02 -2.980481e-03
1.290000e+10 1.021332e-02 -2.837475e-03 9.785440e-01 -1.464232e-01 9.785141e-01 -1.466169e-01 1.009854e-02 -3.037718e-03
1.300000e+10 1.022279e-02 -2.892467e-03 9.783609e-01 -1.475168e-01 9.783312e-01 -1.477136e-01 1.010780e-02 -3.094928e-03
1.310000e+10 1.023184e-02 -2.947382e-03 9.781768e-01 -1.486103e-01 9.781472e-01 -1.488102e-01 1.011660e-02 -3.152104e-03
1.320000e+10 1.024048e-02 -3.002213e-03 9.779917e-01 -1.497038e-01 9.779622e-01 -1.499068e-01 1.012494e-02 -3.209238e-03
1.330000e+10 1.024873e-02 -3.056956e-03 9.778056e-01 -1.507972e-01 9.777761e-01 -1.510033e-01 1.013283e-02 -3.266322e-03
1.340000e+10 1.025658e-02 -3.111605e-03 9.776185e-01 -1.518905e-01 9.775889e-01 -1.520997e-01 1.014028e-02 -3.323351e-03
1.350000e+10 1.026405e-02 -3.166157e-03 9.774304e-01 -1.529837e-01 9.774006e-01 -1.531961e-01 1.014730e-02 -3.380317e-03
1.360000e+10 1.027116e-02 -3.220606e-03 9.772413e-01 -1.540768e-01 9.772112e-01 -1.542924e-01 1.015389e-02 -3.437214e-03
1.370000e+10 1.027790e-02 -3.274949e-03 9.770511e-01 -1.551699e-01 9.770207e-01 -1.553886e-01 1.016008e-02 -3.494037e-03
1.380000e+10 1.028429e-02 -3.329183e-03 9.768599e-01 -1.562629e-01 9.768291e-01 -1.564847e-01 1.016586e-02 -3.550781e-03
1.390000e+10 1.029035e-02 -3.383305e-03 9.766676e-01 -1.573558e-01 9.766363e-01 -1.575808e-01 1.017124e-02 -3.607439e-03
1.400000e+10 1.029607e-02 -3.437312e-03 9.764743e-01 -1.584486e-01 9.764424e-01 -1.586768e-01 1.017623e-02 -3.664009e-03
1.410000e+10 1.030147e-02 -3.491202e-03 9.762798e-01 -1.595413e-01 9.762473e-01 -1.597727e-01 1.018085e-02 -3.720484e-03
1.420000e+10 1.030656e-02 -3.544973e-03 9.760843e-01 -1.606340e-01 9.760511e-01 -1.608685e-01 1.018509e-02 -3.776862e-03
1.430000e+10 1.031135e-02 -3.598624e-03 9.758877e-01 -1.617265e-01 9.758537e-01 -1.619641e-01 1.018897e-02 -3.833138e-03
1.440000e+10 1.031585e-02 -3.652154e-03 9.756900e-01 -1.628190e-01 9.756551e-01 -1.630597e-01 1.019250e-02 -3.889310e-03
1.450000e+10 1.032006e-02 -3.705561e-03 9.754912e-01 -1.639114e-01 9.754553e-01 -1.641552e-01 1.019568e-02 -3.945374e-03
1.460000e+10 1.032399e-02 -3.758845e-03 9.752912e-01 -1.650037e-01 9.752544e-01 -1.652505e-01 1.019853e-02 -4.001327e-03
1.470000e+10 1.032766e-02 -3.812006e-03 9.750901e-01 -1.660959e-01 9.750522e-01 -1.663458e-01 1.020105e-02 -4.057167e-03
1.480000e+10 1.033107e-02 -3.865044e-03 9.748878e-01 -1.671880e-01 9.748488e-01 -1.674409e-01 1.020325e-02 -4.112891e-03
1.490000e+10 1.033423e-02 -3.917959e-03 9.746845e-01 -1.682800e-01 9.746442e-01 -1.685358e-01 1.020514e-02 -4.168499e-03
1.500000e+10 1.033715e-02 -3.970752e-03 9.744799e-01 -1.693718e-01 9.744383e-01 -1.696306e-01 1.020672e-02 -4.223988e-03
1.510000e+10 1.033984e-02 -4.023423e-03 9.742742e-01 -1.704636e-01 9.742312e-01 -1.707253e-01 1.020801e-02 -4.279357e-03
1.520000e+10 1.034230e-02 -4.075974e-03 9.740673e-01 -1.715552e-01 9.740229e-01 -1.718198e-01 1.020901e-02 -4.334604e-03
1.530000e+10 1.034453e-02 -4.128406e-03 9.738592e-01 -1.726467e-01 9.738134e-01 -1.729141e-01 1.020973e-02 -4.389730e-03
1.540000e+10 1.034656e-02 -4.180720e-03 9.736499e-01 -1.737381e-01 9.736026e-01 -1.740083e-01 1.021017e-02 -4.444733e-03
1.550000e+10 1.034839e-02 -4.232919e-03 9.734395e-01 -1.748294e-01 9.733905e-01 -1.751022e-01 1.021035e-02 -4.499614e-03
1.560000e+10 1.035001e-02 -4.285005e-03 9.732278e-01 -1.759205e-01 9.731772e-01 -1.761960e-01 1.021028e-02 -4.554371e-03
1.570000e+10 1.035145e-02 -4.336978e-03 9.730149e-01 -1.770114e-01 9.729627e-01 -1.772896e-01 1.020995e-02 -4.609006e-03
1.580000e+10 1.035270e-02 -4.388843e-03 9.728008e-01 -1.781022e-01 9.727469e-01 -1.783830e-01 1.020938e-02 -4.663518e-03
1.590000e+10 1.035377e-02 -4.440601e-03 9.725855e-01 -1.791928e-01 9.725298e-01 -1.794761e-01 1.020857e-02 -4.717909e-03
1.600000e+10 1.035467e-02 -4.492255e-03 9.723690e-01 -1.802833e-01 9.723114e-01 -1.805691e-01 1.020753e-02 -4.772178e-03
1.610000e+10 1.035540e-02 -4.543808e-03 9.721513e-01 -1.813736e-01 9.720918e-01 -1.816618e-01 1.020626e-02 -4.826328e-03
1.620000e+10 1.035597e-02 -4.595263e-03 9.719323e-01 -1.824637e-01 9.718709e-01 -1.827542e-01 1.020478e-02 -4.880358e-03
1.630000e+10 1.035639e-02 -4.646622e-03 9.717121e-01 -1.835537e-01 9.716487e-01 -1.838464e-01 1.020309e-02 -4.934271e-03
