#   Hz   S  RI   R   50
!
0.000000e+00 3.483582e-03 0.000000e+00 9.966395e-01 0.000000e+00 9.965787e-01 0.000000e+00 3.424434e-03 0.000000e+00
1.000000e+08 3.483639e-03 3.924671e-05 9.966393e-01 -4.751354e-04 9.965785e-01 -4.740960e-04 3.424532e-03 4.033877e-05
2.000000e+08 3.483812e-03 7.849212e-05 9.966387e-01 -9.502685e-04 9.965779e-01 -9.481901e-04 3.424826e-03 8.067587e-05
3.000000e+08 3.484100e-03 1.177349e-04 9.966378e-01 -1.425397e-03 9.965770e-01 -1.422280e-03 3.425316e-03 1.210096e-04
4.000000e+08 3.484503e-03 1.569739e-04 9.966364e-01 -1.900519e-03 9.965757e-01 -1.896365e-03 3.426001e-03 1.613384e-04
5.000000e+08 3.485021e-03 1.962076e-04 9.966347e-01 -2.375632e-03 9.965741e-01 -2.370442e-03 3.426883e-03 2.016604e-04
6.000000e+08 3.485655e-03 2.354349e-04 9.966326e-01 -2.850734e-03 9.965721e-01 -2.844509e-03 3.427960e-03 2.419742e-04
7.000000e+08 3.486403e-03 2.746544e-04 9.966301e-01 -3.325822e-03 9.965697e-01 -3.318565e-03 3.429232e-03 2.822779e-04
8.000000e+08 3.487266e-03 3.138648e-04 9.966272e-01 -3.800895e-03 9.965670e-01 -3.792607e-03 3.430700e-03 3.225699e-04
9.000000e+08 3.488244e-03 3.530649e-04 9.966240e-01 -4.275949e-03 9.965639e-01 -4.266634e-03 3.432364e-03 3.628485e-04
1.000000e+09 3.489336e-03 3.922534e-04 9.966203e-01 -4.750984e-03 9.965604e-01 -4.740643e-03 3.434222e-03 4.031122e-04
1.100000e+09 3.490543e-03 4.314289e-04 9.966163e-01 -5.225996e-03 9.965566e-01 -5.214634e-03 3.436275e-03 4.433592e-04
1.200000e+09 3.491863e-03 4.705902e-04 9.966119e-01 -5.700984e-03 9.965524e-01 -5.688603e-03 3.438523e-03 4.835879e-04
1.300000e+09 3.493298e-03 5.097360e-04 9.966071e-01 -6.175945e-03 9.965478e-01 -6.162550e-03 3.440965e-03 5.237966e-04
1.400000e+09 3.494847e-03 5.488651e-04 9.966020e-01 -6.650877e-03 9.965429e-01 -6.636471e-03 3.443602e-03 5.639837e-04
1.500000e+09 3.496510e-03 5.879761e-04 9.965964e-01 -7.125777e-03 9.965376e-01 -7.110366e-03 3.446432e-03 6.041476e-04
1.600000e+09 3.498285e-03 6.270677e-04 9.965905e-01 -7.600645e-03 9.965320e-01 -7.584233e-03 3.449456e-03 6.442866e-04
1.700000e+09 3.500174e-03 6.661388e-04 9.965842e-01 -8.075476e-03 9.965260e-01 -8.058068e-03 3.452673e-03 6.843990e-04
1.800000e+09 3.502176e-03 7.051881e-04 9.965775e-01 -8.550270e-03 9.965196e-01 -8.531872e-03 3.456083e-03 7.244833e-04
1.900000e+09 3.504291e-03 7.442142e-04 9.965704e-01 -9.025024e-03 9.965129e-01 -9.005641e-03 3.459685e-03 7.645378e-04
2.000000e+09 3.506517e-03 7.832160e-04 9.965630e-01 -9.499736e-03 9.965058e-01 -9.479374e-03 3.463480e-03 8.045609e-04
2.100000e+09 3.508856e-03 8.221922e-04 9.965552e-01 -9.974404e-03 9.964983e-01 -9.953069e-03 3.467466e-03 8.445510e-04
2.200000e+09 3.511306e-03 8.611414e-04 9.965470e-01 -1.044903e-02 9.964905e-01 -1.042672e-02 3.471644e-03 8.845064e-04
2.300000e+09 3.513868e-03 9.000626e-04 9.965384e-01 -1.092360e-02 9.964823e-01 -1.090034e-02 3.476012e-03 9.244257e-04
2.400000e+09 3.516540e-03 9.389544e-04 9.965295e-01 -1.139812e-02 9.964738e-01 -1.137391e-02 3.480571e-03 9.643071e-04
2.500000e+09 3.519323e-03 9.778156e-04 9.965201e-01 -1.187259e-02 9.964649e-01 -1.184743e-02 3.485320e-03 1.004149e-03
2.600000e+09 3.522217e-03 1.016645e-03 9.965104e-01 -1.234700e-02 9.964557e-01 -1.232091e-02 3.490258e-03 1.043950e-03
2.700000e+09 3.525220e-03 1.055441e-03 9.965004e-01 -1.282136e-02 9.964461e-01 -1.279434e-02 3.495385e-03 1.083709e-03
2.800000e+09 3.528332e-03 1.094204e-03 9.964899e-01 -1.329566e-02 9.964361e-01 -1.326772e-02 3.500700e-03 1.123423e-03
2.900000e+09 3.531553e-03 1.132930e-03 9.964791e-01 -1.376990e-02 9.964258e-01 -1.374104e-02 3.506203e-03 1.163092e-03
3.000000e+09 3.534883e-03 1.171620e-03 9.964679e-01 -1.424407e-02 9.964151e-01 -1.421432e-02 3.511893e-03 1.202714e-03
3.100000e+09 3.538321e-03 1.210272e-03 9.964564e-01 -1.471818e-02 9.964041e-01 -1.468753e-02 3.517770e-03 1.242286e-03
3.200000e+09 3.541866e-03 1.248885e-03 9.964444e-01 -1.519223e-02 9.963927e-01 -1.516069e-02 3.523832e-03 1.281809e-03
3.300000e+09 3.545518e-03 1.287458e-03 9.964321e-01 -1.566620e-02 9.963810e-01 -1.563379e-02 3.530080e-03 1.321280e-03
3.400000e+09 3.549277e-03 1.325990e-03 9.964195e-01 -1.614010e-02 9.963689e-01 -1.610683e-02 3.536512e-03 1.360697e-03
3.500000e+09 3.553141e-03 1.364478e-03 9.964065e-01 -1.661393e-02 9.963565e-01 -1.657980e-02 3.543129e-03 1.400060e-03
3.600000e+09 3.557111e-03 1.402924e-03 9.963931e-01 -1.708768e-02 9.963437e-01 -1.705271e-02 3.549928e-03 1.439366e-03
3.700000e+09 3.561186e-03 1.441324e-03 9.963793e-01 -1.756136e-02 9.963305e-01 -1.752555e-02 3.556911e-03 1.478615e-03
3.800000e+09 3.565365e-03 1.479678e-03 9.963652e-01 -1.803496e-02 9.963171e-01 -1.799833e-02 3.564075e-03 1.517804e-03
3.900000e+09 3.569648e-03 1.517985e-03 9.963507e-01 -1.850847e-02 9.963032e-01 -1.847103e-02 3.571420e-03 1.556933e-03
4.000000e+09 3.574034e-03 1.556243e-03 9.963359e-01 -1.898190e-02 9.962890e-01 -1.894367e-02 3.578945e-03 1.595999e-03
4.100000e+09 3.578523e-03 1.594453e-03 9.963206e-01 -1.945525e-02 9.962745e-01 -1.941623e-02 3.586650e-03 1.635002e-03
4.200000e+09 3.583113e-03 1.632611e-03 9.963051e-01 -1.992852e-02 9.962596e-01 -1.988871e-02 3.594533e-03 1.673940e-03
4.300000e+09 3.587805e-03 1.670718e-03 9.962892e-01 -2.040169e-02 9.962444e-01 -2.036112e-02 3.602594e-03 1.712811e-03
4.400000e+09 3.592597e-03 1.708772e-03 9.962729e-01 -2.087477e-02 9.962289e-01 -2.083346e-02 3.610832e-03 1.751615e-03
4.500000e+09 3.597489e-03 1.746773e-03 9.962562e-01 -2.134776e-02 9.962130e-01 -2.130571e-02 3.619247e-03 1.790350e-03
4.600000e+09 3.602481e-03 1.784718e-03 9.962393e-01 -2.182066e-02 9.961967e-01 -2.177788e-02 3.627837e-03 1.829013e-03
4.700000e+09 3.607571e-03 1.822608e-03 9.962219e-01 -2.229346e-02 9.961801e-01 -2.224997e-02 3.636601e-03 1.867605e-03
4.800000e+09 3.612759e-03 1.860440e-03 9.962042e-01 -2.276617e-02 9.961632e-01 -2.272198e-02 3.645538e-03 1.906124e-03
4.900000e+09 3.618044e-03 1.898214e-03 9.961862e-01 -2.323877e-02 9.961459e-01 -2.319390e-02 3.654648e-03 1.944568e-03
5.000000e+09 3.623426e-03 1.935930e-03 9.961678e-01 -2.371128e-02 9.961283e-01 -2.366573e-02 3.663930e-03 1.982936e-03
5.100000e+09 3.628903e-03 1.973585e-03 9.961490e-01 -2.418368e-02 9.961104e-01 -2.413747e-02 3.673383e-03 2.021227e-03
5.200000e+09 3.634475e-03 2.011178e-03 9.961300e-01 -2.465598e-02 9.960921e-01 -2.460913e-02 3.683005e-03 2.059439e-03
5.300000e+09 3.640141e-03 2.048710e-03 9.961105e-01 -2.512817e-02 9.960735e-01 -2.508069e-02 3.692796e-03 2.097572e-03
5.400000e+09 3.645901e-03 2.086179e-03 9.960907e-01 -2.560025e-02 9.960546e-01 -2.555216e-02 3.702754e-03 2.135623e-03
5.500000e+09 3.651753e-03 2.123583e-03 9.960706e-01 -2.607223e-02 9.960353e-01 -2.602353e-02 3.712880e-03 2.173592e-03
5.600000e+09 3.657697e-03 2.160922e-03 9.960502e-01 -2.654409e-02 9.960157e-01 -2.649481e-02 3.723171e-03 2.211477e-03
5.700000e+09 3.663732e-03 2.198195e-03 9.960294e-01 -2.701584e-02 9.959958e-01 -2.696599e-02 3.733626e-03 2.249278e-03
5.800000e+09 3.669858e-03 2.235401e-03 9.960082e-01 -2.748748e-02 9.959755e-01 -2.743708e-02 3.744246e-03 2.286992e-03
5.900000e+09 3.676072e-03 2.272539e-03 9.959868e-01 -2.795900e-02 9.959549e-01 -2.790806e-02 3.755028e-03 2.324620e-03
6.000000e+09 3.682375e-03 2.309608e-03 9.959650e-01 -2.843041e-02 9.959340e-01 -2.837894e-02 3.765971e-03 2.362159e-03
6.100000e+09 3.688766e-03 2.346608e-03 9.959428e-01 -2.890170e-02 9.959128e-01 -2.884972e-02 3.777075e-03 2.399608e-03
6.200000e+09 3.695244e-03 2.383536e-03 9.959203e-01 -2.937287e-02 9.958912e-01 -2.932040e-02 3.788337e-03 2.436967e-03
6.300000e+09 3.701807e-03 2.420393e-03 9.958975e-01 -2.984391e-02 9.958694e-01 -2.979097e-02 3.799759e-03 2.474234e-03
6.400000e+09 3.708456e-03 2.457177e-03 9.958744e-01 -3.031484e-02 9.958472e-01 -3.026143e-02 3.811337e-03 2.511407e-03
6.500000e+09 3.715188e-03 2.493888e-03 9.958509e-01 -3.078564e-02 9.958246e-01 -3.073179e-02 3.823070e-03 2.548487e-03
6.600000e+09 3.722004e-03 2.530525e-03 9.958272e-01 -3.125632e-02 9.958018e-01 -3.120203e-02 3.834959e-03 2.585472e-03
6.700000e+09 3.728902e-03 2.567087e-03 9.958031e-01 -3.172686e-02 9.957786e-01 -3.167217e-02 3.847001e-03 2.622361e-03
6.800000e+09 3.735882e-03 2.603572e-03 9.957786e-01 -3.219729e-02 9.957552e-01 -3.214219e-02 3.859196e-03 2.659152e-03
6.900000e+09 3.742942e-03 2.639981e-03 9.957539e-01 -3.266758e-02 9.957314e-01 -3.261211e-02 3.871541e-03 2.695845e-03
7.000000e+09 3.750081e-03 2.676313e-03 9.957288e-01 -3.313774e-02 9.957073e-01 -3.308191e-02 3.884037e-03 2.732439e-03
7.100000e+09 3.757299e-03 2.712566e-03 9.957034e-01 -3.360777e-02 9.956829e-01 -3.355159e-02 3.896681e-03 2.768932e-03
7.200000e+09 3.764595e-03 2.748739e-03 9.956777e-01 -3.407767e-02 9.956582e-01 -3.402116e-02 3.909473e-03 2.805325e-03
7.300000e+09 3.771967e-03 2.784833e-03 9.956517e-01 -3.454743e-02 9.956331e-01 -3.449061e-02 3.922411e-03 2.841615e-03
7.400000e+09 3.779415e-03 2.820847e-03 9.956254e-01 -3.501706e-02 9.956078e-01 -3.495995e-02 3.935494e-03 2.877802e-03
7.500000e+09 3.786938e-03 2.856779e-03 9.955987e-01 -3.548655e-02 9.955822e-01 -3.542916e-02 3.948721e-03 2.913885e-03
7.600000e+09 3.794534e-03 2.892628e-03 9.955718e-01 -3.595590e-02 9.955562e-01 -3.589826e-02 3.962091e-03 2.949862e-03
7.700000e+09 3.802204e-03 2.928395e-03 9.955445e-01 -3.642512e-02 9.955300e-01 -3.636723e-02 3.975602e-03 2.985734e-03
7.800000e+09 3.809944e-03 2.964079e-03 9.955170e-01 -3.689420e-02 9.955034e-01 -3.683608e-02 3.989252e-03 3.021500e-03
7.900000e+09 3.817756e-03 2.999678e-03 9.954891e-01 -3.736313e-02 9.954766e-01 -3.730481e-02 4.003042e-03 3.057157e-03
8.000000e+09 3.825637e-03 3.035192e-03 9.954610e-01 -3.783193e-02 9.954495e-01 -3.777342e-02 4.016969e-03 3.092706e-03
8.100000e+09 3.833587e-03 3.070621e-03 9.954325e-01 -3.830058e-02 9.954220e-01 -3.824190e-02 4.031032e-03 3.128146e-03
8.200000e+09 3.841604e-03 3.105963e-03 9.954038e-01 -3.876909e-02 9.953943e-01 -3.871025e-02 4.045230e-03 3.163476e-03
8.300000e+09 3.849688e-03 3.141219e-03 9.953747e-01 -3.923745e-02 9.953663e-01 -3.917848e-02 4.059561e-03 3.198695e-03
8.400000e+09 3.857837e-03 3.176387e-03 9.953453e-01 -3.970567e-02 9.953379e-01 -3.964658e-02 4.074024e-03 3.233802e-03
8.500000e+09 3.866051e-03 3.211467e-03 9.953157e-01 -4.017375e-02 9.953093e-01 -4.011455e-02 4.088618e-03 3.268797e-03
8.600000e+09 3.874328e-03 3.246459e-03 9.952858e-01 -4.064167e-02 9.952804e-01 -4.058239e-02 4.103342e-03 3.303679e-03
8.700000e+09 3.882668e-03 3.281361e-03 9.952556e-01 -4.110945e-02 9.952512e-01 -4.105011e-02 4.118194e-03 3.338447e-03
8.800000e+09 3.891069e-03 3.316174e-03 9.952250e-01 -4.157709e-02 9.952218e-01 -4.151769e-02 4.133173e-03 3.373100e-03
8.900000e+09 3.899530e-03 3.350896e-03 9.951943e-01 -4.204457e-02 9.951920e-01 -4.198514e-02 4.148277e-03 3.407639e-03
9.000000e+09 3.908050e-03 3.385527e-03 9.951632e-01 -4.251190e-02 9.951620e-01 -4.245246e-02 4.163505e-03 3.442061e-03
9.100000e+09 3.916628e-03 3.420067e-03 9.951318e-01 -4.297908e-02 9.951317e-01 -4.291965e-02 4.178856e-03 3.476367e-03
9.200000e+09 3.925263e-03 3.454515e-03 9.951002e-01 -4.344611e-02 9.951011e-01 -4.338670e-02 4.194328e-03 3.510556e-03
9.300000e+09 3.933954e-03 3.488870e-03 9.950683e-01 -4.391299e-02 9.950702e-01 -4.385362e-02 4.209920e-03 3.544628e-03
9.400000e+09 3.942700e-03 3.523133e-03 9.950361e-01 -4.437972e-02 9.950390e-01 -4.432040e-02 4.225631e-03 3.578581e-03
9.500000e+09 3.951499e-03 3.557302e-03 9.950036e-01 -4.484629e-02 9.950076e-01 -4.478705e-02 4.241459e-03 3.612415e-03
9.600000e+09 3.960351e-03 3.591378e-03 9.949709e-01 -4.531271e-02 9.949759e-01 -4.525356e-02 4.257402e-03 3.646130e-03
9.700000e+09 3.969254e-03 3.625359e-03 9.949379e-01 -4.577898e-02 9.949439e-01 -4.571994e-02 4.273460e-03 3.679725e-03
9.800000e+09 3.978208e-03 3.659246e-03 9.949046e-01 -4.624509e-02 9.949117e-01 -4.618618e-02 4.289631e-03 3.713200e-03
9.900000e+09 3.987211e-03 3.693037e-03 9.948711e-01 -4.671105e-02 9.948792e-01 -4.665228e-02 4.305914e-03 3.746554e-03
1.000000e+10 3.996262e-03 3.726733e-03 9.948373e-01 -4.717685e-02 9.948464e-01 -4.711825e-02 4.322307e-03 3.779786e-03
1.010000e+10 4.005360e-03 3.760334e-03 9.948032e-01 -4.764250e-02 9.948133e-01 -4.758407e-02 4.338809e-03 3.812897e-03
1.020000e+10 4.014503e-03 3.793838e-03 9.947689e-01 -4.810799e-02 9.947800e-01 -4.804976e-02 4.355418e-03 3.845886e-03
1.030000e+10 4.023692e-03 3.827246e-03 9.947343e-01 -4.857332e-02 9.947464e-01 -4.851530e-02 4.372133e-03 3.878752e-03
1.040000e+10 4.032924e-03 3.860557e-03 9.946995e-01 -4.903850e-02 9.947126e-01 -4.898071e-02 4.388953e-03 3.911495e-03
1.050000e+10 4.042198e-03 3.893771e-03 9.946644e-01 -4.950352e-02 9.946785e-01 -4.944598e-02 4.405876e-03 3.944114e-03
1.060000e+10 4.051514e-03 3.926887e-03 9.946290e-01 -4.996838e-02 9.946442e-01 -4.991110e-02 4.422901e-03 3.976610e-03
1.070000e+10 4.060870e-03 3.959905e-03 9.945934e-01 -5.043309e-02 9.946095e-01 -5.037609e-02 4.440026e-03 4.008982e-03
1.080000e+10 4.070265e-03 3.992826e-03 9.945576e-01 -5.089763e-02 9.945747e-01 -5.084093e-02 4.457251e-03 4.041230e-03
1.090000e+10 4.079698e-03 4.025648e-03 9.945215e-01 -5.136202e-02 9.945396e-01 -5.130564e-02 4.474572e-03 4.073353e-03
1.100000e+10 4.089168e-03 4.058372e-03 9.944851e-01 -5.182625e-02 9.945042e-01 -5.177020e-02 4.491990e-03 4.105351e-03
1.110000e+10 4.098674e-03 4.090997e-03 9.944486e-01 -5.229032e-02 9.944686e-01 -5.223462e-02 4.509503e-03 4.137223e-03
1.120000e+10 4.108214e-03 4.123523e-03 9.944117e-01 -5.275424e-02 9.944327e-01 -5.269890e-02 4.527109e-03 4.168971e-03
1.130000e+10 4.117787e-03 4.155950e-03 9.943747e-01 -5.321799e-02 9.943966e-01 -5.316303e-02 4.544807e-03 4.200592e-03
1.140000e+10 4.127393e-03 4.188278e-03 9.943374e-01 -5.368159e-02 9.943603e-01 -5.362702e-02 4.562595e-03 4.232088e-03
1.150000e+10 4.137030e-03 4.220506e-03 9.942998e-01 -5.414503e-02 9.943237e-01 -5.409087e-02 4.580473e-03 4.263458e-03
1.160000e+10 4.146696e-03 4.252634e-03 9.942620e-01 -5.460831e-02 9.942868e-01 -5.455458e-02 4.598438e-03 4.294702e-03
1.170000e+10 4.156392e-03 4.284663e-03 9.942240e-01 -5.507143e-02 9.942497e-01 -5.501814e-02 4.616490e-03 4.325819e-03
1.180000e+10 4.166115e-03 4.316591e-03 9.941858e-01 -5.553439e-02 9.942124e-01 -5.548156e-02 4.634626e-03 4.356810e-03
1.190000e+10 4.175865e-03 4.348420e-03 9.941473e-01 -5.599720e-02 9.941749e-01 -5.594484e-02 4.652846e-03 4.387674e-03
1.200000e+10 4.185640e-03 4.380148e-03 9.941086e-01 -5.645984e-02 9.941371e-01 -5.640797e-02 4.671149e-03 4.418412e-03
1.210000e+10 4.195440e-03 4.411776e-03 9.940697e-01 -5.692233e-02 9.940991e-01 -5.687096e-02 4.689531e-03 4.449022e-03
1.220000e+10 4.205263e-03 4.443304e-03 9.940306e-01 -5.738466e-02 9.940608e-01 -5.733381e-02 4.707994e-03 4.479506e-03
1.230000e+10 4.215108e-03 4.474732e-03 9.939912e-01 -5.784683e-02 9.940223e-01 -5.779651e-02 4.726534e-03 4.509863e-03
1.240000e+10 4.224973e-03 4.506059e-03 9.939516e-01 -5.830884e-02 9.939836e-01 -5.825907e-02 4.745151e-03 4.540094e-03
1.250000e+10 4.234859e-03 4.537285e-03 9.939118e-01 -5.877070e-02 9.939446e-01 -5.872149e-02 4.763843e-03 4.570197e-03
1.260000e+10 4.244763e-03 4.568411e-03 9.938718e-01 -5.923240e-02 9.939055e-01 -5.918376e-02 4.782609e-03 4.600174e-03
1.270000e+10 4.254685e-03 4.599437e-03 9.938316e-01 -5.969394e-02 9.938661e-01 -5.964589e-02 4.801447e-03 4.630023e-03
1.280000e+10 4.264623e-03 4.630362e-03 9.937911e-01 -6.015533e-02 9.938265e-01 -6.010788e-02 4.820357e-03 4.659746e-03
1.290000e+10 4.274576e-03 4.661187e-03 9.937505e-01 -6.061656e-02 9.937866e-01 -6.056972e-02 4.839336e-03 4.689342e-03
1.300000e+10 4.284544e-03 4.691911e-03 9.937096e-01 -6.107763e-02 9.937466e-01 -6.103143e-02 4.858384e-03 4.718812e-03
1.310000e+10 4.294525e-03 4.722535e-03 9.936686e-01 -6.153855e-02 9.937063e-01 -6.149298e-02 4.877498e-03 4.748155e-03
1.320000e+10 4.304518e-03 4.753059e-03 9.936273e-01 -6.199931e-02 9.936658e-01 -6.195440e-02 4.896679e-03 4.777371e-03
1.330000e+10 4.314521e-03 4.783483e-03 9.935858e-01 -6.245992e-02 9.936251e-01 -6.241568e-02 4.915924e-03 4.806461e-03
1.340000e+10 4.324535e-03 4.813806e-03 9.935441e-01 -6.292037e-02 9.935842e-01 -6.287681e-02 4.935232e-03 4.835426e-03
1.350000e+10 4.334557e-03 4.844030e-03 9.935022e-01 -6.338067e-02 9.935430e-01 -6.333780e-02 4.954601e-03 4.864264e-03
1.360000e+10 4.344586e-03 4.874153e-03 9.934601e-01 -6.384082e-02 9.935017e-01 -6.379865e-02 4.974031e-03 4.892976e-03
1.370000e+10 4.354623e-03 4.904177e-03 9.934179e-01 -6.430081e-02 9.934601e-01 -6.425936e-02 4.993521e-03 4.921563e-03
1.380000e+10 4.364664e-03 4.934102e-03 9.933754e-01 -6.476065e-02 9.934183e-01 -6.471993e-02 5.013068e-03 4.950024e-03
1.390000e+10 4.374710e-03 4.963926e-03 9.933327e-01 -6.522034e-02 9.933764e-01 -6.518035e-02 5.032671e-03 4.978360e-03
1.400000e+10 4.384759e-03 4.993652e-03 9.932898e-01 -6.567988e-02 9.933342e-01 -6.564064e-02 5.052330e-03 5.006571e-03
1.410000e+10 4.394811e-03 5.023279e-03 9.932468e-01 -6.613927e-02 9.932918e-01 -6.610079e-02 5.072043e-03 5.034658e-03
1.420000e+10 4.404863e-03 5.052806e-03 9.932036e-01 -6.659850e-02 9.932492e-01 -6.656080e-02 5.091808e-03 5.062620e-03
1.430000e+10 4.414916e-03 5.082235e-03 9.931601e-01 -6.705759e-02 9.932064e-01 -6.702066e-02 5.111625e-03 5.090458e-03
1.440000e+10 4.424968e-03 5.111566e-03 9.931165e-01 -6.751653e-02 9.931634e-01 -6.748039e-02 5.131492e-03 5.118172e-03
1.450000e+10 4.435017e-03 5.140798e-03 9.930727e-01 -6.797532e-02 9.931203e-01 -6.793999e-02 5.151408e-03 5.145763e-03
1.460000e+10 4.445064e-03 5.169932e-03 9.930287e-01 -6.843397e-02 9.930769e-01 -6.839944e-02 5.171371e-03 5.173230e-03
1.470000e+10 4.455106e-03 5.198968e-03 9.929845e-01 -6.889246e-02 9.930333e-01 -6.885876e-02 5.191381e-03 5.200575e-03
1.480000e+10 4.465144e-03 5.227908e-03 9.929402e-01 -6.935081e-02 9.929895e-01 -6.931794e-02 5.211437e-03 5.227798e-03
1.490000e+10 4.475175e-03 5.256749e-03 9.928957e-01 -6.980902e-02 9.929456e-01 -6.977698e-02 5.231536e-03 5.254898e-03
1.500000e+10 4.485199e-03 5.285494e-03 9.928510e-01 -7.026708e-02 9.929014e-01 -7.023589e-02 5.251678e-03 5.281877e-03
1.510000e+10 4.495215e-03 5.314143e-03 9.928061e-01 -7.072500e-02 9.928571e-01 -7.069466e-02 5.271862e-03 5.308734e-03
1.520000e+10 4.505221e-03 5.342695e-03 9.927610e-01 -7.118277e-02 9.928125e-01 -7.115330e-02 5.292086e-03 5.335471e-03
1.530000e+10 4.515218e-03 5.371151e-03 9.927158e-01 -7.164040e-02 9.927678e-01 -7.161180e-02 5.312349e-03 5.362087e-03
1.540000e+10 4.525203e-03 5.399512e-03 9.926704e-01 -7.209789e-02 9.927229e-01 -7.207017e-02 5.332651e-03 5.388583e-03
1.550000e+10 4.535176e-03 5.427777e-03 9.926248e-01 -7.255524e-02 9.926778e-01 -7.252841e-02 5.352989e-03 5.414960e-03
1.560000e+10 4.545136e-03 5.455948e-03 9.925791e-01 -7.301245e-02 9.926325e-01 -7.298651e-02 5.373363e-03 5.441218e-03
1.570000e+10 4.555081e-03 5.484024e-03 9.925332e-01 -7.346953e-02 9.925871e-01 -7.344448e-02 5.393772e-03 5.467357e-03
1.580000e+10 4.565012e-03 5.512005e-03 9.924871e-01 -7.392646e-02 9.925414e-01 -7.390232e-02 5.414215e-03 5.493378e-03
1.590000e+10 4.574926e-03 5.539893e-03 9.924409e-01 -7.438326e-02 9.924956e-01 -7.436003e-02 5.434689e-03 5.519282e-03
1.600000e+10 4.584824e-03 5.567688e-03 9.923945e-01 -7.483992e-02 9.924496e-01 -7.481761e-02 5.455196e-03 5.545068e-03
1.610000e+10 4.594704e-03 5.595390e-03 9.923479e-01 -7.529645e-02 9.924034e-01 -7.527506e-02 5.475732e-03 5.570738e-03
1.620000e+10 4.604564e-03 5.622999e-03 9.923012e-01 -7.575284e-02 9.923570e-01 -7.573239e-02 5.496297e-03 5.596293e-03
1.630000e+10 4.614405e-03 5.650517e-03 9.922543e-01 -7.620910e-02 9.923105e-01 -7.618958e-02 5.516891e-03 5.621731e-03
1.640000e+10 4.624225e-03 5.677942e-03 9.922073e-01 -7.666523e-02 9.922638e-01 -7.664665e-02 5.537512e-03 5.647056e-03
1.650000e+10 4.634024e-03 5.705277e-03 9.921601e-01 -7.712122e-02 9.922169e-01 -7.710359e-02 5.558158e-03 5.672265e-03
1.660000e+10 4.643800e-03 5.732520e-03 9.921127e-01 -7.757709e-02 9.921699e-01 -7.756041e-02 5.578830e-03 5.697362e-03
