#   Hz   S  RI   R   50
!
0.000000e+00 4.064539e-03 0.000000e+00 9.960632e-01 0.000000e+00 9.960652e-01 0.000000e+00 4.054844e-03 0.000000e+00
1.000000e+08 4.064619e-03 4.048383e-05 9.960630e-01 -5.888135e-04 9.960649e-01 -5.888269e-04 4.054968e-03 4.056957e-05
2.000000e+08 4.064861e-03 8.096569e-05 9.960621e-01 -1.177624e-03 9.960641e-01 -1.177651e-03 4.055340e-03 8.113695e-05
3.000000e+08 4.065264e-03 1.214436e-04 9.960608e-01 -1.766429e-03 9.960628e-01 -1.766469e-03 4.055960e-03 1.216999e-04
4.000000e+08 4.065827e-03 1.619156e-04 9.960589e-01 -2.355224e-03 9.960608e-01 -2.355278e-03 4.056829e-03 1.622563e-04
5.000000e+08 4.066552e-03 2.023797e-04 9.960564e-01 -2.944008e-03 9.960584e-01 -2.944075e-03 4.057945e-03 2.028039e-04
6.000000e+08 4.067437e-03 2.428340e-04 9.960534e-01 -3.532777e-03 9.960554e-01 -3.532857e-03 4.059309e-03 2.433405e-04
7.000000e+08 4.068483e-03 2.832765e-04 9.960498e-01 -4.121528e-03 9.960518e-01 -4.121621e-03 4.060921e-03 2.838639e-04
8.000000e+08 4.069690e-03 3.237052e-04 9.960457e-01 -4.710258e-03 9.960477e-01 -4.710365e-03 4.062781e-03 3.243720e-04
9.000000e+08 4.071057e-03 3.641181e-04 9.960411e-01 -5.298964e-03 9.960430e-01 -5.299085e-03 4.064887e-03 3.648625e-04
1.000000e+09 4.072583e-03 4.045134e-04 9.960359e-01 -5.887644e-03 9.960378e-01 -5.887777e-03 4.067241e-03 4.053333e-04
1.100000e+09 4.074270e-03 4.448890e-04 9.960301e-01 -6.476294e-03 9.960321e-01 -6.476441e-03 4.069841e-03 4.457821e-04
1.200000e+09 4.076116e-03 4.852430e-04 9.960238e-01 -7.064911e-03 9.960258e-01 -7.065071e-03 4.072688e-03 4.862069e-04
1.300000e+09 4.078121e-03 5.255734e-04 9.960170e-01 -7.653492e-03 9.960190e-01 -7.653666e-03 4.075781e-03 5.266053e-04
1.400000e+09 4.080286e-03 5.658784e-04 9.960096e-01 -8.242035e-03 9.960116e-01 -8.242222e-03 4.079120e-03 5.669754e-04
1.500000e+09 4.082608e-03 6.061560e-04 9.960017e-01 -8.830537e-03 9.960037e-01 -8.830737e-03 4.082704e-03 6.073149e-04
1.600000e+09 4.085089e-03 6.464042e-04 9.959932e-01 -9.418994e-03 9.959952e-01 -9.419208e-03 4.086534e-03 6.476216e-04
1.700000e+09 4.087728e-03 6.866211e-04 9.959842e-01 -1.000740e-02 9.959862e-01 -1.000763e-02 4.090608e-03 6.878934e-04
1.800000e+09 4.090524e-03 7.268049e-04 9.959747e-01 -1.059576e-02 9.959767e-01 -1.059600e-02 4.094926e-03 7.281282e-04
1.900000e+09 4.093477e-03 7.669535e-04 9.959646e-01 -1.118407e-02 9.959666e-01 -1.118432e-02 4.099488e-03 7.683238e-04
2.000000e+09 4.096586e-03 8.070651e-04 9.959540e-01 -1.177232e-02 9.959559e-01 -1.177259e-02 4.104293e-03 8.084781e-04
2.100000e+09 4.099851e-03 8.471379e-04 9.959428e-01 -1.236051e-02 9.959448e-01 -1.236079e-02 4.109340e-03 8.485889e-04
2.200000e+09 4.103271e-03 8.871698e-04 9.959311e-01 -1.294864e-02 9.959331e-01 -1.294894e-02 4.114630e-03 8.886543e-04
2.300000e+09 4.106847e-03 9.271591e-04 9.959188e-01 -1.353671e-02 9.959208e-01 -1.353702e-02 4.120161e-03 9.286720e-04
2.400000e+09 4.110576e-03 9.671038e-04 9.959061e-01 -1.412471e-02 9.959080e-01 -1.412503e-02 4.125933e-03 9.686399e-04
2.500000e+09 4.114459e-03 1.007002e-03 9.958927e-01 -1.471264e-02 9.958947e-01 -1.471297e-02 4.131945e-03 1.008556e-03
2.600000e+09 4.118495e-03 1.046852e-03 9.958789e-01 -1.530049e-02 9.958808e-01 -1.530084e-02 4.138196e-03 1.048418e-03
2.700000e+09 4.122683e-03 1.086652e-03 9.958645e-01 -1.588827e-02 9.958664e-01 -1.588863e-02 4.144687e-03 1.088225e-03
2.800000e+09 4.127023e-03 1.126400e-03 9.958496e-01 -1.647597e-02 9.958515e-01 -1.647635e-02 4.151415e-03 1.127973e-03
2.900000e+09 4.131514e-03 1.166094e-03 9.958341e-01 -1.706359e-02 9.958361e-01 -1.706398e-02 4.158381e-03 1.167661e-03
3.000000e+09 4.136155e-03 1.205733e-03 9.958181e-01 -1.765113e-02 9.958201e-01 -1.765153e-02 4.165584e-03 1.207287e-03
3.100000e+09 4.140945e-03 1.245314e-03 9.958016e-01 -1.823858e-02 9.958036e-01 -1.823899e-02 4.173022e-03 1.246849e-03
3.200000e+09 4.145884e-03 1.284836e-03 9.957845e-01 -1.882594e-02 9.957865e-01 -1.882636e-02 4.180695e-03 1.286345e-03
3.300000e+09 4.150971e-03 1.324297e-03 9.957670e-01 -1.941321e-02 9.957689e-01 -1.941365e-02 4.188602e-03 1.325773e-03
3.400000e+09 4.156205e-03 1.363696e-03 9.957489e-01 -2.000038e-02 9.957508e-01 -2.000083e-02 4.196743e-03 1.365130e-03
3.500000e+09 4.161585e-03 1.403029e-03 9.957302e-01 -2.058746e-02 9.957322e-01 -2.058792e-02 4.205116e-03 1.404416e-03
3.600000e+09 4.167111e-03 1.442297e-03 9.957111e-01 -2.117444e-02 9.957131e-01 -2.117491e-02 4.213720e-03 1.443628e-03
3.700000e+09 4.172780e-03 1.481497e-03 9.956914e-01 -2.176131e-02 9.956934e-01 -2.176180e-02 4.222555e-03 1.482763e-03
3.800000e+09 4.178594e-03 1.520627e-03 9.956712e-01 -2.234808e-02 9.956732e-01 -2.234858e-02 4.231620e-03 1.521821e-03
3.900000e+09 4.184550e-03 1.559685e-03 9.956505e-01 -2.293474e-02 9.956525e-01 -2.293526e-02 4.240912e-03 1.560799e-03
4.000000e+09 4.190647e-03 1.598671e-03 9.956293e-01 -2.352129e-02 9.956312e-01 -2.352182e-02 4.250433e-03 1.599695e-03
4.100000e+09 4.196886e-03 1.637582e-03 9.956075e-01 -2.410773e-02 9.956095e-01 -2.410827e-02 4.260180e-03 1.638507e-03
4.200000e+09 4.203264e-03 1.676416e-03 9.955853e-01 -2.469406e-02 9.955872e-01 -2.469461e-02 4.270152e-03 1.677234e-03
4.300000e+09 4.209780e-03 1.715172e-03 9.955625e-01 -2.528026e-02 9.955645e-01 -2.528083e-02 4.280349e-03 1.715874e-03
4.400000e+09 4.216434e-03 1.753849e-03 9.955392e-01 -2.586635e-02 9.955412e-01 -2.586693e-02 4.290768e-03 1.754424e-03
4.500000e+09 4.223225e-03 1.792444e-03 9.955154e-01 -2.645231e-02 9.955174e-01 -2.645290e-02 4.301410e-03 1.792884e-03
4.600000e+09 4.230151e-03 1.830957e-03 9.954911e-01 -2.703815e-02 9.954931e-01 -2.703875e-02 4.312273e-03 1.831251e-03
4.700000e+09 4.237211e-03 1.869385e-03 9.954663e-01 -2.762386e-02 9.954682e-01 -2.762448e-02 4.323356e-03 1.869523e-03
4.800000e+09 4.244405e-03 1.907727e-03 9.954410e-01 -2.820945e-02 9.954429e-01 -2.821007e-02 4.334657e-03 1.907698e-03
4.900000e+09 4.251731e-03 1.945981e-03 9.954152e-01 -2.879490e-02 9.954171e-01 -2.879554e-02 4.346175e-03 1.945776e-03
5.000000e+09 4.259187e-03 1.984146e-03 9.953888e-01 -2.938021e-02 9.953908e-01 -2.938087e-02 4.357910e-03 1.983754e-03
5.100000e+09 4.266773e-03 2.022221e-03 9.953620e-01 -2.996539e-02 9.953639e-01 -2.996606e-02 4.369860e-03 2.021630e-03
5.200000e+09 4.274488e-03 2.060203e-03 9.953347e-01 -3.055044e-02 9.953366e-01 -3.055111e-02 4.382023e-03 2.059403e-03
5.300000e+09 4.282330e-03 2.098092e-03 9.953069e-01 -3.113534e-02 9.953088e-01 -3.113603e-02 4.394398e-03 2.097071e-03
5.400000e+09 4.290298e-03 2.135886e-03 9.952785e-01 -3.172010e-02 9.952805e-01 -3.172080e-02 4.406985e-03 2.134632e-03
5.500000e+09 4.298391e-03 2.173583e-03 9.952497e-01 -3.230471e-02 9.952517e-01 -3.230543e-02 4.419781e-03 2.172085e-03
5.600000e+09 4.306607e-03 2.211182e-03 9.952204e-01 -3.288918e-02 9.952224e-01 -3.288990e-02 4.432785e-03 2.209429e-03
5.700000e+09 4.314946e-03 2.248682e-03 9.951906e-01 -3.347349e-02 9.951926e-01 -3.347423e-02 4.445996e-03 2.246660e-03
5.800000e+09 4.323406e-03 2.286081e-03 9.951604e-01 -3.405766e-02 9.951623e-01 -3.405841e-02 4.459413e-03 2.283779e-03
5.900000e+09 4.331985e-03 2.323378e-03 9.951296e-01 -3.464167e-02 9.951315e-01 -3.464244e-02 4.473034e-03 2.320783e-03
6.000000e+09 4.340682e-03 2.360571e-03 9.950984e-01 -3.522553e-02 9.951003e-01 -3.522631e-02 4.486858e-03 2.357671e-03
6.100000e+09 4.349496e-03 2.397660e-03 9.950666e-01 -3.580923e-02 9.950686e-01 -3.581002e-02 4.500883e-03 2.394441e-03
6.200000e+09 4.358426e-03 2.434642e-03 9.950344e-01 -3.639277e-02 9.950364e-01 -3.639358e-02 4.515108e-03 2.431092e-03
6.300000e+09 4.367470e-03 2.471517e-03 9.950017e-01 -3.697616e-02 9.950037e-01 -3.697697e-02 4.529531e-03 2.467622e-03
6.400000e+09 4.376627e-03 2.508284e-03 9.949686e-01 -3.755937e-02 9.949705e-01 -3.756020e-02 4.544151e-03 2.504030e-03
6.500000e+09 4.385894e-03 2.544940e-03 9.949350e-01 -3.814243e-02 9.949369e-01 -3.814326e-02 4.558966e-03 2.540314e-03
6.600000e+09 4.395272e-03 2.581485e-03 9.949009e-01 -3.872531e-02 9.949028e-01 -3.872616e-02 4.573976e-03 2.576474e-03
6.700000e+09 4.404758e-03 2.617918e-03 9.948663e-01 -3.930803e-02 9.948682e-01 -3.930889e-02 4.589177e-03 2.612507e-03
6.800000e+09 4.414352e-03 2.654237e-03 9.948313e-01 -3.989058e-02 9.948332e-01 -3.989146e-02 4.604569e-03 2.648412e-03
6.900000e+09 4.424050e-03 2.690442e-03 9.947958e-01 -4.047296e-02 9.947977e-01 -4.047384e-02 4.620151e-03 2.684188e-03
7.000000e+09 4.433853e-03 2.726531e-03 9.947598e-01 -4.105516e-02 9.947617e-01 -4.105606e-02 4.635920e-03 2.719834e-03
7.100000e+09 4.443758e-03 2.762502e-03 9.947234e-01 -4.163719e-02 9.947253e-01 -4.163810e-02 4.651875e-03 2.755348e-03
7.200000e+09 4.453764e-03 2.798356e-03 9.946865e-01 -4.221905e-02 9.946884e-01 -4.221997e-02 4.668014e-03 2.790729e-03
7.300000e+09 4.463869e-03 2.834090e-03 9.946492e-01 -4.280072e-02 9.946511e-01 -4.280165e-02 4.684336e-03 2.825976e-03
7.400000e+09 4.474072e-03 2.869704e-03 9.946114e-01 -4.338222e-02 9.946133e-01 -4.338316e-02 4.700839e-03 2.861087e-03
7.500000e+09 4.484372e-03 2.905197e-03 9.945731e-01 -4.396353e-02 9.945751e-01 -4.396449e-02 4.717522e-03 2.896061e-03
7.600000e+09 4.494766e-03 2.940567e-03 9.945345e-01 -4.454467e-02 9.945364e-01 -4.454563e-02 4.734382e-03 2.930898e-03
7.700000e+09 4.505254e-03 2.975815e-03 9.944953e-01 -4.512561e-02 9.944972e-01 -4.512659e-02 4.751419e-03 2.965595e-03
7.800000e+09 4.515833e-03 3.010938e-03 9.944558e-01 -4.570638e-02 9.944577e-01 -4.570737e-02 4.768630e-03 3.000152e-03
7.900000e+09 4.526502e-03 3.045935e-03 9.944157e-01 -4.628695e-02 9.944176e-01 -4.628795e-02 4.786014e-03 3.034568e-03
8.000000e+09 4.537260e-03 3.080807e-03 9.943753e-01 -4.686734e-02 9.943772e-01 -4.686836e-02 4.803569e-03 3.068841e-03
8.100000e+09 4.548104e-03 3.115551e-03 9.943344e-01 -4.744754e-02 9.943363e-01 -4.744857e-02 4.821293e-03 3.102971e-03
8.200000e+09 4.559034e-03 3.150168e-03 9.942931e-01 -4.802755e-02 9.942950e-01 -4.802859e-02 4.839185e-03 3.136956e-03
8.300000e+09 4.570047e-03 3.184656e-03 9.942513e-01 -4.860737e-02 9.942532e-01 -4.860842e-02 4.857243e-03 3.170796e-03
8.400000e+09 4.581142e-03 3.219014e-03 9.942091e-01 -4.918700e-02 9.942110e-01 -4.918805e-02 4.875465e-03 3.204489e-03
8.500000e+09 4.592317e-03 3.253242e-03 9.941665e-01 -4.976643e-02 9.941684e-01 -4.976750e-02 4.893850e-03 3.238034e-03
8.600000e+09 4.603570e-03 3.287338e-03 9.941235e-01 -5.034566e-02 9.941254e-01 -5.034674e-02 4.912395e-03 3.271431e-03
8.700000e+09 4.614901e-03 3.321303e-03 9.940800e-01 -5.092470e-02 9.940819e-01 -5.092580e-02 4.931099e-03 3.304678e-03
8.800000e+09 4.626307e-03 3.355134e-03 9.940361e-01 -5.150355e-02 9.940380e-01 -5.150465e-02 4.949960e-03 3.337775e-03
8.900000e+09 4.637786e-03 3.388833e-03 9.939918e-01 -5.208219e-02 9.939937e-01 -5.208331e-02 4.968977e-03 3.370721e-03
9.000000e+09 4.649338e-03 3.422397e-03 9.939471e-01 -5.266064e-02 9.939490e-01 -5.266176e-02 4.988147e-03 3.403515e-03
9.100000e+09 4.660959e-03 3.455826e-03 9.939020e-01 -5.323889e-02 9.939039e-01 -5.324002e-02 5.007468e-03 3.436156e-03
9.200000e+09 4.672649e-03 3.489120e-03 9.938565e-01 -5.381693e-02 9.938584e-01 -5.381808e-02 5.026940e-03 3.468643e-03
9.300000e+09 4.684406e-03 3.522278e-03 9.938105e-01 -5.439478e-02 9.938124e-01 -5.439594e-02 5.046560e-03 3.500976e-03
9.400000e+09 4.696227e-03 3.555299e-03 9.937642e-01 -5.497242e-02 9.937661e-01 -5.497359e-02 5.066326e-03 3.533153e-03
9.500000e+09 4.708112e-03 3.588183e-03 9.937174e-01 -5.554986e-02 9.937193e-01 -5.555104e-02 5.086237e-03 3.565175e-03
9.600000e+09 4.720059e-03 3.620929e-03 9.936703e-01 -5.612710e-02 9.936722e-01 -5.612829e-02 5.106290e-03 3.597039e-03
9.700000e+09 4.732066e-03 3.653537e-03 9.936227e-01 -5.670413e-02 9.936246e-01 -5.670533e-02 5.126484e-03 3.628747e-03
9.800000e+09 4.744131e-03 3.686006e-03 9.935748e-01 -5.728095e-02 9.935767e-01 -5.728216e-02 5.146818e-03 3.660296e-03
9.900000e+09 4.756252e-03 3.718335e-03 9.935265e-01 -5.785757e-02 9.935284e-01 -5.785879e-02 5.167288e-03 3.691687e-03
1.000000e+10 4.768428e-03 3.750525e-03 9.934778e-01 -5.843399e-02 9.934796e-01 -5.843522e-02 5.187894e-03 3.722919e-03
1.010000e+10 4.780657e-03 3.782575e-03 9.934286e-01 -5.901019e-02 9.934305e-01 -5.901144e-02 5.208633e-03 3.753990e-03
1.020000e+10 4.792937e-03 3.814484e-03 9.933791e-01 -5.958619e-02 9.933810e-01 -5.958745e-02 5.229504e-03 3.784902e-03
1.030000e+10 4.805267e-03 3.846251e-03 9.933293e-01 -6.016198e-02 9.933311e-01 -6.016325e-02 5.250505e-03 3.815652e-03
1.040000e+10 4.817644e-03 3.877878e-03 9.932790e-01 -6.073757e-02 9.932809e-01 -6.073884e-02 5.271634e-03 3.846241e-03
1.050000e+10 4.830068e-03 3.909363e-03 9.932284e-01 -6.131294e-02 9.932302e-01 -6.131423e-02 5.292889e-03 3.876668e-03
1.060000e+10 4.842535e-03 3.940705e-03 9.931774e-01 -6.188811e-02 9.931792e-01 -6.188940e-02 5.314269e-03 3.906933e-03
1.070000e+10 4.855046e-03 3.971906e-03 9.931260e-01 -6.246306e-02 9.931278e-01 -6.246437e-02 5.335770e-03 3.937035e-03
1.080000e+10 4.867597e-03 4.002964e-03 9.930742e-01 -6.303781e-02 9.930761e-01 -6.303913e-02 5.357393e-03 3.966974e-03
1.090000e+10 4.880187e-03 4.033879e-03 9.930221e-01 -6.361235e-02 9.930240e-01 -6.361367e-02 5.379134e-03 3.996750e-03
1.100000e+10 4.892814e-03 4.064650e-03 9.929696e-01 -6.418667e-02 9.929715e-01 -6.418801e-02 5.400992e-03 4.026361e-03
1.110000e+10 4.905477e-03 4.095279e-03 9.929168e-01 -6.476079e-02 9.929186e-01 -6.476214e-02 5.422965e-03 4.055808e-03
1.120000e+10 4.918174e-03 4.125764e-03 9.928635e-01 -6.533470e-02 9.928654e-01 -6.533605e-02 5.445052e-03 4.085091e-03
1.130000e+10 4.930903e-03 4.156106e-03 9.928100e-01 -6.590839e-02 9.928119e-01 -6.590976e-02 5.467249e-03 4.114209e-03
1.140000e+10 4.943663e-03 4.186303e-03 9.927561e-01 -6.648188e-02 9.927579e-01 -6.648325e-02 5.489557e-03 4.143162e-03
1.150000e+10 4.956451e-03 4.216357e-03 9.927018e-01 -6.705515e-02 9.927036e-01 -6.705654e-02 5.511972e-03 4.171949e-03
1.160000e+10 4.969266e-03 4.246267e-03 9.926471e-01 -6.762821e-02 9.926490e-01 -6.762961e-02 5.534493e-03 4.200571e-03
1.170000e+10 4.982106e-03 4.276033e-03 9.925922e-01 -6.820107e-02 9.925940e-01 -6.820247e-02 5.557117e-03 4.229027e-03
1.180000e+10 4.994969e-03 4.305655e-03 9.925368e-01 -6.877371e-02 9.925387e-01 -6.877512e-02 5.579845e-03 4.257318e-03
1.190000e+10 5.007854e-03 4.335133e-03 9.924812e-01 -6.934614e-02 9.924831e-01 -6.934757e-02 5.602672e-03 4.285442e-03
1.200000e+10 5.020759e-03 4.364467e-03 9.924252e-01 -6.991836e-02 9.924270e-01 -6.991980e-02 5.625598e-03 4.313400e-03
1.210000e+10 5.033683e-03 4.393657e-03 9.923688e-01 -7.049037e-02 9.923707e-01 -7.049182e-02 5.648621e-03 4.341192e-03
1.220000e+10 5.046623e-03 4.422702e-03 9.923121e-01 -7.106217e-02 9.923140e-01 -7.106363e-02 5.671738e-03 4.368818e-03
1.230000e+10 5.059577e-03 4.451604e-03 9.922551e-01 -7.163376e-02 9.922570e-01 -7.163523e-02 5.694949e-03 4.396277e-03
1.240000e+10 5.072545e-03 4.480362e-03 9.921978e-01 -7.220514e-02 9.921997e-01 -7.220662e-02 5.718251e-03 4.423570e-03
1.250000e+10 5.085525e-03 4.508977e-03 9.921401e-01 -7.277631e-02 9.921420e-01 -7.277780e-02 5.741643e-03 4.450696e-03
1.260000e+10 5.098514e-03 4.537448e-03 9.920821e-01 -7.334727e-02 9.920840e-01 -7.334877e-02 5.765122e-03 4.477657e-03
1.270000e+10 5.111511e-03 4.565775e-03 9.920238e-01 -7.391803e-02 9.920256e-01 -7.391954e-02 5.788687e-03 4.504450e-03
1.280000e+10 5.124515e-03 4.593960e-03 9.919651e-01 -7.448857e-02 9.919670e-01 -7.449009e-02 5.812337e-03 4.531078e-03
1.290000e+10 5.137523e-03 4.622001e-03 9.919061e-01 -7.505891e-02 9.919080e-01 -7.506044e-02 5.836068e-03 4.557540e-03
1.300000e+10 5.150535e-03 4.649900e-03 9.918469e-01 -7.562904e-02 9.918487e-01 -7.563058e-02 5.859881e-03 4.583835e-03
1.310000e+10 5.163548e-03 4.677656e-03 9.917873e-01 -7.619896e-02 9.917891e-01 -7.620051e-02 5.883772e-03 4.609965e-03
1.320000e+10 5.176560e-03 4.705269e-03 9.917273e-01 -7.676868e-02 9.917292e-01 -7.677024e-02 5.907740e-03 4.635928e-03
1.330000e+10 5.189571e-03 4.732741e-03 9.916671e-01 -7.733819e-02 9.916690e-01 -7.733976e-02 5.931784e-03 4.661727e-03
1.340000e+10 5.202578e-03 4.760071e-03 9.916066e-01 -7.790750e-02 9.916084e-01 -7.790907e-02 5.955901e-03 4.687360e-03
1.350000e+10 5.215581e-03 4.787260e-03 9.915457e-01 -7.847660e-02 9.915476e-01 -7.847818e-02 5.980090e-03 4.712827e-03
1.360000e+10 5.228576e-03 4.814308e-03 9.914846e-01 -7.904549e-02 9.914865e-01 -7.904709e-02 6.004349e-03 4.738130e-03
1.370000e+10 5.241563e-03 4.841215e-03 9.914231e-01 -7.961419e-02 9.914250e-01 -7.961579e-02 6.028677e-03 4.763268e-03
1.380000e+10 5.254540e-03 4.867981e-03 9.913614e-01 -8.018268e-02 9.913632e-01 -8.018429e-02 6.053071e-03 4.788242e-03
1.390000e+10 5.267505e-03 4.894609e-03 9.912993e-01 -8.075097e-02 9.913012e-01 -8.075259e-02 6.077531e-03 4.813052e-03
1.400000e+10 5.280457e-03 4.921096e-03 9.912370e-01 -8.131905e-02 9.912388e-01 -8.132069e-02 6.102054e-03 4.837698e-03
1.410000e+10 5.293395e-03 4.947445e-03 9.911743e-01 -8.188694e-02 9.911762e-01 -8.188858e-02 6.126638e-03 4.862181e-03
1.420000e+10 5.306316e-03 4.973655e-03 9.911114e-01 -8.245463e-02 9.911133e-01 -8.245628e-02 6.151283e-03 4.886501e-03
1.430000e+10 5.319220e-03 4.999727e-03 9.910482e-01 -8.302211e-02 9.910500e-01 -8.302377e-02 6.175986e-03 4.910658e-03
1.440000e+10 5.332104e-03 5.025662e-03 9.909846e-01 -8.358940e-02 9.909865e-01 -8.359107e-02 6.200746e-03 4.934653e-03
1.450000e+10 5.344967e-03 5.051459e-03 9.909208e-01 -8.415649e-02 9.909227e-01 -8.415817e-02 6.225561e-03 4.958486e-03
1.460000e+10 5.357807e-03 5.077121e-03 9.908568e-01 -8.472339e-02 9.908587e-01 -8.472508e-02 6.250430e-03 4.982158e-03
1.470000e+10 5.370624e-03 5.102646e-03 9.907924e-01 -8.529009e-02 9.907943e-01 -8.529179e-02 6.275350e-03 5.005668e-03
1.480000e+10 5.383415e-03 5.128036e-03 9.907277e-01 -8.585659e-02 9.907296e-01 -8.585830e-02 6.300321e-03 5.029019e-03
1.490000e+10 5.396180e-03 5.153291e-03 9.906628e-01 -8.642290e-02 9.906647e-01 -8.642462e-02 6.325341e-03 5.052209e-03
1.500000e+10 5.408916e-03 5.178412e-03 9.905976e-01 -8.698902e-02 9.905995e-01 -8.699075e-02 6.350408e-03 5.075240e-03
1.510000e+10 5.421622e-03 5.203400e-03 9.905321e-01 -8.755495e-02 9.905341e-01 -8.755669e-02 6.375520e-03 5.098113e-03
1.520000e+10 5.434296e-03 5.228255e-03 9.904664e-01 -8.812069e-02 9.904683e-01 -8.812243e-02 6.400677e-03 5.120827e-03
1.530000e+10 5.446938e-03 5.252978e-03 9.904004e-01 -8.868623e-02 9.904023e-01 -8.868799e-02 6.425876e-03 5.143383e-03
1.540000e+10 5.459546e-03 5.277569e-03 9.903341e-01 -8.925159e-02 9.903360e-01 -8.925336e-02 6.451116e-03 5.165782e-03
1.550000e+10 5.472118e-03 5.302029e-03 9.902675e-01 -8.981676e-02 9.902695e-01 -8.981854e-02 6.476396e-03 5.188025e-03
1.560000e+10 5.484653e-03 5.326360e-03 9.902007e-01 -9.038175e-02 9.902026e-01 -9.038353e-02 6.501714e-03 5.210111e-03
1.570000e+10 5.497150e-03 5.350561e-03 9.901336e-01 -9.094655e-02 9.901355e-01 -9.094834e-02 6.527069e-03 5.232043e-03
1.580000e+10 5.509607e-03 5.374633e-03 9.900663e-01 -9.151116e-02 9.900682e-01 -9.151297e-02 6.552458e-03 5.253819e-03
1.590000e+10 5.522023e-03 5.398577e-03 9.899987e-01 -9.207559e-02 9.900006e-01 -9.207741e-02 6.577881e-03 5.275442e-03
1.600000e+10 5.534397e-03 5.422395e-03 9.899308e-01 -9.263984e-02 9.899327e-01 -9.264167e-02 6.603337e-03 5.296912e-03
1.610000e+10 5.546726e-03 5.446086e-03 9.898627e-01 -9.320391e-02 9.898646e-01 -9.320575e-02 6.628823e-03 5.318228e-03
1.620000e+10 5.559011e-03 5.469652e-03 9.897943e-01 -9.376781e-02 9.897962e-01 -9.376965e-02 6.654339e-03 5.339394e-03
1.630000e+10 5.571249e-03 5.493093e-03 9.897256e-01 -9.433152e-02 9.897276e-01 -9.433338e-02 6.679883e-03 5.360408e-03
1.640000e+10 5.583439e-03 5.516410e-03 9.896568e-01 -9.489506e-02 9.896587e-01 -9.489692e-02 6.705454e-03 5.381271e-03
1.650000e+10 5.595581e-03 5.539604e-03 9.895876e-01 -9.545842e-02 9.895896e-01 -9.546029e-02 6.731050e-03 5.401985e-03
1.660000e+10 5.607672e-03 5.562676e-03 9.895182e-01 -9.602160e-02 9.895202e-01 -9.602349e-02 6.756670e-03 5.422550e-03
