#   Hz   S  RI   R   50
!
0.000000e+00 3.385005e-03 0.000000e+00 9.966623e-01 0.000000e+00 9.966838e-01 0.000000e+00 3.399968e-03 0.000000e+00
1.000000e+08 3.385068e-03 4.300713e-05 9.966621e-01 -4.787590e-04 9.966836e-01 -4.743785e-04 3.400068e-03 4.746521e-05
2.000000e+08 3.385258e-03 8.601275e-05 9.966615e-01 -9.575157e-04 9.966830e-01 -9.487548e-04 3.400367e-03 9.492874e-05
3.000000e+08 3.385575e-03 1.290154e-04 9.966606e-01 -1.436268e-03 9.966821e-01 -1.423127e-03 3.400867e-03 1.423889e-04
4.000000e+08 3.386019e-03 1.720135e-04 9.966592e-01 -1.915013e-03 9.966807e-01 -1.897492e-03 3.401566e-03 1.898441e-04
5.000000e+08 3.386589e-03 2.150056e-04 9.966575e-01 -2.393750e-03 9.966790e-01 -2.371848e-03 3.402466e-03 2.372925e-04
6.000000e+08 3.387286e-03 2.579902e-04 9.966553e-01 -2.872475e-03 9.966769e-01 -2.846194e-03 3.403564e-03 2.847326e-04
7.000000e+08 3.388109e-03 3.009659e-04 9.966528e-01 -3.351186e-03 9.966745e-01 -3.320526e-03 3.404862e-03 3.321625e-04
8.000000e+08 3.389059e-03 3.439310e-04 9.966499e-01 -3.829882e-03 9.966716e-01 -3.794842e-03 3.406360e-03 3.795808e-04
9.000000e+08 3.390135e-03 3.868842e-04 9.966466e-01 -4.308560e-03 9.966684e-01 -4.269141e-03 3.408057e-03 4.269857e-04
1.000000e+09 3.391336e-03 4.298239e-04 9.966430e-01 -4.787217e-03 9.966648e-01 -4.743420e-03 3.409952e-03 4.743755e-04
1.100000e+09 3.392664e-03 4.727486e-04 9.966389e-01 -5.265852e-03 9.966608e-01 -5.217677e-03 3.412047e-03 5.217486e-04
1.200000e+09 3.394117e-03 5.156569e-04 9.966345e-01 -5.744463e-03 9.966565e-01 -5.691910e-03 3.414340e-03 5.691032e-04
1.300000e+09 3.395695e-03 5.585472e-04 9.966297e-01 -6.223046e-03 9.966517e-01 -6.166116e-03 3.416831e-03 6.164379e-04
1.400000e+09 3.397399e-03 6.014182e-04 9.966245e-01 -6.701600e-03 9.966466e-01 -6.640293e-03 3.419521e-03 6.637508e-04
1.500000e+09 3.399227e-03 6.442683e-04 9.966189e-01 -7.180123e-03 9.966411e-01 -7.114440e-03 3.422408e-03 7.110404e-04
1.600000e+09 3.401180e-03 6.870960e-04 9.966129e-01 -7.658612e-03 9.966353e-01 -7.588554e-03 3.425493e-03 7.583050e-04
1.700000e+09 3.403258e-03 7.298999e-04 9.966065e-01 -8.137065e-03 9.966290e-01 -8.062633e-03 3.428775e-03 8.055430e-04
1.800000e+09 3.405459e-03 7.726786e-04 9.965998e-01 -8.615480e-03 9.966224e-01 -8.536674e-03 3.432253e-03 8.527527e-04
1.900000e+09 3.407784e-03 8.154305e-04 9.965927e-01 -9.093855e-03 9.966154e-01 -9.010676e-03 3.435928e-03 8.999325e-04
2.000000e+09 3.410232e-03 8.581543e-04 9.965852e-01 -9.572188e-03 9.966080e-01 -9.484637e-03 3.439800e-03 9.470807e-04
2.100000e+09 3.412802e-03 9.008484e-04 9.965773e-01 -1.005048e-02 9.966003e-01 -9.958553e-03 3.443866e-03 9.941959e-04
2.200000e+09 3.415495e-03 9.435115e-04 9.965690e-01 -1.052872e-02 9.965922e-01 -1.043242e-02 3.448128e-03 1.041276e-03
2.300000e+09 3.418311e-03 9.861420e-04 9.965604e-01 -1.100691e-02 9.965837e-01 -1.090625e-02 3.452585e-03 1.088320e-03
2.400000e+09 3.421247e-03 1.028739e-03 9.965514e-01 -1.148505e-02 9.965748e-01 -1.138002e-02 3.457236e-03 1.135326e-03
2.500000e+09 3.424305e-03 1.071300e-03 9.965420e-01 -1.196314e-02 9.965656e-01 -1.185374e-02 3.462081e-03 1.182293e-03
2.600000e+09 3.427484e-03 1.113825e-03 9.965322e-01 -1.244117e-02 9.965560e-01 -1.232741e-02 3.467119e-03 1.229218e-03
2.700000e+09 3.430782e-03 1.156311e-03 9.965221e-01 -1.291915e-02 9.965460e-01 -1.280102e-02 3.472349e-03 1.276101e-03
2.800000e+09 3.434201e-03 1.198758e-03 9.965115e-01 -1.339707e-02 9.965357e-01 -1.327457e-02 3.477772e-03 1.322939e-03
2.900000e+09 3.437738e-03 1.241164e-03 9.965006e-01 -1.387492e-02 9.965250e-01 -1.374806e-02 3.483387e-03 1.369732e-03
3.000000e+09 3.441394e-03 1.283527e-03 9.964893e-01 -1.435271e-02 9.965139e-01 -1.422149e-02 3.489192e-03 1.416477e-03
3.100000e+09 3.445168e-03 1.325847e-03 9.964777e-01 -1.483044e-02 9.965025e-01 -1.469486e-02 3.495188e-03 1.463173e-03
3.200000e+09 3.449059e-03 1.368122e-03 9.964657e-01 -1.530810e-02 9.964907e-01 -1.516816e-02 3.501374e-03 1.509819e-03
3.300000e+09 3.453067e-03 1.410350e-03 9.964533e-01 -1.578569e-02 9.964785e-01 -1.564139e-02 3.507749e-03 1.556413e-03
3.400000e+09 3.457191e-03 1.452531e-03 9.964405e-01 -1.626320e-02 9.964659e-01 -1.611455e-02 3.514312e-03 1.602953e-03
3.500000e+09 3.461430e-03 1.494662e-03 9.964274e-01 -1.674065e-02 9.964530e-01 -1.658764e-02 3.521063e-03 1.649438e-03
3.600000e+09 3.465785e-03 1.536743e-03 9.964139e-01 -1.721801e-02 9.964398e-01 -1.706065e-02 3.528002e-03 1.695867e-03
3.700000e+09 3.470253e-03 1.578773e-03 9.964000e-01 -1.769530e-02 9.964262e-01 -1.753359e-02 3.535126e-03 1.742238e-03
3.800000e+09 3.474835e-03 1.620749e-03 9.963858e-01 -1.817251e-02 9.964122e-01 -1.800645e-02 3.542436e-03 1.788549e-03
3.900000e+09 3.479530e-03 1.662671e-03 9.963712e-01 -1.864964e-02 9.963978e-01 -1.847923e-02 3.549931e-03 1.834799e-03
4.000000e+09 3.484337e-03 1.704537e-03 9.963562e-01 -1.912669e-02 9.963831e-01 -1.895193e-02 3.557610e-03 1.880987e-03
4.100000e+09 3.489255e-03 1.746346e-03 9.963409e-01 -1.960365e-02 9.963681e-01 -1.942454e-02 3.565473e-03 1.927111e-03
4.200000e+09 3.494284e-03 1.788097e-03 9.963252e-01 -2.008052e-02 9.963527e-01 -1.989707e-02 3.573518e-03 1.973170e-03
4.300000e+09 3.499423e-03 1.829789e-03 9.963092e-01 -2.055731e-02 9.963369e-01 -2.036951e-02 3.581744e-03 2.019163e-03
4.400000e+09 3.504670e-03 1.871420e-03 9.962928e-01 -2.103400e-02 9.963208e-01 -2.084186e-02 3.590152e-03 2.065087e-03
4.500000e+09 3.510026e-03 1.912989e-03 9.962760e-01 -2.151060e-02 9.963043e-01 -2.131413e-02 3.598739e-03 2.110942e-03
4.600000e+09 3.515489e-03 1.954494e-03 9.962589e-01 -2.198711e-02 9.962875e-01 -2.178630e-02 3.607505e-03 2.156725e-03
4.700000e+09 3.521058e-03 1.995936e-03 9.962414e-01 -2.246352e-02 9.962704e-01 -2.225837e-02 3.616450e-03 2.202437e-03
4.800000e+09 3.526734e-03 2.037312e-03 9.962236e-01 -2.293983e-02 9.962528e-01 -2.273035e-02 3.625572e-03 2.248075e-03
4.900000e+09 3.532514e-03 2.078621e-03 9.962054e-01 -2.341604e-02 9.962350e-01 -2.320223e-02 3.634870e-03 2.293639e-03
5.000000e+09 3.538397e-03 2.119862e-03 9.961868e-01 -2.389215e-02 9.962168e-01 -2.367401e-02 3.644343e-03 2.339126e-03
5.100000e+09 3.544384e-03 2.161034e-03 9.961679e-01 -2.436816e-02 9.961982e-01 -2.414569e-02 3.653991e-03 2.384535e-03
5.200000e+09 3.550473e-03 2.202136e-03 9.961487e-01 -2.484406e-02 9.961793e-01 -2.461727e-02 3.663812e-03 2.429866e-03
5.300000e+09 3.556664e-03 2.243167e-03 9.961291e-01 -2.531986e-02 9.961601e-01 -2.508874e-02 3.673806e-03 2.475116e-03
5.400000e+09 3.562954e-03 2.284125e-03 9.961092e-01 -2.579555e-02 9.961405e-01 -2.556011e-02 3.683972e-03 2.520286e-03
5.500000e+09 3.569344e-03 2.325010e-03 9.960889e-01 -2.627112e-02 9.961206e-01 -2.603137e-02 3.694307e-03 2.565372e-03
5.600000e+09 3.575832e-03 2.365820e-03 9.960683e-01 -2.674659e-02 9.961003e-01 -2.650252e-02 3.704813e-03 2.610375e-03
5.700000e+09 3.582418e-03 2.406554e-03 9.960473e-01 -2.722194e-02 9.960797e-01 -2.697355e-02 3.715486e-03 2.655292e-03
5.800000e+09 3.589099e-03 2.447212e-03 9.960260e-01 -2.769718e-02 9.960588e-01 -2.744448e-02 3.726327e-03 2.700124e-03
5.900000e+09 3.595877e-03 2.487791e-03 9.960044e-01 -2.817231e-02 9.960376e-01 -2.791529e-02 3.737334e-03 2.744867e-03
6.000000e+09 3.602748e-03 2.528292e-03 9.959824e-01 -2.864731e-02 9.960160e-01 -2.838599e-02 3.748506e-03 2.789522e-03
6.100000e+09 3.609713e-03 2.568713e-03 9.959601e-01 -2.912220e-02 9.959941e-01 -2.885657e-02 3.759842e-03 2.834088e-03
6.200000e+09 3.616770e-03 2.609053e-03 9.959375e-01 -2.959697e-02 9.959718e-01 -2.932704e-02 3.771342e-03 2.878562e-03
6.300000e+09 3.623918e-03 2.649311e-03 9.959145e-01 -3.007161e-02 9.959492e-01 -2.979738e-02 3.783003e-03 2.922944e-03
6.400000e+09 3.631157e-03 2.689486e-03 9.958912e-01 -3.054613e-02 9.959263e-01 -3.026760e-02 3.794824e-03 2.967233e-03
6.500000e+09 3.638484e-03 2.729578e-03 9.958675e-01 -3.102053e-02 9.959031e-01 -3.073770e-02 3.806805e-03 3.011427e-03
6.600000e+09 3.645900e-03 2.769584e-03 9.958435e-01 -3.149480e-02 9.958796e-01 -3.120768e-02 3.818945e-03 3.055526e-03
6.700000e+09 3.653402e-03 2.809505e-03 9.958193e-01 -3.196894e-02 9.958557e-01 -3.167753e-02 3.831241e-03 3.099529e-03
6.800000e+09 3.660990e-03 2.849340e-03 9.957946e-01 -3.244296e-02 9.958315e-01 -3.214726e-02 3.843694e-03 3.143434e-03
6.900000e+09 3.668663e-03 2.889087e-03 9.957697e-01 -3.291685e-02 9.958070e-01 -3.261686e-02 3.856301e-03 3.187241e-03
7.000000e+09 3.676420e-03 2.928745e-03 9.957444e-01 -3.339060e-02 9.957822e-01 -3.308633e-02 3.869062e-03 3.230948e-03
7.100000e+09 3.684258e-03 2.968315e-03 9.957188e-01 -3.386422e-02 9.957571e-01 -3.355567e-02 3.881976e-03 3.274554e-03
7.200000e+09 3.692178e-03 3.007794e-03 9.956929e-01 -3.433771e-02 9.957316e-01 -3.402488e-02 3.895040e-03 3.318059e-03
7.300000e+09 3.700178e-03 3.047183e-03 9.956667e-01 -3.481106e-02 9.957059e-01 -3.449396e-02 3.908255e-03 3.361461e-03
7.400000e+09 3.708257e-03 3.086479e-03 9.956402e-01 -3.528428e-02 9.956798e-01 -3.496290e-02 3.921617e-03 3.404760e-03
7.500000e+09 3.716414e-03 3.125684e-03 9.956134e-01 -3.575736e-02 9.956535e-01 -3.543171e-02 3.935128e-03 3.447955e-03
7.600000e+09 3.724647e-03 3.164795e-03 9.955862e-01 -3.623031e-02 9.956268e-01 -3.590038e-02 3.948784e-03 3.491044e-03
7.700000e+09 3.732956e-03 3.203812e-03 9.955587e-01 -3.670311e-02 9.955998e-01 -3.636892e-02 3.962585e-03 3.534027e-03
7.800000e+09 3.741338e-03 3.242734e-03 9.955310e-01 -3.717577e-02 9.955725e-01 -3.683732e-02 3.976530e-03 3.576903e-03
7.900000e+09 3.749794e-03 3.281560e-03 9.955029e-01 -3.764830e-02 9.955450e-01 -3.730559e-02 3.990617e-03 3.619671e-03
8.000000e+09 3.758321e-03 3.320291e-03 9.954745e-01 -3.812068e-02 9.955171e-01 -3.777371e-02 4.004845e-03 3.662330e-03
8.100000e+09 3.766919e-03 3.358924e-03 9.954458e-01 -3.859291e-02 9.954889e-01 -3.824169e-02 4.019213e-03 3.704880e-03
8.200000e+09 3.775586e-03 3.397460e-03 9.954169e-01 -3.906501e-02 9.954604e-01 -3.870953e-02 4.033719e-03 3.747319e-03
8.300000e+09 3.784321e-03 3.435898e-03 9.953876e-01 -3.953696e-02 9.954317e-01 -3.917723e-02 4.048362e-03 3.789647e-03
8.400000e+09 3.793123e-03 3.474237e-03 9.953580e-01 -4.000876e-02 9.954026e-01 -3.964479e-02 4.063140e-03 3.831864e-03
8.500000e+09 3.801991e-03 3.512476e-03 9.953281e-01 -4.048041e-02 9.953733e-01 -4.011220e-02 4.078053e-03 3.873967e-03
8.600000e+09 3.810922e-03 3.550615e-03 9.952980e-01 -4.095192e-02 9.953437e-01 -4.057947e-02 4.093099e-03 3.915958e-03
8.700000e+09 3.819917e-03 3.588654e-03 9.952675e-01 -4.142328e-02 9.953138e-01 -4.104659e-02 4.108276e-03 3.957834e-03
8.800000e+09 3.828973e-03 3.626591e-03 9.952368e-01 -4.189450e-02 9.952836e-01 -4.151357e-02 4.123584e-03 3.999595e-03
8.900000e+09 3.838090e-03 3.664426e-03 9.952057e-01 -4.236556e-02 9.952531e-01 -4.198040e-02 4.139021e-03 4.041241e-03
9.000000e+09 3.847266e-03 3.702159e-03 9.951744e-01 -4.283647e-02 9.952223e-01 -4.244708e-02 4.154585e-03 4.082771e-03
9.100000e+09 3.856500e-03 3.739789e-03 9.951428e-01 -4.330723e-02 9.951913e-01 -4.291362e-02 4.170275e-03 4.124184e-03
9.200000e+09 3.865790e-03 3.777316e-03 9.951110e-01 -4.377784e-02 9.951600e-01 -4.338000e-02 4.186090e-03 4.165480e-03
9.300000e+09 3.875136e-03 3.814739e-03 9.950788e-01 -4.424829e-02 9.951284e-01 -4.384624e-02 4.202029e-03 4.206658e-03
9.400000e+09 3.884536e-03 3.852057e-03 9.950464e-01 -4.471860e-02 9.950965e-01 -4.431232e-02 4.218089e-03 4.247717e-03
9.500000e+09 3.893988e-03 3.889271e-03 9.950137e-01 -4.518875e-02 9.950644e-01 -4.477826e-02 4.234271e-03 4.288658e-03
9.600000e+09 3.903492e-03 3.926380e-03 9.949807e-01 -4.565874e-02 9.950320e-01 -4.524404e-02 4.250571e-03 4.329478e-03
9.700000e+09 3.913046e-03 3.963382e-03 9.949474e-01 -4.612858e-02 9.949993e-01 -4.570968e-02 4.266989e-03 4.370179e-03
9.800000e+09 3.922649e-03 4.000279e-03 9.949139e-01 -4.659827e-02 9.949664e-01 -4.617516e-02 4.283524e-03 4.410759e-03
9.900000e+09 3.932299e-03 4.037070e-03 9.948801e-01 -4.706780e-02 9.949332e-01 -4.664049e-02 4.300173e-03 4.451218e-03
1.000000e+10 3.941996e-03 4.073753e-03 9.948460e-01 -4.753718e-02 9.948997e-01 -4.710566e-02 4.316936e-03 4.491555e-03
1.010000e+10 3.951737e-03 4.110330e-03 9.948117e-01 -4.800639e-02 9.948660e-01 -4.757068e-02 4.333812e-03 4.531771e-03
1.020000e+10 3.961522e-03 4.146799e-03 9.947771e-01 -4.847546e-02 9.948320e-01 -4.803555e-02 4.350798e-03 4.571864e-03
1.030000e+10 3.971349e-03 4.183161e-03 9.947423e-01 -4.894436e-02 9.947978e-01 -4.850027e-02 4.367894e-03 4.611834e-03
1.040000e+10 3.981217e-03 4.219414e-03 9.947072e-01 -4.941311e-02 9.947633e-01 -4.896483e-02 4.385097e-03 4.651681e-03
1.050000e+10 3.991124e-03 4.255560e-03 9.946718e-01 -4.988170e-02 9.947286e-01 -4.942923e-02 4.402407e-03 4.691404e-03
1.060000e+10 4.001070e-03 4.291596e-03 9.946362e-01 -5.035013e-02 9.946936e-01 -4.989348e-02 4.419823e-03 4.731004e-03
1.070000e+10 4.011053e-03 4.327524e-03 9.946003e-01 -5.081840e-02 9.946584e-01 -5.035758e-02 4.437342e-03 4.770479e-03
1.080000e+10 4.021071e-03 4.363343e-03 9.945642e-01 -5.128652e-02 9.946229e-01 -5.082152e-02 4.454963e-03 4.809830e-03
1.090000e+10 4.031123e-03 4.399053e-03 9.945278e-01 -5.175448e-02 9.945872e-01 -5.128531e-02 4.472685e-03 4.849056e-03
1.100000e+10 4.041209e-03 4.434654e-03 9.944912e-01 -5.222228e-02 9.945512e-01 -5.174894e-02 4.490507e-03 4.888156e-03
1.110000e+10 4.051325e-03 4.470145e-03 9.944544e-01 -5.268992e-02 9.945150e-01 -5.221241e-02 4.508427e-03 4.927132e-03
1.120000e+10 4.061473e-03 4.505526e-03 9.944173e-01 -5.315740e-02 9.944785e-01 -5.267573e-02 4.526443e-03 4.965982e-03
1.130000e+10 4.071649e-03 4.540798e-03 9.943799e-01 -5.362472e-02 9.944418e-01 -5.313889e-02 4.544555e-03 5.004705e-03
1.140000e+10 4.081853e-03 4.575960e-03 9.943423e-01 -5.409188e-02 9.944049e-01 -5.360190e-02 4.562761e-03 5.043303e-03
1.150000e+10 4.092083e-03 4.611012e-03 9.943045e-01 -5.455889e-02 9.943678e-01 -5.406475e-02 4.581059e-03 5.081775e-03
1.160000e+10 4.102339e-03 4.645954e-03 9.942664e-01 -5.502573e-02 9.943304e-01 -5.452744e-02 4.599448e-03 5.120121e-03
1.170000e+10 4.112617e-03 4.680785e-03 9.942281e-01 -5.549242e-02 9.942928e-01 -5.498998e-02 4.617926e-03 5.158340e-03
1.180000e+10 4.122919e-03 4.715507e-03 9.941896e-01 -5.595894e-02 9.942549e-01 -5.545237e-02 4.636493e-03 5.196432e-03
1.190000e+10 4.133241e-03 4.750118e-03 9.941509e-01 -5.642531e-02 9.942168e-01 -5.591459e-02 4.655147e-03 5.234398e-03
1.200000e+10 4.143584e-03 4.784620e-03 9.941119e-01 -5.689152e-02 9.941785e-01 -5.637667e-02 4.673886e-03 5.272237e-03
1.210000e+10 4.153944e-03 4.819011e-03 9.940727e-01 -5.735757e-02 9.941400e-01 -5.683858e-02 4.692709e-03 5.309949e-03
1.220000e+10 4.164322e-03 4.853292e-03 9.940332e-01 -5.782347e-02 9.941013e-01 -5.730035e-02 4.711614e-03 5.347534e-03
1.230000e+10 4.174716e-03 4.887463e-03 9.939936e-01 -5.828920e-02 9.940623e-01 -5.776195e-02 4.730601e-03 5.384992e-03
1.240000e+10 4.185124e-03 4.921524e-03 9.939537e-01 -5.875478e-02 9.940231e-01 -5.822340e-02 4.749668e-03 5.422323e-03
1.250000e+10 4.195546e-03 4.955475e-03 9.939136e-01 -5.922020e-02 9.939837e-01 -5.868470e-02 4.768813e-03 5.459527e-03
1.260000e+10 4.205979e-03 4.989316e-03 9.938733e-01 -5.968546e-02 9.939441e-01 -5.914584e-02 4.788035e-03 5.496605e-03
1.270000e+10 4.216424e-03 5.023047e-03 9.938327e-01 -6.015057e-02 9.939043e-01 -5.960683e-02 4.807333e-03 5.533555e-03
1.280000e+10 4.226878e-03 5.056669e-03 9.937920e-01 -6.061551e-02 9.938643e-01 -6.006767e-02 4.826706e-03 5.570378e-03
1.290000e+10 4.237339e-03 5.090182e-03 9.937510e-01 -6.108030e-02 9.938240e-01 -6.052835e-02 4.846151e-03 5.607075e-03
1.300000e+10 4.247808e-03 5.123585e-03 9.937098e-01 -6.154494e-02 9.937836e-01 -6.098888e-02 4.865668e-03 5.643645e-03
1.310000e+10 4.258283e-03 5.156879e-03 9.936685e-01 -6.200942e-02 9.937430e-01 -6.144925e-02 4.885256e-03 5.680089e-03
1.320000e+10 4.268762e-03 5.190064e-03 9.936269e-01 -6.247374e-02 9.937021e-01 -6.190948e-02 4.904912e-03 5.716406e-03
1.330000e+10 4.279244e-03 5.223141e-03 9.935851e-01 -6.293791e-02 9.936610e-01 -6.236955e-02 4.924636e-03 5.752596e-03
1.340000e+10 4.289728e-03 5.256109e-03 9.935431e-01 -6.340193e-02 9.936198e-01 -6.282947e-02 4.944426e-03 5.788661e-03
1.350000e+10 4.300212e-03 5.288969e-03 9.935009e-01 -6.386579e-02 9.935783e-01 -6.328924e-02 4.964281e-03 5.824600e-03
1.360000e+10 4.310696e-03 5.321721e-03 9.934585e-01 -6.432950e-02 9.935367e-01 -6.374886e-02 4.984200e-03 5.860412e-03
1.370000e+10 4.321178e-03 5.354365e-03 9.934159e-01 -6.479305e-02 9.934948e-01 -6.420833e-02 5.004181e-03 5.896100e-03
1.380000e+10 4.331658e-03 5.386901e-03 9.933731e-01 -6.525645e-02 9.934528e-01 -6.466765e-02 5.024224e-03 5.931661e-03
1.390000e+10 4.342133e-03 5.419331e-03 9.933301e-01 -6.571971e-02 9.934105e-01 -6.512682e-02 5.044326e-03 5.967098e-03
1.400000e+10 4.352602e-03 5.451654e-03 9.932869e-01 -6.618280e-02 9.933681e-01 -6.558584e-02 5.064486e-03 6.002410e-03
1.410000e+10 4.363065e-03 5.483870e-03 9.932435e-01 -6.664575e-02 9.933255e-01 -6.604471e-02 5.084704e-03 6.037597e-03
1.420000e+10 4.373520e-03 5.515980e-03 9.932000e-01 -6.710855e-02 9.932827e-01 -6.650344e-02 5.104977e-03 6.072660e-03
1.430000e+10 4.383966e-03 5.547985e-03 9.931562e-01 -6.757120e-02 9.932397e-01 -6.696202e-02 5.125305e-03 6.107598e-03
1.440000e+10 4.394402e-03 5.579884e-03 9.931123e-01 -6.803370e-02 9.931965e-01 -6.742046e-02 5.145687e-03 6.142413e-03
1.450000e+10 4.404826e-03 5.611678e-03 9.930681e-01 -6.849606e-02 9.931532e-01 -6.787875e-02 5.166121e-03 6.177105e-03
1.460000e+10 4.415238e-03 5.643367e-03 9.930238e-01 -6.895826e-02 9.931097e-01 -6.833690e-02 5.186605e-03 6.211674e-03
1.470000e+10 4.425637e-03 5.674952e-03 9.929793e-01 -6.942032e-02 9.930659e-01 -6.879490e-02 5.207139e-03 6.246120e-03
1.480000e+10 4.436020e-03 5.706434e-03 9.929346e-01 -6.988223e-02 9.930220e-01 -6.925276e-02 5.227722e-03 6.280443e-03
1.490000e+10 4.446388e-03 5.737812e-03 9.928898e-01 -7.034400e-02 9.929780e-01 -6.971048e-02 5.248352e-03 6.314645e-03
1.500000e+10 4.456738e-03 5.769087e-03 9.928447e-01 -7.080563e-02 9.929337e-01 -7.016805e-02 5.269028e-03 6.348725e-03
1.510000e+10 4.467070e-03 5.800260e-03 9.927995e-01 -7.126711e-02 9.928893e-01 -7.062549e-02 5.289748e-03 6.382684e-03
1.520000e+10 4.477383e-03 5.831331e-03 9.927541e-01 -7.172844e-02 9.928447e-01 -7.108279e-02 5.310513e-03 6.416522e-03
1.530000e+10 4.487676e-03 5.862301e-03 9.927085e-01 -7.218964e-02 9.927999e-01 -7.153994e-02 5.331320e-03 6.450240e-03
1.540000e+10 4.497947e-03 5.893169e-03 9.926628e-01 -7.265070e-02 9.927550e-01 -7.199696e-02 5.352168e-03 6.483839e-03
1.550000e+10 4.508196e-03 5.923938e-03 9.926169e-01 -7.311161e-02 9.927099e-01 -7.245384e-02 5.373056e-03 6.517318e-03
1.560000e+10 4.518421e-03 5.954606e-03 9.925708e-01 -7.357239e-02 9.926646e-01 -7.291059e-02 5.393983e-03 6.550678e-03
1.570000e+10 4.528621e-03 5.985175e-03 9.925246e-01 -7.403302e-02 9.926192e-01 -7.336720e-02 5.414949e-03 6.583920e-03
1.580000e+10 4.538796e-03 6.015646e-03 9.924781e-01 -7.449352e-02 9.925736e-01 -7.382367e-02 5.435951e-03 6.617043e-03
1.590000e+10 4.548944e-03 6.046018e-03 9.924315e-01 -7.495389e-02 9.925278e-01 -7.428001e-02 5.456988e-03 6.650050e-03
1.600000e+10 4.559064e-03 6.076293e-03 9.923848e-01 -7.541412e-02 9.924819e-01 -7.473622e-02 5.478060e-03 6.682940e-03
1.610000e+10 4.569155e-03 6.106471e-03 9.923379e-01 -7.587421e-02 9.924358e-01 -7.519230e-02 5.499166e-03 6.715713e-03
1.620000e+10 4.579217e-03 6.136552e-03 9.922908e-01 -7.633417e-02 9.923895e-01 -7.564825e-02 5.520304e-03 6.748371e-03
1.630000e+10 4.589247e-03 6.166538e-03 9.922436e-01 -7.679400e-02 9.923431e-01 -7.610406e-02 5.541473e-03 6.780914e-03
1.640000e+10 4.599246e-03 6.196428e-03 9.921962e-01 -7.725370e-02 9.922966e-01 -7.655975e-02 5.562673e-03 6.813342e-03
1.650000e+10 4.609212e-03 6.226224e-03 9.921486e-01 -7.771326e-02 9.922498e-01 -7.701531e-02 5.583902e-03 6.845656e-03
1.660000e+10 4.619145e-03 6.255926e-03 9.921009e-01 -7.817270e-02 9.922030e-01 -7.747074e-02 5.605159e-03 6.877857e-03
