#   Hz   S  RI   R   50
!
0.0 0.004715150123845657 0.0 0.9954829968816038 0.0 0.9954829921271146 0.0 0.004715151341348159 0.0
100000000.0 0.004715340914662 2.0904629191803333e-06 0.99548240005547 -0.0007958324240221194 0.9954823952959045 -0.0007958331143281235 0.004715342122350483 2.0892663972127857e-06
200000000.0 0.004715913210044726 4.173575601465044e-06 0.9954806097299591 -0.001591651673896947 0.9954806049551672 -0.0015916530542759459 0.004715914388291867 4.171182861340195e-06
300000000.0 0.004716866778841048 6.241991419519154e-06 0.9954776263636289 -0.002387444583519313 0.9954776215634699 -0.0023874466535054434 0.004716867908026717 6.2384030688314695e-06
400000000.0 0.004718201235952005 8.28837096235883e-06 0.9954734507203628 -0.0031831980028613695 0.9954734458847094 -0.003183200761756173 0.0047182022964645685 8.28358791244589e-06
500000000.0 0.004719916042568822 1.0305385636770407e-05 0.9954680838688001 -0.003978898805993742 0.9954680789875457 -0.0039789022528666194 0.004719917014810766 1.0299409102691386e-05
600000000.0 0.0047220105064989205 1.2285721260515362e-05 0.9954615271815396 -0.004774533899086004 0.9954615222446028 -0.004774538032774803 0.004722011370890506 1.2278552760949893e-05
700000000.0 0.0047244837825896994 1.4222081644740558e-05 0.9954537823341179 -0.005570090228379282 0.9954537773314497 -0.005570095047490916 0.004724484519571753 1.4213723001911857e-05
800000000.0 0.0047273348732396435 1.610719216270126e-05 0.9954448513037615 -0.006365554788123993 0.9954448462253502 -0.006365560291035407 0.004727335463279813 1.609764550229438e-05
900000000.0 0.004730562629008781 1.7933803302474546e-05 0.9954347363679167 -0.007160914628476495 0.995434731203792 -0.0071609208133356925 0.004730563052602369 1.792307105345057e-05
1000000000.0 0.00473416574931256 1.969469420057026e-05 0.9954234401025523 -0.007956156863347314 0.9954234348427947 -0.007956163728074206 0.0047341659869881755 1.968277909506643e-05
1100000000.0 0.0047381427832144715 2.138267615421953e-05 0.9954109653802519 -0.008751268678193857 0.9954109600149939 -0.008751276220481918 0.004738142815538823 2.1369581227393636e-05
1200000000.0 0.004742492130305019 2.2990596109405522e-05 0.9953973153680744 -0.009546237337752226 0.9953973098875087 -0.009546245555069796 0.004742491937885137 2.2976324699214725e-05
1300000000.0 0.004747212041670342 2.4511340122311798e-05 0.9953824935252089 -0.010341050193700432 0.9953824879195942 -0.010341059083291996 0.00474721160515816 2.4495895869303737e-05
1400000000.0 0.004752300620950906 2.5937836791387734e-05 0.9953665036004095 -0.011135694692246543 0.9953664978600743 -0.011135704251134792 0.004752299921047339 2.5921223638521304e-05
1500000000.0 0.004757755825486599 2.7263060657870694e-05 0.9953493496292208 -0.011930158381636032 0.9953493437445713 -0.011930168606623473 0.00475775484294579 2.7245282850185166e-05
1600000000.0 0.004763575467549327 2.84800355718196e-05 0.9953310359309955 -0.012724428919571679 0.9953310298925178 -0.012724439807242546 0.004763574183182392 2.8461097656266267e-05
1700000000.0 0.004769757215660025 2.9581838021705395e-05 0.9953115671057005 -0.01351849408053921 0.9953115609039686 -0.013518505627261812 0.00476975561033908 2.9561744846723373e-05
1800000000.0 0.004776298595992279 3.056160042500874e-05 0.9952909480305311 -0.014312341763033696 0.9952909416562106 -0.014312353964962414 0.004776296650653995 3.054035714022444e-05
1900000000.0 0.004783196993854094 3.141251437688971e-05 0.9952691838563131 -0.015105959996680181 0.9952691773001678 -0.015105972849757692 0.004783194689505097 3.139012643284506e-05
2000000000.0 0.004790449655257022 3.2127833856028625e-05 0.9952462800037216 -0.01589933694924177 0.9952462732566167 -0.015899350449202043 0.004790446972976765 3.210430700369915e-05
2100000000.0 0.004798053688560985 3.27008783836719e-05 0.9952222421592973 -0.016692460933511843 0.9952222352122075 -0.016692475075882143 0.004798050609506594 3.267621867412775e-05
2200000000.0 0.004806006066200963 3.3125036135314764e-05 0.9951970762712837 -0.01748532041408178 0.9951970691152956 -0.017485335194185804 0.004806002571610403 3.309924991911542e-05
2300000000.0 0.004814303626486951 3.3393767001261214e-05 0.9951707885452742 -0.018277904013981296 0.9951707811715913 -0.018277919426941888 0.0048142996976839264 3.336686092809826e-05
2400000000.0 0.004822943075482851 3.350060559563833e-05 0.9951433854396815 -0.01907020052118498 0.9951433778396318 -0.019070216561926933 0.004822938693881744 3.3472586613987055e-05
2500000000.0 0.004831920988957996 3.3439164210756466e-05 0.9951148736610352 -0.01986219889497923 0.9951148658260729 -0.019862215558232855 0.004831916136066196 3.341003956674435e-05
2600000000.0 0.004841233814409452 3.3203135714656114e-05 0.9950852601591025 -0.02065388827218674 0.995085252080815 -0.020653905552490574 0.004841228471833518 3.3172912952271494e-05
2700000000.0 0.004850877873155931 3.278629639129179e-05 0.9950545521218503 -0.021445257973241358 0.9950545437919612 -0.02144527586494571 0.004850872022604746 3.27549833511928e-05
2800000000.0 0.004860849362499837 3.218250872008766e-05 0.9950227569702391 -0.022236297508109838 0.9950227483806143 -0.02223631600538027 0.004860842985788738 3.2150113538976075e-05
2900000000.0 0.00487114435795426 3.138572409389274e-05 0.994989882352868 -0.02302699658205645 0.9949898734955192 -0.02302701567887712 0.0048711374370102945 3.135225520394618e-05
3000000000.0 0.004881758815536135 3.0389985472977578e-05 0.9949559361404643 -0.023817345101244943 0.9949559270075532 -0.023817364791422647 0.004881751332401567 3.035545160095288e-05
3100000000.0 0.004892688574120425 2.9189429974409736e-05 0.9949209264202277 -0.024607333178175605 0.9949209170040718 -0.0246073534553431 0.004892680510957692 2.915384014120317e-05
3200000000.0 0.004903929357856725 2.777829139500034e-05 0.9948848614900397 -0.025396951136950365 0.9948848517831146 -0.025396971994570697 0.004903920696952359 2.7741654914335295e-05
3300000000.0 0.0049154767786405784 2.615090266507569e-05 0.9948477498525304 -0.02618618951836648 0.9948477398474758 -0.0261862109497363 0.004915467502409858 2.6113229142628692e-05
3400000000.0 0.004927326338645002 2.4301698233594773e-05 0.9948096002090233 -0.026975039084831343 0.9948095898986449 -0.026975061083085877 0.004927316429636735 2.4262997566336718e-05
3500000000.0 0.004939473432902284 2.222521638153749e-05 0.9947704214533517 -0.027763490825097922 0.9947704108306273 -0.027763513383214207 0.004939462873802757 2.2185498756570937e-05
3600000000.0 0.004951913351939916 1.9916101464019157e-05 0.9947302226655621 -0.028551535958815412 0.9947302117236442 -0.02855155906961724 0.004951902125577768 1.9875377357471448e-05
3700000000.0 0.00496464128446623 1.7369106078422504e-05 0.9946890131055026 -0.029339165940894033 0.994689001837723 -0.02933918959705581 0.004964629373816669 1.73273862542694e-05
3800000000.0 0.004977652320100624 1.457909315816917e-05 0.9946468022063063 -0.030126372465680205 0.9946467906061782 -0.03012639665973191 0.0049776397082900905 1.4536388667029866e-05
3900000000.0 0.004990941452150937 1.1541037990706638e-05 0.9946035995677756 -0.030913147470940365 0.994603587628998 -0.030913172195271683 0.0049909281224625075 1.1497360169041254e-05
4000000000.0 0.005004503580434854 8.250030160072628e-06 0.9945594149496712 -0.031699483141649595 0.9945594026661337 -0.03169950838851457 0.005004489516311376 8.205390628143776e-06
4100000000.0 0.0050183335141378805 4.7012754107903145e-06 0.9945142582649167 -0.03248537191358453 0.9945142456307009 -0.032485397675106276 0.005018318699187823 4.655686071757961e-06
4200000000.0 0.005032425974711946 8.90097434312692e-07 0.9944681395727174 -0.033270806476718366 0.9944681265820999 -0.03327083274489385 0.005032410392713868 8.435704726202447e-07
4300000000.0 0.00504677559881011 -3.188060423511923e-06 0.9944210690716063 -0.03405577977841457 0.994421055719063 -0.03405580654511998 0.0050467592337171165 -3.2355125432797352e-06
4400000000.0 0.005061376941252915 -7.537633533761753e-06 0.9943730570924197 -0.03484028502642142 0.9943730433726283 -0.034840312283415824 0.0050613597771970486 -7.585998069384713e-06
4500000000.0 0.005076224478026949 -1.2162934437479115e-05 0.9943241140912114 -0.03562431569166053 0.9943240999990537 -0.03562434343059182 0.005076206499324489 -1.2212198369817308e-05
4600000000.0 0.0050913126093110215 -1.7068151377961283e-05 0.9942742506421067 -0.0364078655108146 0.9942742361726724 -0.036407893723224546 0.005091293800467763 -1.711830141303294e-05
4700000000.0 0.005106635662530469 -2.2257346914172777e-05 0.9942234774301099 -0.03719092848870871 0.9942234625786983 -0.037190957166037666 0.005106616008245039 -2.2308369485122454e-05
4800000000.0 0.005122187895433433 -2.7734456615750252e-05 0.9941718052438642 -0.03797349890048557 0.9941717900059874 -0.03797352803407774 0.00512216738060266 -2.7786337884824996e-05
4900000000.0 0.005137963499188779 -3.350328784014682e-05 0.9941192449683752 -0.03875557129357708 0.9941192293397589 -0.038755600874686186 0.005137942108913924 -3.355601370019314e-05
5000000000.0 0.0051539566015057015 -3.956751859007454e-05 0.994065807577699 -0.039537140489466716 0.9940657915542864 -0.039537170509260505 0.005153934321095564 -3.962107466700968e-05
5100000000.0 0.00517016126976772 -4.593069645405839e-05 0.9940115041276101 -0.04031820158524731 0.9940114877055635 -0.04031823203481352 0.005170138084743736 -4.5985068109154026e-05
5200000000.0 0.005186571514181373 -5.259623762932987e-05 0.993956345748243 -0.041098749954971966 0.9939563289239459 -0.04109878082532313 0.0051865474102831795 -5.265140996090142e-05
5300000000.0 0.005203181290938923 -5.95674260244616e-05 0.9939003436367262 -0.041878781250798865 0.9939003264067836 -0.041878812532878555 0.005203156254128931 -5.9623383870764584e-05
5400000000.0 0.005219984505388691 -6.684741244726726e-05 0.9938435090498021 -0.042658291403930286 0.9938434914110443 -0.042658323088617674 0.0052199585218568574 -6.690414038871562e-05
5500000000.0 0.005236975015216637 -7.443921387006395e-05 0.9937858532964506 -0.043437276625346466 0.9937858352459348 -0.043437308703462726 0.005236948071385856 -7.449669623164312e-05
5600000000.0 0.0052541466336286655 -8.234571278114299e-05 0.9937273877305141 -0.04421573340633681 0.9937273692655237 -0.044215765868649407 0.005254118716158621 -8.240393363509014e-05
5700000000.0 0.005271493132539708 -9.056965661318392e-05 0.9936681237433327 -0.044993658518824524 0.9936681048613806 -0.04499369135605459 0.005271464228332841 -9.062859978207348e-05
5800000000.0 0.005289008245763021 -9.911365725546037e-05 0.9936080727563973 -0.04577104901549359 0.9936080534552252 -0.04577108221831979 0.005288978341969572 -9.917330631425182e-05
5900000000.0 0.005306685672197968 -0.00010798019064401123 0.9935472462140187 -0.04654790222971187 0.9935472264916014 -0.04654793578877694 0.0053066547562192505 -0.00010804052892385066
6000000000.0 0.005324519079014205 -0.00011717159643413158 0.9934856555760339 -0.047324215775255085 0.9934856354305764 -0.047324249681171465 0.005324487138509627 -0.00011723260702424663
6100000000.0 0.005342502104831032 -0.0001266900777502324 0.9934233123105333 -0.048099987545836685 0.9934232917404748 -0.04810002178919169 0.005342469127722134 -0.0001267517435022762
6200000000.0 0.00536062836289023 -0.00013653770101480555 0.9933602278866358 -0.048875215714437 0.9933602068906477 -0.048875250285799504 0.0053605943373640505 -0.00013660000454556427
6300000000.0 0.005378891444216051 -0.00014671639585664246 0.993296413767303 -0.04964989873244332 0.993296392344291 -0.049649933622368296 0.005378856358733079 -0.00014677931955128906
6400000000.0 0.0053972849207680924 -0.00015722795509516782 0.9932318814022023 -0.05042403532859596 0.9932318595513069 -0.050424070527630926 0.005397248764065027 -0.00015729148111056878
6500000000.0 0.005415802348577165 -0.00016807403480173605 0.9931666422206269 -0.0511976245077449 0.9931666199412231 -0.05119766000643546 0.005415765109672199 -0.00016813814507032394
6600000000.0 0.005434437270866925 -0.00017925615443657549 0.9931007076244716 -0.05197066554942215 0.993100684916169 -0.05197070133831725 0.005434398939064938 -0.00017932083066962736
6700000000.0 0.005453183221159499 -0.00019077569706117063 0.9930340889812769 -0.05274315800622531 0.9930340658439195 -0.05274319407588469 0.005453143786056609 -0.00019084092075343875
6800000000.0 0.005472033726359362 -0.0002026339096237344 0.9929667976173383 -0.05351510170202546 0.9929667740510054 -0.053515138043023026 0.00547199317784783 -0.00020269966205605397
6900000000.0 0.005490982309818499 -0.0002148319033185543 0.9928988448108922 -0.05428649672999095 0.9928988208158966 -0.05428653333292252 0.0054909406380909635 -0.0002148981655632229
7000000000.0 0.005510022494376203 -0.0002273706540171484 0.9928302417853795 -0.0550573434504387 0.9928302173622691 -0.0550573803059262 0.005509979689932049 -0.0002274374069407911
7100000000.0 0.005529147805377983 -0.00024025100276983216 0.9927609997027917 -0.05582764248851052 0.9927609748523477 -0.05582767958720884 0.005529103859026667 -0.0002403182270384016
7200000000.0 0.005548351773665774 -0.00025347365637779564 0.9926911296571085 -0.05659739473168253 0.9926911043803437 -0.05659743206428503 0.005548306676531096 -0.0002535413324608594
7300000000.0 0.00556762793853965 -0.00026703918803391185 0.9926206426678187 -0.05736660132710582 0.992620616965978 -0.05736663888434941 0.005567581682066156 -0.00026710729620888434
7400000000.0 0.0055869698506929594 -0.00028094803803080354 0.9925495496735469 -0.058135263678784646 0.9925495235481083 -0.05813530145145621 0.005586922426649693 -0.00028101655838737587
7500000000.0 0.0056063710751146825 -0.0002952005145352111 0.992477861525776 -0.05890338344459694 0.9924778349784452 -0.058903421423538646 0.005606322475598695 -0.0002952694269808445
7600000000.0 0.00562582519395862 -0.0003097967944286456 0.9924055889826694 -0.059670962533156444 0.9924055620153819 -0.05967100070927182 0.005625775411401428 -0.0003098660786925075
7700000000.0 0.005645325809381166 -0.0003247369242105259 0.9923327427030111 -0.060438003100523954 0.9923327153179295 -0.060438041464782946 0.005645274836551741 -0.00032480655984871987
7800000000.0 0.005664866546342166 -0.0003400208209642149 0.9922593332402451 -0.061204507546771245 0.9922593054397586 -0.0612045460902158 0.005664814376352394 -0.00034009078736547846
7900000000.0 0.0056844410553687046 -0.0003556482733865117 0.992185371036641 -0.0619704785123967 0.9921853428233637 -0.061970517226147076 0.005684387681677761 -0.0003557185497760435
8000000000.0 0.005704043015283324 -0.00037161894287266497 0.9921108664175705 -0.06273591887460422 0.9921108377943381 -0.06273595774986358 0.00570398843170071 -0.00037168950831906894
8100000000.0 0.005723666135890391 -0.0003879323646655611 0.9920358295859076 -0.06350083174344259 0.9920358005557776 -0.06350087077150403 0.005723610336581235 -0.0003880031980850527
8200000000.0 0.005743304160623845 -0.0004045879490577691 0.9919602706165539 -0.06426522045781438 0.9919602411828028 -0.06426525963006413 0.005743247140113352 -0.00040465902921995716
8300000000.0 0.005762950869153328 -0.0004215849826510742 0.991884199451092 -0.06502908858135216 0.9918841696172129 -0.06502912788927705 0.005762892622329488 -0.0004216562881850711
8400000000.0 0.005782600079946713 -0.000438922629671429 0.9918076258925677 -0.06579243989817468 0.9918075956622692 -0.0657924793333667 0.005782540602067043 -0.000438994139071101
8500000000.0 0.005802245652791139 -0.00045659993333494484 0.9917305596004063 -0.06655527840851999 0.9917305289776092 -0.06655531796268148 0.005802184939483801 -0.00045667162496533455
8600000000.0 0.0058218814912670575 -0.00047461581726701574 0.9916530100854662 -0.06731760832426202 0.9916529790743004 -0.06731764798921154 0.005821819538535961 -0.00047468766937030425
8700000000.0 0.005841501545177576 -0.0004929690869713892 0.991574986705226 -0.06807943406431784 0.9915749553100305 -0.06807947383199432 0.00584143834940659 -0.0004930410776722327
8800000000.0 0.005861099812932569 -0.0005116584313465438 0.9914964986591176 -0.06884076024994332 0.9914964668844343 -0.06884080011241328 0.00586103537088817 -0.0005117305386597172
8900000000.0 0.00588067034388372 -0.000530682424252113 0.9914175549839995 -0.06960159169992873 0.9914175228345741 -0.06960163164938943 0.005880604652720101 -0.0005307546260873546
9000000000.0 0.005900207240612403 -0.0005500395261162892 0.9913381645497732 -0.07036193342569458 0.9913381320305497 -0.07036197345448002 0.005900140297873901 -0.0005501118002861732
9100000000.0 0.005919704661168023 -0.0005697280855942839 0.9912583360551487 -0.07112179062629222 0.9912583031712666 -0.07112183072687786 0.005919636464792842 -0.0005698004098199127
9200000000.0 0.005939156821258461 -0.0005897463412618659 0.9911780780235571 -0.0718811686833123 0.9911780447803502 -0.07188120884832076 0.005939087369582001 -0.0005898186931801849
9300000000.0 0.005958557996387327 -0.000610092423356386 0.9910973987992125 -0.07264007315571379 0.9910973652022038 -0.07264011337791829 0.005958487288145933 -0.0006101647805264853
9400000000.0 0.005977902523943476 -0.0006307643555542649 0.9910163065433284 -0.07339850977456314 0.991016272598226 -0.0733985500468946 0.005977830558276741 -0.0006308366954648827
9500000000.0 0.005997184805236457 -0.0006517600567875327 0.9909348092304814 -0.0741564844377034 0.9909347749431766 -0.07415652475325282 0.00599711158169035 -0.0006518323568639664
9600000000.0 0.0060163993074810514 -0.0006730773430976025 0.990852914645133 -0.07491400320434738 0.9908528800216975 -0.07491404355637188 0.0060163248260119515 -0.0006731495807083771
9700000000.0 0.0060355405657308205 -0.0006947139295233667 0.9907706303783081 -0.07567107228960258 0.9907705954249879 -0.07567111267152989 0.0060354648267070075 -0.0006947860819879265
9800000000.0 0.006054603184755471 -0.0007166674320241705 0.9906879638244244 -0.07642769805893439 0.9906879285476369 -0.07642773846436744 0.006054526188960395 -0.0007167394766205391
9900000000.0 0.006073581840867721 -0.000738935369434604 0.9906049221782817 -0.07718388702256775 0.990604886584613 -0.07718392744528851 0.006073503589502215 -0.0007390072834066038
10000000000.0 0.006092471283693981 -0.0007615151654498409 0.9905215124322105 -0.07793964582983655 0.9905214765284097 -0.07793968626381187 0.006092391778379598 -0.0007615869260146052
10100000000.0 0.006111266337894732 -0.0007844041506406836 0.9904377413733761 -0.07869498126347915 0.9904377051663519 -0.07869502170286312 0.006111185580674362 -0.0007844757349964534
10200000000.0 0.006129961904825745 -0.0008075995644972833 0.9903536155812431 -0.07944990023389113 0.9903535790780594 -0.07944994067303106 0.006129879898167566 -0.000807670949830907
10300000000.0 0.0061485529641482845 -0.0008310985574972044 0.9902691414251984 -0.08020440977333515 0.9902691046330702 -0.08020445020677487 0.00614846971094619 -0.000831169720992656
10400000000.0 0.006167034575382681 -0.0008548981932015186 0.9901843250623342 -0.08095851703011091 0.9901842879886236 -0.08095855745259517 0.00616695007895994 -0.0008549691120473056
10500000000.0 0.006185401879408588 -0.0008789954503718571 0.9900991724353919 -0.08171222926269728 0.9900991350876013 -0.0817122696691751 0.006185316143517781 -0.0008790661017693809
10600000000.0 0.00620365009990877 -0.0009033872251110435 0.9900136892708619 -0.0824655538338606 0.9900136516566334 -0.08246559421948985 0.006203563128734137 -0.0009034575862827308
10700000000.0 0.006221774544756515 -0.0009280703330240997 0.989927881077249 -0.08321849820474025 0.9899278432043555 -0.08321853856489167 0.006221686342915688 -0.0009281403812217763
10800000000.0 0.0062397706073515045 -0.0009530415113993313 0.9898417531434919 -0.08397106992891577 0.9898417150198344 -0.08397111025917514 0.006239681179896422 -0.0009531112239113077
10900000000.0 0.0062576337678964524 -0.0009782974214053678 0.9897553105375441 -0.08472327664645474 0.9897552721711461 -0.08472331694262851 0.0062575431203143695 -0.0009783667755673038
