#   Hz   S  RI   R   50
!
0.0 0.0027967319846008234 0.0 0.9972826987473777 0.0 0.9972922571333227 0.0 0.002786843926991685 0.0
100000000.0 0.0027967829765718523 -5.84295272956243e-06 0.9972825318629407 -0.000426382134983262 0.9972920879385069 -0.0004265940058794068 0.002786896613475288 -5.6622181837278285e-06
200000000.0 0.0027969359417067963 -1.1687356279613044e-05 0.9972820312290394 -0.0008527618344122078 0.9972915803745828 -0.0008531854752996535 0.002787054661500357 -1.1325952444168016e-05
300000000.0 0.0027971908476743146 -1.7534661114871135e-05 0.9972811969038914 -0.0012791366634404514 0.9972907345031126 -0.0012797718725597773 0.0027873180367916405 -1.6992718475497524e-05
400000000.0 0.002797547640599015 -2.3386316988625493e-05 0.9972800289845051 -0.0017055041886371418 0.9972895504266747 -0.0017063506634748783 0.0027876866822346036 -2.2664031206994917e-05
500000000.0 0.0027980062450785282 -2.9243772587393465e-05 0.9972785276066433 -0.0021318619786940196 0.9972880282888271 -0.002132919316133343 0.002788160517894648 -2.8341404420907673e-05
600000000.0 0.002798566564205928 -3.510847517584799e-05 0.9972766929447756 -0.002558207605131579 0.9972861682740546 -0.00255947530165312 0.0027887394410411885 -3.402635037076647e-05
700000000.0 0.0027992284795984182 -4.0981870242409716e-05 0.9972745252120153 -0.0029845386430040937 0.9972839706077007 -0.002986016094936778 0.0027894233261788305 -3.9720379400341404e-05
800000000.0 0.0027999918514329397 -4.6865401145373056e-05 0.9972720246600457 -0.00341085267160312 0.9972814355558864 -0.003412539175424688 0.0027902120250858182 -4.542499956319008e-05
900000000.0 0.002800856518488473 -5.276050875988454e-05 0.9972691915790279 -0.0038371472751593666 0.9972785634254123 -0.0038390420278468585 0.002791105366860797 -5.114171624320574e-05
1000000000.0 0.0028018222981938045 -5.86686311257469e-05 0.9972660262974988 -0.004263420043542481 0.9972753545636481 -0.004265522142971864 0.002792103157975738 -5.68720317759631e-05
1100000000.0 0.002802888986683361 -6.459120309632808e-05 0.997262529182256 -0.004689668572958349 0.9972718093584025 -0.0046919770183538 0.002793205182333277 -6.261744507144641e-05
1200000000.0 0.00280405635885728 -7.052965598855331e-05 0.9972587006382245 -0.005115890466644129 0.9972679282377872 -0.00511840415907581 0.002794411201336162 -6.837945123784263e-05
1300000000.0 0.002805324168448392 -7.648541723426164e-05 0.9972545411083141 -0.005542083335560235 0.9972637116700559 -0.005544801078491225 0.002795720953958707 -7.415954120679973e-05
1400000000.0 0.002806692148097453 -8.245991003299257e-05 0.9972500510732626 -0.00596824479907901 0.9972591601634366 -0.005971165298960367 0.002797134156828263 -7.995920136045279e-05
1500000000.0 0.0028081600094322628 -8.845455300601657e-05 0.9972452310514653 -0.006394372485670039 0.997254274265946 -0.006397494352584142 0.00279865050431148 -8.577991315978864e-05
1600000000.0 0.0028097274431544473 -9.447075985248521e-05 0.9972400815987906 -0.00682046403358181 0.9972490545651896 -0.006823785781933433 0.0028002696686086188 -9.162315277509466e-05
1700000000.0 0.0028113941191302526 -0.00010050993900714148 0.9972346033083824 -0.007246517091519592 0.9972435016881482 -0.007250037140773812 0.0028019912998548066 -9.749039071832268e-05
1800000000.0 0.0028131596864909435 -0.00010657349329972298 0.9972287968104516 -0.007672529319318303 0.9972376163009514 -0.007676245994786029 0.002803815026226649 -0.0001033830914773899
1900000000.0 0.002815023773736699 -0.0001126628196168178 0.9972226627720507 -0.008098498388611581 0.9972313991086332 -0.008102409922281 0.0028057404540552805 -0.00010930271315324988
2000000000.0 0.002816985988848059 -0.00011877930856547552 0.9972162018968415 -0.008524421983495562 0.9972248508548793 -0.008528526514909927 0.002807767167950069 -0.00011525070709824821
2100000000.0 0.0028190459194014092 -0.0001249243441392607 0.9972094149248409 -0.008950297801187973 0.9972179723217545 -0.008954593378368673 0.002809894730922687 -0.0001212285175584101
2200000000.0 0.002821203132692797 -0.0001310993033868136 0.997202302632165 -0.009376123552681493 0.9972107643294208 -0.00938060813309589 0.0028121226845225404 -0.00012723758131702123
2300000000.0 0.0028234571758658407 -0.0001373055560826504 0.9971948658307511 -0.009801896963391633 0.9972032277358418 -0.009806568414966127 0.0028144505489758787 -0.00013327932734195135
2400000000.0 0.0028258075760473796 -0.000143544464400744 0.9971871053680746 -0.010227615773798647 0.9971953634364699 -0.010232471875974782 0.002816877823332436 -0.00013935517643525163
2500000000.0 0.0028282538404859107 -0.0001498173825907834 0.9971790221268482 -0.010653277740083797 0.9971871723639237 -0.010658316184918182 0.002819403985618575 -0.00014546654088604146
2600000000.0 0.0028307954566997445 -0.00015612565665720158 0.9971706170247121 -0.011078880634758499 0.9971786554876529 -0.011084099028064884 0.0028220284929963728 -0.00015161482412631467
2700000000.0 0.0028334318926274416 -0.0001624706240413285 0.9971618910139111 -0.011504422247287528 0.9971698138135872 -0.011509818109821547 0.002824750781928211 -0.00015780142039039958
2800000000.0 0.0028361625967847004 -0.00016885361330652677 0.9971528450809599 -0.011929900384704617 0.9971606483837724 -0.011935471153389542 0.0028275702683475176 -0.000164027714377381
2900000000.0 0.0028389869984287797 -0.00017527594382631711 0.9971434802462983 -0.01235531287222189 0.9971511602760004 -0.012361055901414819 0.002830486347837835 -0.00017029508091695336
3000000000.0 0.002841904507725676 -0.00018173892547597027 0.9971337975639307 -0.01278065755383112 0.9971413506034169 -0.01278657011662963 0.0028334983958143473 -0.00017660488463938265
3100000000.0 0.002844914515923952 -0.00018824385832780984 0.9971237981210612 -0.013205932292897717 0.9971312205141243 -0.013212011582485753 0.002836605767712794 -0.00018295847964900142
3200000000.0 0.0028480163955335006 -0.0001947920323490117 0.9971134830377101 -0.013631134972747188 0.9971207711907688 -0.013637378103779109 0.002839807799185711 -0.00018935720920100493
3300000000.0 0.002851209500511452 -0.00020138472710379756 0.9971028534663244 -0.014056263497242726 0.9971100038501199 -0.01406266750726515 0.002843103806301579 -0.00019580240538290432
3400000000.0 0.002854493166449459 -0.0002080232114595899 0.9970919105913751 -0.014481315791355923 0.9970989197426312 -0.014487877642267142 0.002846493085751556 -0.00020229538879963315
3500000000.0 0.0028578667107699183 -0.00021470874329558709 0.9970806556289457 -0.01490628980172752 0.997087520151996 -0.014913006381272154 0.0028499749150608916 -0.00020883746826304083
3600000000.0 0.0028613294329239507 -0.00022144256921703036 0.9970690898263075 -0.01533118349722073 0.9970758063946911 -0.015338051620520156 0.0028535485528056125 -0.0002154299404852876
3700000000.0 0.002864880614597723 -0.0002282259242716755 0.9970572144614892 -0.015755994869464777 0.9970637798195053 -0.015763011280582162 0.0028572132388354128 -0.0002220740897774598
3800000000.0 0.0028685195199206386 -0.00023506003167143925 0.9970450308428316 -0.016180721933389465 0.9970514418070602 -0.016187883306929073 0.0028609681945001033 -0.00022877118775109091
3900000000.0 0.002872245395678377 -0.00024194610251820057 0.9970325403085347 -0.016605362727751587 0.9970387937693234 -0.016612665670488535 0.0028648126228839016 -0.00023552249302582023
4000000000.0 0.002876057471534619 -0.00024888533553273665 0.9970197442261961 -0.017029915315650224 0.9970258371491034 -0.017037356368195172 0.002868745709042396 -0.0002423292509409435
4100000000.0 0.002879954960251019 -0.0002558789167896247 0.9970066439923381 -0.01745437778503329 0.9970125734195425 -0.01746195342352605 0.0028727666202436964 -0.0002491926932720766
4200000000.0 0.0028839370579162235 -0.0002629280194551539 0.9969932410319269 -0.017878748249194748 0.9969990040835959 -0.01788645488702804 0.002876874506217969 -0.00025611403795174526
4300000000.0 0.0028880029441793152 -0.00027003380353008197 0.9969795367978822 -0.01830302484726044 0.9969851306735009 -0.018310858836833463 0.002881068499409116 -0.0002630944887961127
4400000000.0 0.002892151782484021 -0.0002771974155973132 0.9969655327705786 -0.018727205744664483 0.9969709547502369 -0.018735163379164924 0.002885347715230204 -0.00027013523523622526
4500000000.0 0.0028963827203105216 -0.00028441998857424525 0.996951230457339 -0.01915128913361588 0.9969564779029797 -0.019159366648828068 0.00288971125232593 -0.0002772374520538195
4600000000.0 0.0029006948894192 -0.0002917026414689807 0.9969366313919156 -0.0195752732335541 0.9969417017485422 -0.01958346680969352 0.002894158192838706 -0.0002844022991231043
4700000000.0 0.0029050874061011364 -0.000299046479142271 0.9969217371339706 -0.019999156291593278 0.9969266279308077 -0.020007462055167253 0.002898687602676271 -0.00029163092115756215
4800000000.0 0.002909559371427844 -0.0003064525920738076 0.9969065492685415 -0.020422936582956727 0.996911258120158 -0.020431350608648546 0.002903298531788089 -0.00029892444746156476
4900000000.0 0.0029141098715099022 -0.000313922056133345 0.9968910694055025 -0.02084661241140023 0.9968955940128901 -0.02085513072397634 0.0029079900144431342 -0.0003062839916881598
5000000000.0 0.0029187379777555846 -0.0003214559323574064 0.9968752991790188 -0.021270182109624128 0.996879637330625 -0.021278800685864064 0.0029127610695099757 -0.000313710651601715
5100000000.0 0.0029234427471350236 -0.00032905526673009583 0.9968592402469925 -0.021693644039673516 0.9968633898197116 -0.021702358810321155 0.0029176107007453664 -0.0003212055088460755
5200000000.0 0.002928223222446854 -0.0003367210899696923 0.9968428942905011 -0.02211699659332841 0.9968468532506213 -0.0221258034450624 0.0029225378970815473 -0.0003287696287192578
5300000000.0 0.0029330784325882204 -0.0003444544173203699 0.9968262630132331 -0.022540238192481875 0.9968300294173346 -0.022549132969906037 0.0029275416329206548 -0.00033640405995239055
5400000000.0 0.0029380073928299646 -0.00035225624834875346 0.996809348140911 -0.02296336728950604 0.9968129201367253 -0.02297234579715708 0.0029326208684312795 -0.00034410983449521376
5500000000.0 0.002943009105090185 -0.00036012756674579213 0.9967921514207146 -0.023386382367606814 0.9967955272479322 -0.023395440371979912 0.002937774549847086 -0.0003518879673072197
5600000000.0 0.0029480825582173424 -0.0003680693401344159 0.9967746746206942 -0.023809281941167146 0.9967778526117299 -0.02381841517275703 0.0029430016097717706 -0.0003597394561546994
5700000000.0 0.0029532267282706788 -0.0003760825198817939 0.9967569195291797 -0.02423206455607857 0.9967598981098907 -0.0242412687114345 0.0029483009674830542 -0.0003676652814134607
5800000000.0 0.002958440578806622 -0.0003841680409178068 0.9967388879541841 -0.024654728790059005 0.9967416656445419 -0.024663999533855414 0.0029536715292451535 -0.00037566640587719614
5900000000.0 0.0029637230611668695 -0.00039232682155788945 0.9967205817228038 -0.025077273252961368 0.9967231571375182 -0.02508660622007939 0.002959112188617227 -0.0003837437745725287
6000000000.0 0.0029690731147684933 -0.00040055976333285747 0.9967020026806084 -0.02549969658706741 0.9967043745297075 -0.025509087384689415 0.00296462182677021 -0.00039189831457924146
6100000000.0 0.002974489667397269 -0.0004088677508226842 0.9966831526910341 -0.025921997467370932 0.9966853197803928 -0.025931441677084006 0.002970199312803432 -0.00040013093485748847
6200000000.0 0.0029799716355040484 -0.0004172516514965135 0.9966640336347671 -0.026344174601848222 0.9966659948665919 -0.02635366778175875 0.0029758435040655603 -0.0004084425260797187
6300000000.0 0.00298551792450222 -0.0004257123155584726 0.9966446474091222 -0.026766226731715616 0.996646401782388 -0.026775764418571216 0.0029815532464749035 -0.00041683396047029414
6400000000.0 0.002991127429066305 -0.00043425057579863816 0.9966249959274224 -0.02718815263167604 0.99662654253826 -0.027197730342994886 0.0029873273748452184 -0.0004253060916498801
6500000000.0 0.0029967990334353466 -0.0004428672474505546 0.9966050811183723 -0.0276099511101515 0.9966064191604107 -0.02761956434635794 0.0029931647132118763 -0.0004338597544870391
6600000000.0 0.00300253161171571 -0.00045156312805239403 0.996584904925426 -0.02803162100950474 0.9965860336900855 -0.02804126525606955 0.002999064075159894 -0.0004424957649549766
6700000000.0 0.0030083240281887406 -0.00046033899731622296 0.9965644693061576 -0.02845316120624601 0.9965653881828944 -0.028462831935832066 0.003005024264154403 -0.00045121491999573695
6800000000.0 0.003014175137614418 -0.0004691956170010871 0.9965437762316226 -0.028874570611230756 0.9965444847081287 -0.028884263285838874 0.003011044073873377 -0.0004600179973888491
6900000000.0 0.0030200837855434482 -0.00047813373079314507 0.9965228276857215 -0.02929584816984062 0.9965233253480736 -0.029305558242960765 0.003017122288539751 -0.0004689057556285306
7000000000.0 0.0030260488086259175 -0.0004871540641904304 0.9965016256645602 -0.029716992862155827 0.9965019121973222 -0.02972671578091545 0.003023257683257845 -0.0004778789338051202
7100000000.0 0.0030320690349230606 -0.0004962573243942717 0.9964801721758059 -0.030138003703111538 0.9964802473620851 -0.03014773491042669 0.0030294490243489374 -0.00048693825149342826
7200000000.0 0.003038143284220723 -0.0005054442002051796 0.9964584692380444 -0.030558879742644127 0.9964583329594983 -0.030568614679366675 0.003035695069689683 -0.0004960844086479671
7300000000.0 0.003044270368342212 -0.0005147153619264769 0.9964365188801354 -0.030979620065823124 0.996436171116931 -0.030989354172887326 0.003041994569049758 -0.0005053180855035873
7400000000.0 0.0030504490914638055 -0.0005240714612717101 0.9964143231405637 -0.03140022379297205 0.9964137639712937 -0.03140995251353626 0.003048346264432181 -0.0005146399424827443
7500000000.0 0.0030566782504304973 -0.0005335131312790021 0.9963918840667961 -0.03182069007977457 0.99639111366834 -0.03183040886135945 0.003054748890413393 -0.0005240506201095403
7600000000.0 0.0030629566350723033 -0.0005430409862302304 0.9963692037146278 -0.03224101811737096 0.9963682223619744 -0.032250722413990775 0.0030612011744851767 -0.0005335507389286365
7700000000.0 0.003069283028521223 -0.000552655621577666 0.9963462841475393 -0.03266120713243824 0.9963450922135575 -0.03267089240672698 0.0030677018373955448 -0.0005431408994319423
7800000000.0 0.0030756562075300448 -0.0005623576138736892 0.9963231274360435 -0.03308125638726159 0.9963217253912084 -0.03309091811259039 0.0030742495934918705 -0.0005528216819911275
7900000000.0 0.0030820749427889643 -0.000572147520708997 0.996299735657041 -0.033501165179790654 0.996298124069113 -0.03351079884237629 0.003080843151062337 -0.0005625936467957876
8000000000.0 0.0030885379992443966 -0.0005820258806546048 0.9962761108931678 -0.03392093284368421 0.9962742904268282 -0.033930533944688125 0.003087481212680505 -0.0005724573337977069
8100000000.0 0.0030950441364190786 -0.0005919932132106157 0.9962522552321526 -0.03434055874834261 0.9962502266485889 -0.034350122805959366 0.0030941624755466287 -0.0005824132626630903
8200000000.0 0.0031015921087282922 -0.0006020500187603521 0.9962281707661661 -0.034760042298926895 0.9962259349226171 -0.034769564850461475 0.00310088563183128 -0.0005924619327292884
8300000000.0 0.0031081806658009607 -0.0006121967785295524 0.9962038595911777 -0.03517938293636691 0.9962014174404306 -0.035188859540297636 0.003107649369017753 -0.0006026038229680252
8400000000.0 0.0031148085527966506 -0.0006224339545525719 0.9961793238063111 -0.03559858013735649 0.9961766763961541 -0.035608006375384076 0.0031144523702456347 -0.0006128393919544258
8500000000.0 0.0031214745107250607 -0.0006327619896431421 0.9961545655132011 -0.036017633414335365 0.9961517139858346 -0.03602700489342086 0.003121293314652181 -0.0006231690778437784
8600000000.0 0.0031281772767628928 -0.0006431813073713451 0.9961295868153525 -0.03643654231546103 0.9961265324067525 -0.036445854669842875 0.003128170877712894 -0.0006335932983530235
8700000000.0 0.0031349155845727056 -0.0006536923120449744 0.9961043898175035 -0.03685530642456652 0.9961011338567447 -0.036864555317764856 0.0031350837315855433 -0.0006441124507476295
8800000000.0 0.003141688164619368 -0.000664295388698897 0.996078976624987 -0.03727392536110781 0.9960755205335227 -0.037283106487909654 0.003142030545447758 -0.0006547269118366873
8900000000.0 0.0031484937444864664 -0.0006749909030876018 0.9960533493430975 -0.037692398780096927 0.996049694633995 -0.037701507868524206 0.0031490099858377425 -0.000665437037972379
9000000000.0 0.00315533104919192 -0.0006857792016842065 0.9960275100764616 -0.0381107263720269 0.9960236583535986 -0.038119759185282404 0.003156020716993246 -0.0006762431650553177
9100000000.0 0.003162198801503087 -0.0006966606116849765 0.9960014609284077 -0.03852890786278136 0.9959974138856246 -0.038537860201176985 0.0031630614011882116 -0.0006871456085473279
9200000000.0 0.003169095722251058 -0.000707635441019005 0.9959752040003415 -0.0389469430135341 0.9959709634205566 -0.038955810716397636 0.0031701306990704454 -0.0006981446634878037
9300000000.0 0.0031760205306425294 -0.0007187039783638887 0.9959487413911275 -0.03936483162063704 0.9959443091454067 -0.039373610568195855 0.003177227269995553 -0.0007092406045184673
9400000000.0 0.003182971944572173 -0.0007298664931660161 0.9959220751964676 -0.039782573515496765 0.9959174532430585 -0.03979125963073938 0.0031843497723609447 -0.0007204336859122973
9500000000.0 0.003189948680933111 -0.0007411232356663227 0.9958952075082897 -0.04020016856443866 0.9958903978916147 -0.04020875781495343 0.0031914968639396362 -0.0007317241416075628
9600000000.0 0.0031969494559261967 -0.0007524744369324023 0.9958681404141355 -0.04061761666856242 0.9958631452637484 -0.04062610506834927 0.003198667202208672 -0.0007431121852506853
9700000000.0 0.0032039729853667203 -0.0007639203088936989 0.9958408759965593 -0.04103491776358196 0.9958356975260605 -0.04104330137484223 0.0032058594446803474 -0.000754598010240344
9800000000.0 0.0032110179849926417 -0.0007754610443842625 0.995813416332523 -0.04145207181965938 0.99580805683844 -0.041460346754556954 0.003213072249228271 -0.0007661817897813166
9900000000.0 0.003218083170767301 -0.0007870968171890772 0.9957857634928003 -0.04186907884122487 0.9957802253534316 -0.04187724126362144 0.003220304274413173 -0.000777863676940897
10000000000.0 0.0032251672591831256 -0.0007988277820958048 0.9957579195413905 -0.04228593886678602 0.9957522052156114 -0.04229398499394943 0.0032275541798067998 -0.0007896438047126879
10100000000.0 0.003232268967562695 -0.000810654074952255 0.9957298865349238 -0.04270265196872777 0.9957239985609607 -0.0427105780730101 0.0032348206263128616 -0.0008015222860842895
10200000000.0 0.0032393870143585138 -0.0008225758127283481 0.9957016665220891 -0.043119218253101464 0.9956956075162539 -0.043127020663590504 0.0032421022764865946 -0.0008134992141119871
10300000000.0 0.003246520119449613 -0.0008345930935818626 0.9956732615430525 -0.04353563785940238 0.9956670341984478 -0.043543312963541914 0.003249397794850775 -0.000825574661999659
10400000000.0 0.0032536670044368042 -0.0008467059969318533 0.9956446736288904 -0.04395191096033872 0.99563828071408 -0.04395945520551861 0.003256705848212229 -0.0008377486831828066
10500000000.0 0.0032608263929366876 -0.0008589145835341122 0.9956159048010252 -0.04436803776158963 0.9956093491586706 -0.044375447656705 0.003264025105973355 -0.0008500213114190498
10600000000.0 0.0032679970108721473 -0.0008712188955635255 0.9955869570706682 -0.044784018501552676 0.9955802416161351 -0.044791290618531335 0.003271354240440773 -0.0008623925608814444
10700000000.0 0.0032751775867597586 -0.0008836189566989689 0.9955578324382658 -0.04519985345108317 0.9955509601582003 -0.04520698442638175 0.0032786919271341423 -0.0008748624262604214
10800000000.0 0.003282366851999628 -0.0008961147722151142 0.9955285328929573 -0.0456155429132234 0.9955215068438298 -0.045622529449287935 0.0032860368450900374 -0.0008874308828659105
