#   Hz   S  RI   R   50
!
0.0 0.0019558221307545347 0.0 0.9980811984558461 0.0 0.9980813471676806 0.0 0.0019560504512064654 0.0
100000000.0 0.0019558445868908566 -7.875303406802649e-06 0.9980811229921781 -0.0002834779717916311 0.9980812717034425 -0.0002834784507775816 0.0019560729064902723 -7.875513916605303e-06
200000000.0 0.001955911951752317 -1.575116609481222e-05 0.9980808966075811 -0.0005669549933875758 0.9980810453171355 -0.0005669559513617385 0.0019561402687934136 -1.5751587111636362e-05
300000000.0 0.0019560242146954396 -2.3628147245171424e-05 0.9980805193212751 -0.0008504301147938772 0.9980806680279785 -0.0008504315517607762 0.0019562525274736424 -2.3628778763431584e-05
400000000.0 0.0019561813579853696 -3.1506805838880894e-05 0.9980799911652887 -0.0011339023864199438 0.9980801398679998 -0.0011339043023863894 0.0019564096647952975 -3.1507647850220134e-05
500000000.0 0.0019563833567980567 -3.938770055683609e-05 0.9980793121844477 -0.001417370859280182 0.9980794608820257 -0.001417373254255191 0.001956611655934546 -3.93887530501148e-05
600000000.0 0.001956630179225925 -4.7271389679914966e-05 0.9980784824363669 -0.0017008345851952545 0.9980786311276705 -0.0017008374591900757 0.001956858468984686 -4.727265264114983e-05
700000000.0 0.0019569217862862856 -5.515843098911481e-05 0.9980775019914339 -0.001984292616993197 0.998077650675319 -0.001984295970021407 0.0019571500649622296 -5.515990440158253e-05
800000000.0 0.001957258131927867 -6.304938166597347e-05 0.99807637093279 -0.0022677440087103262 0.9980765196081132 -0.0022677478407875902 0.0019574863978166226 -6.30510655101521e-05
900000000.0 0.001957639163043299 -7.094479819298655e-05 0.998075089356307 -0.0025511878157916217 0.9980752380219237 -0.0025511921269358536 0.0019578674144405186 -7.09466924465328e-05
1000000000.0 0.0019580648194783947 -7.884523625436551e-05 0.9980736573705657 -0.0028346230952906097 0.9980738060253295 -0.002834627885521894 0.0019582930546804093 -7.884734089212875e-05
1100000000.0 0.00195853503404815 -8.675125063682863e-05 0.9980720750968246 -0.003118048906069098 0.998072223739588 -0.0031180541754096324 0.0019587632513509102 -8.675356563088287e-05
1200000000.0 0.0019590497325489733 -9.466339513087222e-05 0.9980703426689891 -0.0034014643089958613 0.9980704912986026 -0.0034014700574701096 0.0019592779302489475 -9.466592045048574e-05
1300000000.0 0.001959608833776566 -0.00010258222243208793 0.9980684602335754 -0.0036848683671453965 0.9980686088488889 -0.0036848745947797718 0.0019598370101710292 -0.00010258495804371479
1400000000.0 0.001960212249544495 -0.00011050828404289562 0.9980664279496742 -0.003968260145995119 0.9980665765495349 -0.003968266852818083 0.00196044040293083 -0.00011051122991018025
1500000000.0 0.001960859884701609 -0.00011844213017462512 0.9980642459889061 -0.0042516387136227254 0.9980643945721591 -0.004251645899664916 0.0019610880133779525 -0.00011844528625827787
1600000000.0 0.0019615516371548508 -0.00012638430964984217 0.9980619145353793 -0.004535003140902044 0.9980620631008684 -0.0045350108061959285 0.0019617797394192883 -0.00012638767590786524
1700000000.0 0.001962287397891217 -0.0001343353698050179 0.9980594337856404 -0.004818352501698422 0.9980595823322063 -0.004818360646278686 0.0019625154720418225 -0.0001343389461926866
1800000000.0 0.001963067051000675 -0.00014229585639400407 0.9980568039486221 -0.005101685873063411 0.9980569524751037 -0.005101694496966358 0.0019632950953378508 -0.00014229964286349128
1900000000.0 0.001963890473704631 -0.00015026631349113976 0.998054025245591 -0.005385002335427533 0.998054173750824 -0.005385011438691579 0.0019641184865273756 -0.00015027030999202406
2000000000.0 0.001964757536379197 -0.00015824728339579027 0.9980510979100861 -0.005668300972793452 0.9980512463929045 -0.005668310555458602 0.001964985515988545 -0.000158251489874602
2100000000.0 0.0019656681025863 -0.0001662393065364552 0.9980480221878613 -0.005951580872926612 0.9980481706470955 -0.005951590935034892 0.0019658960472834107 -0.00016624372293693205
2200000000.0 0.0019666220291040676 -0.0001742429213759134 0.998044798336819 -0.006234841127545899 0.9980449467712966 -0.006234851669141058 0.001966849937189774 -0.00017424754763907532
2300000000.0 0.001967619165954896 -0.00018225866431703045 0.9980414266269448 -0.0065180808325122274 0.9980415750354903 -0.00651809185363962 0.0019678470357324057 -0.00018226350038080276
2400000000.0 0.0019686593564425038 -0.00019028706960847627 0.9980379073402348 -0.006801299088016633 0.9980380557216697 -0.006801310588723194 0.001968887186214397 -0.0001902921154080854
2500000000.0 0.0019697424371840867 -0.0001983286692515086 0.9980342407706233 -0.007084494998766504 0.998034389123766 -0.00708450697910073 0.001969970225254525 -0.0001983339247191702
2600000000.0 0.0019708682381462243 -0.00020638399290741322 0.9980304272239079 -0.007367667674170119 0.9980305755475721 -0.007367680134182196 0.0019710959828193996 -0.00020638945797254218
2700000000.0 0.001972036582682687 -0.00021445356780533156 0.9980264670176664 -0.007650816228521313 0.9980266153106633 -0.007650829168262735 0.0019722642822648036 -0.0002144592423943341
2800000000.0 0.001973247287572904 -0.00022253791865081446 0.9980223604811772 -0.007933939781180923 0.9980225087423137 -0.007933953200704584 0.0019734749403688976 -0.0002225438026873671
2900000000.0 0.0019745001630614477 -0.00023063756753484817 0.9980181079553325 -0.008217037456757236 0.9980182561834121 -0.008217051356117323 0.0019747277673798982 -0.00023064366093943404
3000000000.0 0.0019757950129009882 -0.00023875303384414802 0.9980137097925511 -0.008500108385285561 0.9980138579863728 -0.00850012276453767 0.0019760225670488953 -0.0002387593365345957
3100000000.0 0.0019771316343927584 -0.00024688483417172427 0.9980091663566845 -0.00878315170240535 0.998009314515043 -0.0087831665616061 0.001977359136679693 -0.00024689134606267966
3200000000.0 0.001978509818433443 -0.00025503348222790013 0.9980044780229259 -0.009066166549535975 0.9980046261446122 -0.009066181888743096 0.001978737267169148 -0.00025504020323119023
3300000000.0 0.001979929349558093 -0.0002631994887530455 0.9979996451777109 -0.009349152074050477 0.9979997932615113 -0.009349167893322732 0.0019801567430535938 -0.0002632064187775391
3400000000.0 0.0019813900059889944 -0.00027138336143015386 0.9979946682186182 -0.009632107429448228 0.9979948162633143 -0.009632123728845506 0.001981617342556346 -0.00027139050038165255
3500000000.0 0.0019828915596830712 -0.00027958560479856946 0.9979895475542669 -0.009915031775524977 0.9979896955586364 -0.009915048555107825 0.001983118837635177 -0.0002795929525800643
3600000000.0 0.001984433776380304 -0.00028780672016894866 0.9979842836042132 -0.010197924278541035 0.9979844315670272 -0.010197941538371096 0.001984660994031584 -0.00028781427668019834
3700000000.0 0.001986016415657313 -0.00029604720553819255 0.9979788767988372 -0.010480784111388796 0.9979790247188642 -0.010480801851527985 0.0019862435713227117 -0.00029605497067624784
3800000000.0 0.0019876392309754066 -0.0003043075555064073 0.9979733275792376 -0.01076361045375623 0.9979734754552398 -0.010763628674267476 0.001987866322971635 -0.0003043155291649938
3900000000.0 0.0019893019697376163 -0.0003125882611934399 0.9979676363971165 -0.011046402492289937 0.9979677842278507 -0.011046421193236339 0.0019895289963823798 -0.0003125964432633739
4000000000.0 0.0019910043733410575 -0.00032088981015732283 0.9979618037146616 -0.01132915942075575 0.9979619514988801 -0.011329178602201066 0.001991231332953166 -0.0003208982005264246
4100000000.0 0.00199274617723324 -0.00032921268631358843 0.9979558300044299 -0.011611880440196782 0.9979559777408791 -0.011611900102205202 0.001992973068132574 -0.00032922128486653285
4200000000.0 0.0019945271109678775 -0.0003375573698549147 0.9979497157492263 -0.011894564759089772 0.9979498634366478 -0.01189458490172566 0.001994753931476927 -0.0003375661764733402
4300000000.0 0.001996346898266221 -0.00034592433717227193 0.99794346144198 -0.012177211593499144 0.9979436090791088 -0.0121772322168271 0.001996573646707035 -0.00034593335173466167
4400000000.0 0.0019982052570719816 -0.0003543140607767353 0.997937067585618 -0.012459820167228663 0.9979372151711843 -0.012459841271313195 0.001998431931769118 -0.00035432328315863876
4500000000.0 0.0020001018996155554 -0.0003627270092225793 0.9979305346929381 -0.012742389711971 0.9979306822256655 -0.012742411296876647 0.0020003284988940185 -0.0003627364392964498
4600000000.0 0.002002036532471891 -0.0003711636470320329 0.9979238632864774 -0.013024919467454982 0.9979240107650837 -0.013024941533246355 0.0020022630546598945 -0.0003711732846667489
4700000000.0 0.002004008856627573 -0.0003796244346188514 0.9979170538983793 -0.013307408681590307 0.9979172013215771 -0.013307431228331291 0.0020042353000525085 -0.00037963427968069663
4800000000.0 0.0020060185675398862 -0.00038810982821562275 0.9979101070702595 -0.013589856610609555 0.9979102544367549 -0.013589879638364048 0.002006244930532392 -0.0003881198805675145
4900000000.0 0.002008065355205268 -0.0003966202798007255 0.9979030233530675 -0.013872262519208766 0.9979031706615599 -0.01387228602804033 0.002008291636096974 -0.00039663053930233063
5000000000.0 0.0020101489042231506 -0.00040515623702648594 0.997895803306949 -0.014154625680684681 0.9978959505561315 -0.014154649670656176 0.0020103751013468164 -0.0004051667035343355
5100000000.0 0.0020122688938631708 -0.0004137181431487091 0.9978884475011015 -0.014436945377069696 0.9978885946896608 -0.014436969848243119 0.0020124950055537844 -0.0004137288165161042
5200000000.0 0.002014424998133119 -0.00042230643695730005 0.9978809565136332 -0.014719220899264371 0.99788110364025 -0.014719245851701281 0.00201465102272741 -0.0004223173170344374
5300000000.0 0.002016616885848945 -0.0004309215527073637 0.9978733309314165 -0.015001451547166918 0.997873477994765 -0.015001476980927655 0.0020168428216844163 -0.0004309326393411825
5400000000.0 0.002018844220702299 -0.00043956392005353517 0.9978655713499415 -0.015283636629801051 0.997865718348688 -0.015283662544945162 0.002019070066119066 -0.0004395752130875555
5500000000.0 0.0020211066613327155 -0.000448233963982254 0.9978576783731635 -0.015565775465440437 0.9978578253059689 -0.015565801862026137 0.0020213324146725257 -0.00044824546325680076
5600000000.0 0.0020234038613997497 -0.0004569321047481275 0.9978496526133553 -0.01584786738173027 0.9978497994788726 -0.01584789425981506 0.002023629521005725 -0.0004569438101004004
5700000000.0 0.0020257354696541336 -0.0004656587578099343 0.9978414946909533 -0.01612991171580666 0.9978416414878283 -0.0161299390754459 0.0020259610338717203 -0.00046567066907352646
5800000000.0 0.002028101130012488 -0.0004744143337685259 0.9978332052344001 -0.016411907814413436 0.9978333519612731 -0.01641193565566129 0.0020283265971884714 -0.00047442645077399963
5900000000.0 0.0020305004816304757 -0.00048319923830509215 0.9978247848799923 -0.016693855034015596 0.997824931535495 -0.016693883356924753 0.0020307258501143463 -0.00048321156087958815
6000000000.0 0.0020329331589794414 -0.0004920138721222166 0.997816234271717 -0.01697575274091071 0.9978163808544745 -0.016975781545531858 0.002033158427121638 -0.0004920264000893491
6100000000.0 0.0020353987919207147 -0.0005008586308843341 0.9978075540610976 -0.01725760031133591 0.9978077005697278 -0.017257629597718618 0.0020356239580742114 -0.0005008713640644181
6200000000.0 0.0020378970057833685 -0.0005097339051605505 0.9977987449070281 -0.01753939713157532 0.9977988913401412 -0.017539426899766217 0.002038122068302882 -0.0005097468433706647
6300000000.0 0.002040427421441318 -0.0005186400803690521 0.9977898074756129 -0.017821142598060533 0.9977899538318117 -0.017821172848104735 0.002040652378683815 -0.0005186532234228074
6400000000.0 0.002042989655391843 -0.0005275775367215361 0.9977807424400011 -0.018102836117471235 0.9977808887178807 -0.01810286684941157 0.002043214505716327 -0.0005275908844289861
6500000000.0 0.002045583319833744 -0.0005365466491704174 0.9977715504802217 -0.018384477106831734 0.9977716966783703 -0.018384508320708245 0.0020458080616017537 -0.0005365602013384641
6600000000.0 0.0020482080227487774 -0.0005455477873555215 0.9977622322830167 -0.018666064993604813 0.9977623784000136 -0.018666096689455215 0.0020484326543228357 -0.0005455615437871308
6700000000.0 0.002050863367979609 -0.0005545813155545327 0.9977527885416704 -0.01894759921578248 0.997752934576089 -0.01894763139364198 0.002051087887725587 -0.00055459527604955
6800000000.0 0.0020535489553122578 -0.000563647592632091 0.9977432199558447 -0.019229079221974105 0.997743365906249 -0.019229111881875146 0.0020537733615976824 -0.0005636617569867726
6900000000.0 0.0020562643805578525 -0.0005727469719921306 0.9977335272314045 -0.019510504471491226 0.9977336730963516 -0.01951053761346298 0.002056488671752775 -0.0005727613399991855
7000000000.0 0.002059009235633205 -0.0005818798015312684 0.9977237110802472 -0.019791874434428983 0.9977238568582856 -0.0197919080584981 0.0020592334101097666 -0.0005818943729799208
7100000000.0 0.0020617831086455376 -0.0005910464235922853 0.9977137722201295 -0.02007318859174705 0.9977139179098007 -0.02007322269793651 0.0020620071647783804 -0.0005910611982681684
7200000000.0 0.0020645855839747703 -0.000600247174920615 0.9977037113744955 -0.02035444643534282 0.9977038569743318 -0.020354481023672624 0.002064809520140787 -0.0006002621526056826
7300000000.0 0.0020674162423570037 -0.000609482386621102 0.9976935292722986 -0.020635647468126614 0.9976936747808256 -0.02063568253861298 0.00206764005693557 -0.0006094975670939935
7400000000.0 0.00207027466097009 -0.0006187523841163101 0.9976832266478295 -0.020916791204090374 0.9976833720635634 -0.020916826756746217 0.002070498352342737 -0.0006187677671518307
7500000000.0 0.002073160413516258 -0.0006280574871070446 0.9976728042405361 -0.02119787716837523 0.9976729495619857 -0.021197913203209632 0.0020733839800678427 -0.0006280730724762735
7600000000.0 0.002076073070310262 -0.0006373980095326277 0.9976622627948495 -0.021478904897334766 0.9976624080205156 -0.021478941414352828 0.0020762965104275687 -0.0006374137970029661
7700000000.0 0.002079012198363143 -0.0006467742595336973 0.9976516030600043 -0.021759873938596627 0.9976517481883791 -0.02175991093779934 0.0020792355104351876 -0.0006467902488693892
7800000000.0 0.0020819773614682434 -0.0006561865394167975 0.9976408257898602 -0.022040783851118864 0.9976409708194274 -0.022040821332503277 0.0020822005438872466 -0.0006562027303775628
7900000000.0 0.002084968120288723 -0.0006656351456187187 0.9976299317427222 -0.022321634205246053 0.9976300766719578 -0.022321672168804676 0.0020851911714495413 -0.0006656515379612152
8000000000.0 0.0020879840324437393 -0.0006751203686742406 0.9976189216811617 -0.022602424582760322 0.9976190665085326 -0.022602463028481366 0.002088206950743431 -0.0006751369621511215
8100000000.0 0.0020910246525959355 -0.0006846424931829498 0.9976077963718364 -0.022883154576928636 0.9976079410958013 -0.022883193504795795 0.002091247436434798 -0.0006846592875432476
8200000000.0 0.002094089532538525 -0.0006942017977799356 0.9975965565853074 -0.02316382379255122 0.9975967012043181 -0.023163863202542725 0.0020943121803191998 -0.0006942187927688189
8300000000.0 0.002097178221283508 -0.0007037985551061607 0.9975852030958612 -0.023444431845999935 0.9975853476083589 -0.023444471738090163 0.0020974007314117356 -0.0007038157504650422
8400000000.0 0.0021002902651495498 -0.0007134330317802232 0.9975737366813258 -0.023724978365260857 0.9975738810857441 -0.023725018739418603 0.002100512636033858 -0.0007134504272466115
8500000000.0 0.002103425207849885 -0.0007231054883732826 0.9975621581228887 -0.024005462989968886 0.9975623024176536 -0.024005503846157055 0.0021036474379014358 -0.0007231230836809604
8600000000.0 0.002106582590581815 -0.0007328161793825667 0.9975504682049168 -0.02428588537144105 0.9975506123884449 -0.024285926709618325 0.0021068046782152534 -0.0007328339742613463
8700000000.0 0.002109761952114311 -0.0007425653532089564 0.9975386677147736 -0.024566245172706606 0.9975388117854728 -0.024566286992825575 0.002109983895746625 -0.0007425833473845728
8800000000.0 0.00211296282887732 -0.0007523532521338355 0.9975267574426345 -0.024846542068533574 0.9975269013989052 -0.024846584370541307 0.002113184626928949 -0.0007523714453286424
8900000000.0 0.00211618475505039 -0.0007621801123000847 0.997514738181308 -0.025126775745454057 0.9975148820215413 -0.025126818529291793 0.0021164064059447938 -0.0007621985042322681
9000000000.0 0.002119427262653277 -0.0007720461636901288 0.9975026107260512 -0.02540694590178281 0.9975027544486291 -0.0254069891673859 0.0021196487648165252 -0.0007720647540741625
9100000000.0 0.0021226898816325136 -0.0007819516301106165 0.9974903758743864 -0.025687052247637263 0.9974905194776839 -0.025687095994934926 0.0021229112334944615 -0.0007819704186564242
9200000000.0 0.002125972139953707 -0.0007918967291732054 0.9974780344259219 -0.02596709450495044 0.9974781779083044 -0.025967138733865268 0.0021261933399469232 -0.0007919157155871346
9300000000.0 0.002129273563688088 -0.0008018816722817572 0.9974655871821668 -0.026247072407483713 0.9974657305419914 -0.02624711711793277 0.002129494610248573 -0.0008019008562661391
9400000000.0 0.002132593677104108 -0.0008119066646165724 0.9974530349463517 -0.026526985700835313 0.9974531781819664 -0.026527030892728228 0.002132814568671127 -0.0008119260458696605
9500000000.0 0.0021359320027554457 -0.0008219719051229914 0.9974403785232439 -0.02680683414244538 0.9974405216329896 -0.026806879815685906 0.0021361527377712236 -0.0008219914833391394
9600000000.0 0.0021392880615709394 -0.0008320775865000729 0.9974276187189689 -0.027086617501599613 0.997427761701177 -0.027086663656083962 0.002139508638481443 -0.0008320973613694158
9700000000.0 0.00214266137294371 -0.0008422238951906064 0.9974147563408279 -0.027366335559428356 0.9974148991938206 -0.027366382195045474 0.0021428817901978413 -0.0008422438663993354
9800000000.0 0.0021460514548204456 -0.0008524110113730364 0.9974017921971173 -0.027645988108902494 0.9974019349192095 -0.02764603522553498 0.002146271710871243 -0.0008524311786030752
9900000000.0 0.002149457823790858 -0.0008626391089543963 0.997388727096948 -0.02792557495482864 0.9973888696864457 -0.02792562255235153 0.0021496779170944516 -0.0008626594718833235
10000000000.0 0.002152879995176405 -0.0008729083555641552 0.9973755618500678 -0.028205095913838813 0.9973757043052683 -0.028205143992119392 0.002153099924191992 -0.0008729289138660385
10100000000.0 0.0021563174831194165 -0.0008832189125510829 0.9973622972666788 -0.028484550814379034 0.9973624395858711 -0.028484599373277263 0.0021565372463102535 -0.0008832396658956148
10200000000.0 0.0021597698006713202 -0.0008935709349790166 0.9973489341572619 -0.028763939496693643 0.9973490763387268 -0.02876398853606159 0.0021599893965043894 -0.0008935918830316705
10300000000.0 0.0021632364598824197 -0.0009039645716255758 0.9973354733323975 -0.029043261812807454 0.9973356153744066 -0.02904331133248922 0.002163455886827898 -0.0009039857140474777
10400000000.0 0.002166716971889531 -0.0009143999649825191 0.9973219156025881 -0.029322517626505052 0.9973220575034055 -0.02932256762633728 0.0021669362284212484 -0.0009144213014309222
10500000000.0 0.002170210847003945 -0.0009248772512563514 0.9973082617780831 -0.029601706813307614 0.9973084035359646 -0.02960175729311735 0.0021704299316000317 -0.0009248987813835152
10600000000.0 0.0021737175948004276 -0.0009353965603699538 0.9972945126687015 -0.029880829260444275 0.9972946542818937 -0.02988088022005189 0.0021739365059418765 -0.0009354182838248162
10700000000.0 0.002177236724203054 -0.0009459580159674357 0.9972806690836581 -0.03015988486682639 0.9972808105503994 -0.030159936306042297 0.0021774554603756773 -0.0009459799323941017
10800000000.0 0.002180767743575421 -0.0009565617354178977 0.9972667318313891 -0.03043887354301082 0.9972668731499108 -0.030438925461637845 0.002180986303268554 -0.0009565838444564847
