#   Hz   S  RI   R   50
!
1000000000.0 0.8221143883109616 0.45338885477632
1005000000.0 0.824196847146027 0.4504050394759697
1010000000.0 0.8262569630813922 0.44742926410719325
1015000000.0 0.8282948978626088 0.4444614174581612
1020000000.0 0.8303108099653186 0.4415013963345593
1025000000.0 0.832304854937584 0.4385491052288571
1030000000.0 0.8342771857196446 0.4356044559935878
1035000000.0 0.8362279529420027 0.43266736751906976
1040000000.0 0.8381573052027735 0.4297377654159868
1045000000.0 0.8400653893251522 0.4268155817032099
1050000000.0 0.8419523505958855 0.4239007545011907
1055000000.0 0.8438183329855893 0.4209932277312481
1060000000.0 0.84566347935173 0.41809295082101816
1065000000.0 0.8474879316250856 0.415199878416319
1070000000.0 0.8492918309804665 0.41231397009964715
1075000000.0 0.8510753179924643 0.40943519011549717
1080000000.0 0.8528385327769751 0.4065635071026663
1085000000.0 0.8545816151192166 0.4036988938336862
1090000000.0 0.8563047045889524 0.40084132696148966
1095000000.0 0.8580079406435919 0.3979907867734085
1100000000.0 0.8596914627198483 0.39514725695256514
1105000000.0 0.8613554103145792 0.3923107243467159
1110000000.0 0.8629999230554393 0.3894811787445586
1115000000.0 0.8646251407619451 0.3866586126595292
1120000000.0 0.866231203497525 0.3838430211210711
1125000000.0 0.8678182516131275 0.3810344014733538
1130000000.0 0.8693864257829155 0.37823275318140276
1135000000.0 0.87093586703256 0.3754380776445864
1140000000.0 0.8724667167606557 0.3726503780173967
1145000000.0 0.8739791167537081 0.3698696590374352
1150000000.0 0.875473209195173 0.36709592686052667
1155000000.0 0.8769491366689833 0.36432918890284943
1160000000.0 0.8784070421579787 0.36156945368997856
1165000000.0 0.8798470690376449 0.35881673071272413
1170000000.0 0.8812693610655554 0.35607103028963166
1175000000.0 0.8826740623668666 0.35333236343602403
1180000000.0 0.8840613174162311 0.35060074173943273
1185000000.0 0.8854312710164539 0.3478761772412882
1190000000.0 0.8867840682742025 0.3451586823247059
1195000000.0 0.8881198545730881 0.34244826960823205
1200000000.0 0.8894387755443809 0.33974495184537784
1205000000.0 0.890740977035641 0.33704874182979494
1210000000.0 0.8920266050775174 0.33435965230592574
1215000000.0 0.8932958058489483 0.331677695884969
1220000000.0 0.8945487256409942 0.32900288496599606
1225000000.0 0.8957855108195164 0.326335231662056
1230000000.0 0.8970063077868912 0.32367474773110444
1235000000.0 0.898211262942956 0.3210214445115901
1240000000.0 0.8994005226453575 0.3183753328625437
1245000000.0 0.9005742331694636 0.3157364231079971
1250000000.0 0.9017325406679935 0.3131047249855813
1255000000.0 0.9028755911305021 0.3104802475991379
1260000000.0 0.9040035303428546 0.3078629993751888
1265000000.0 0.9051165038468111 0.3052529880231132
1270000000.0 0.9062146568998275 0.30265022049887147
1275000000.0 0.9072981344351833 0.30005470297213405
1280000000.0 0.9083670810225196 0.29746644079666096
1285000000.0 0.9094216408288889 0.29488543848379367
1290000000.0 0.9104619575803752 0.2923116996789138
1295000000.0 0.9114881745243719 0.28974522714073314
1300000000.0 0.9125004343925742 0.2871860227232784
1305000000.0 0.9134988793647395 0.28463408736043977
1310000000.0 0.9144836510332757 0.28208942105295615
1315000000.0 0.9154548903686962 0.2795520228577122
1320000000.0 0.9164127376859829 0.2770218908792241
1325000000.0 0.9173573326118913 0.27449902226320055
1330000000.0 0.9182888140532298 0.27198341319206204
1335000000.0 0.9192073201661316 0.2694750588823079
1340000000.0 0.9201129883263484 0.2669739535836291
1345000000.0 0.921005955100578 0.26448009057965616
1350000000.0 0.9218863562188347 0.26199346219025194
1355000000.0 0.9227543265478794 0.25951405977524233
1360000000.0 0.9236100000657124 0.2570418737395051
1365000000.0 0.9244535098371285 0.25457689353931673
1370000000.0 0.9252849879903406 0.25211910768987855
1375000000.0 0.9261045656946659 0.24966850377393618
1380000000.0 0.9269123731392678 0.24722506845141767
1385000000.0 0.9277085395129516 0.24478878747000973
1390000000.0 0.9284931929850053 0.24235964567660323
1395000000.0 0.9292664606870659 0.23993762702953692
1400000000.0 0.930028468696012 0.23752271461157537
1405000000.0 0.9307793420178554 0.23511489064355287
1410000000.0 0.9315192045726289 0.2327141364986311
1415000000.0 0.9322481791802426 0.23032043271710273
1420000000.0 0.9329663875473015 0.22793375902169644
1425000000.0 0.933673950254855 0.22555409433332335
1430000000.0 0.9343709867470698 0.223181416787219
1435000000.0 0.9350576153207972 0.22081570374943532
1440000000.0 0.9357339531160205 0.2184569318336316
1445000000.0 0.9364001161071576 0.21610507691813274
1450000000.0 0.9370562190951942 0.21376011416320062
1455000000.0 0.9377023757006375 0.21142201802849792
1460000000.0 0.9383386983572506 0.20909076229069118
1465000000.0 0.9389652983065621 0.20676632006117412
1470000000.0 0.9395822855931141 0.20444866380387003
1475000000.0 0.9401897690604362 0.2021377653530887
1480000000.0 0.9407878563477162 0.19983359593140668
1485000000.0 0.9413766538871475 0.1975361261675478
1490000000.0 0.941956266901931 0.19524532611423623
1495000000.0 0.942526799404907 0.19296116526600246
1500000000.0 0.943088354197794 0.19068361257691693
1505000000.0 0.9436410328710167 0.18841263647823758
1510000000.0 0.9441849358040977 0.18614820489594344
1515000000.0 0.9447201621665884 0.18389028526814827
1520000000.0 0.945246809919525 0.18163884456237
1525000000.0 0.945764975817384 0.17939384929264385
1530000000.0 0.9462747554105124 0.17715526553646824
1535000000.0 0.9467762430480248 0.1749230589515666
1540000000.0 0.9472695318811312 0.17269719479245949
1545000000.0 0.947754713866889 0.1704776379268299
1550000000.0 0.948231879772353 0.16826435285168004
1555000000.0 0.9487011191791077 0.166057303709264
1560000000.0 0.9491625204881612 0.16385645430279552
1565000000.0 0.9496161709251841 0.1616617681119181
1570000000.0 0.9500621565460768 0.15947320830793646
1575000000.0 0.9505005622428468 0.15729073776880123
1580000000.0 0.950931471749777 0.1551143190938439
1585000000.0 0.9513549676498751 0.1529439146182568
1590000000.0 0.9517711313815841 0.15077948642731734
1595000000.0 0.9521800432457367 0.14862099637035048
1600000000.0 0.9525817824127448 0.14646840607443162
1605000000.0 0.9529764269300027 0.14432167695782303
1610000000.0 0.9533640537294977 0.14218077024314946
1615000000.0 0.9537447386356078 0.14004564697030564
1620000000.0 0.9541185563730759 0.13791626800910012
1625000000.0 0.9544855805751508 0.13579259407163344
1630000000.0 0.9548458837918768 0.13367458572441224
1635000000.0 0.9551995374985291 0.13156220340020086
1640000000.0 0.9555466121041694 0.12945540740960718
1645000000.0 0.9558871769603277 0.1273541579524131
1650000000.0 0.9562213003697879 0.12525841512864191
1655000000.0 0.9565490495954696 0.12316813894937183
1660000000.0 0.9568704908693989 0.12108328934729225
1665000000.0 0.9571856894017585 0.11900382618701162
1670000000.0 0.9574947093900019 0.1169297092751142
1675000000.0 0.9577976140280343 0.11486089836997045
1680000000.0 0.9580944655154404 0.11279735319130615
1685000000.0 0.9583853250667581 0.11073903342953091
1690000000.0 0.9586702529207893 0.10868589875483041
1695000000.0 0.9589493083499387 0.10663790882602525
1700000000.0 0.9592225496695745 0.10459502329920262
1705000000.0 0.9594900342474049 0.10255720183612065
1710000000.0 0.9597518185128633 0.10052440411239195
1715000000.0 0.9600079579664963 0.09849658982545116
1720000000.0 0.9602585071893514 0.09647371870230549
1725000000.0 0.9605035198523507 0.09445575050707923
1730000000.0 0.9607430487256557 0.09244264504835059
1735000000.0 0.9609771456880118 0.09043436218628831
1740000000.0 0.9612058617360706 0.08843086183959094
1745000000.0 0.9614292469936803 0.08643210399223236
1750000000.0 0.9616473507211497 0.08443804870002022
1755000000.0 0.961860221324472 0.0824486560969687
1760000000.0 0.9620679063645101 0.08046388640149142
1765000000.0 0.962270452566139 0.07848369992241824
1770000000.0 0.9624679058273383 0.0765080570648407
1775000000.0 0.9626603112282395 0.07453691833578985
1780000000.0 0.9628477130401166 0.07257024434975029
1785000000.0 0.9630301547343216 0.07060799583401599
1790000000.0 0.9632076789911626 0.068650133633891
1795000000.0 0.9633803277087213 0.06669661871773888
1800000000.0 0.9635481420116059 0.06474741218188655
1805000000.0 0.9637111622596403 0.06280247525538507
1810000000.0 0.9638694280564858 0.060861769304631747
1815000000.0 0.9640229782581949 0.05892525583785894
1820000000.0 0.9641718509816931 0.0569928965094919
1825000000.0 0.96431608361319 0.05506465312437962
1830000000.0 0.9644557128165179 0.05314048764190504
1835000000.0 0.964590774541394 0.0512203621799748
1840000000.0 0.96472130403161 0.04930423901889555
1845000000.0 0.9648473358331424 0.04739208060513864
1850000000.0 0.9649689038021877 0.04548384955499754
1855000000.0 0.9650860411131194 0.04357950865814299
1860000000.0 0.9651987802663647 0.04167902088107688
1865000000.0 0.9653071530962058 0.039782349370490674
1870000000.0 0.9654111907784994 0.037889457456530176
1875000000.0 0.9655109238383143 0.03600030865597381
1880000000.0 0.9656063821574962 0.03411486667532064
1885000000.0 0.9656975949821442 0.032233095413800504
1890000000.0 0.9657845909300143 0.030354958966302806
1895000000.0 0.9658673979978386 0.028480421626230032
1900000000.0 0.9659460435685658 0.0266094478882783
1905000000.0 0.9660205544185251 0.024742002451150158
1910000000.0 0.9660909567245055 0.022878050220199665
1915000000.0 0.966157276070763 0.02101755631001457
1920000000.0 0.9662195374559427 0.01916048604693992
1925000000.0 0.9662777652999285 0.01730680497154273
1930000000.0 0.9663319834506118 0.01545647884102381
1935000000.0 0.966382215190589 0.013609473631577797
1940000000.0 0.966428483243775 0.01176575554070481
1945000000.0 0.9664708097819494 0.00992529098947673
1950000000.0 0.9665092164312263 0.008088046624760366
1955000000.0 0.966543724278447 0.006253989321400285
1960000000.0 0.9665743538775068 0.004423086184364355
1965000000.0 0.9666011252556053 0.0025953045508542117
1970000000.0 0.9666240579194302 0.0007706119923826413
1975000000.0 0.966643170861269 -0.001051023683177907
1980000000.0 0.9666584825650562 -0.0028696344295756986
1985000000.0 0.9666700110123491 -0.004685251960184734
1990000000.0 0.9666777736882434 -0.006497907746031612
1995000000.0 0.9666817875872222 -0.008307633013844873
2000000000.0 0.9666820692189396 -0.010114458744121277
2005000000.0 0.9666786346139505 -0.011918415669208477
2010000000.0 0.9666714993293714 -0.013719534271402585
2015000000.0 0.9666606784544893 -0.015517844781055386
2020000000.0 0.9666461866163117 -0.017313377174695097
2025000000.0 0.9666280379850613 -0.019106161173149543
2030000000.0 0.9666062462796157 -0.020896226239680783
2035000000.0 0.9665808247728988 -0.02268360157811977
2040000000.0 0.9665517862972177 -0.024468316131005537
2045000000.0 0.9665191432495538 -0.026250398577720917
2050000000.0 0.9664829075968068 -0.028029877332631823
2055000000.0 0.9664430908809925 -0.0298067805432189
2060000000.0 0.9663997042243989 -0.031581136088205404
2065000000.0 0.966352758334701 -0.03335297157567942
2070000000.0 0.9663022635100356 -0.035122314341205906
2075000000.0 0.9662482296440396 -0.03688919144593037
2080000000.0 0.9661906662308535 -0.03865362967467016
2085000000.0 0.9661295823700917 -0.04041565553399336
2090000000.0 0.9660649867717792 -0.0421752952502829
2095000000.0 0.9659968877612658 -0.04393257476778492
2100000000.0 0.9659252932841056 -0.04568751974664069
2105000000.0 0.9658502109109199 -0.04744015556089942
2110000000.0 0.965771647842233 -0.04919050729651162
2115000000.0 0.9656896109132885 -0.050938599749301594
2120000000.0 0.965604106598853 -0.052684457422918864
2125000000.0 0.9655151410179987 -0.05442810452676439
2130000000.0 0.9654227199388773 -0.05616956497389481
2135000000.0 0.9653268487834834 -0.05790886237890078
2140000000.0 0.9652275326324108 -0.059646020055758246
2145000000.0 0.9651247762296027 -0.06138106101565501
2150000000.0 0.9650185839871015 -0.06311400796478589
2155000000.0 0.9649089599897981 -0.06484488330212466
2160000000.0 0.9647959080001859 -0.0665737091171602
2165000000.0 0.9646794314631194 -0.06830050718760858
2170000000.0 0.964559533510584 -0.07002529897708977
2175000000.0 0.9644362169664752 -0.07174810563277713
2180000000.0 0.9643094843513962 -0.0734689479830128
2185000000.0 0.9641793378874716 -0.07518784653489123
2190000000.0 0.96404577950318 -0.07690482147181243
2195000000.0 0.963908810838217 -0.07861989265099939
2200000000.0 0.9637684332483799 -0.08033307960098564
2205000000.0 0.9636246478104857 -0.08204440151906821
2210000000.0 0.9634774553273251 -0.08375387726872761
2215000000.0 0.9633268563326487 -0.08546152537701564
2220000000.0 0.9631728510962 -0.08716736403191028
2225000000.0 0.96301543962879 -0.08887141107963653
2230000000.0 0.96285462168742 -0.0905736840219569
2235000000.0 0.962690396780457 -0.09227420001342906
2240000000.0 0.9625227641728633 -0.09397297585863146
2245000000.0 0.9623517228914875 -0.09567002800935889
2250000000.0 0.9621772717304159 -0.09736537256178786
2255000000.0 0.9619994092563935 -0.09905902525361188
2260000000.0 0.9618181338143151 -0.10075100146114928
2265000000.0 0.9616334435327902 -0.10244131619642236
2270000000.0 0.9614453363297897 -0.10412998410421145
2275000000.0 0.9612538099183743 -0.10581701945908306
2280000000.0 0.96105886181251 -0.10750243616239519
2285000000.0 0.9608604893329791 -0.10918624773927954
2290000000.0 0.9606586896133826 -0.11086846733560457
2295000000.0 0.9604534596062503 -0.11254910771491895
2300000000.0 0.9602447960892487 -0.1142281812553792
2305000000.0 0.960032695671506 -0.11590569994666176
2310000000.0 0.9598171548000487 -0.11758167538686512
2315000000.0 0.9595981697663594 -0.1192561187793995
2320000000.0 0.9593757367130578 -0.1209290409298717
2325000000.0 0.9591498516407125 -0.12260045224296531
2330000000.0 0.9589205104147883 -0.1242703627193192
2335000000.0 0.9586877087727323 -0.12593878195240865
2340000000.0 0.9584514423312032 -0.12760571912543187
2345000000.0 0.9582117065934564 -0.12927118300820584
2350000000.0 0.9579684969568779 -0.13093518195407566
2355000000.0 0.9577218087206847 -0.1325977238968407
2360000000.0 0.9574716370937871 -0.13425881634770265
2365000000.0 0.9572179772028274 -0.13591846639223887
2370000000.0 0.9569608241003928 -0.1375766806874089
2375000000.0 0.9567001727734132 -0.13923346545859488
2380000000.0 0.9564360181517467 -0.14088882649668513
2385000000.0 0.9561683551169609 -0.14254276915520547
2390000000.0 0.9558971785113128 -0.1441952983475023
2395000000.0 0.955622483146939 -0.14584641854398694
2400000000.0 0.9553442638152532 -0.14749613376944606
2405000000.0 0.9550625152965634 -0.14914444760042564
2410000000.0 0.9547772323699152 -0.15079136316269423
2415000000.0 0.9544884098231631 -0.15243688312879738
2420000000.0 0.9541960424632787 -0.15408100971570732
2425000000.0 0.9539001251268989 -0.15572374468257638
2430000000.0 0.9536006526911252 -0.15736508932860646
2435000000.0 0.9532976200845769 -0.15900504449104097
2440000000.0 0.9529910222986996 -0.16064361054328882
2445000000.0 0.952680854399347 -0.16228078739319257
2450000000.0 0.9523671115386283 -0.1639165744814499
2455000000.0 0.9520497889670364 -0.16555097078019948
2460000000.0 0.9517288820458615 -0.16718397479178373
2465000000.0 0.9514043862598902 -0.16881558454769935
2470000000.0 0.9510762972304024 -0.17044579760775008
2475000000.0 0.9507446107284694 -0.17207461105941027
2480000000.0 0.9504093226885552 -0.1737020215174208
2485000000.0 0.950070429222434 -0.17532802512362353
2490000000.0 0.9497279266334214 -0.1769526175470538
2495000000.0 0.9493818114309278 -0.17857579398430415
2500000000.0 0.9490320803453403 -0.18019754916017847
2505000000.0 0.9486787303432339 -0.18181787732864768
2510000000.0 0.948321758642921 -0.1834367722741304
2515000000.0 0.9479611627303405 -0.18505422731311238
2520000000.0 0.9475969403752889 -0.18667023529612403
2525000000.0 0.9472290896480029 -0.18828478861009812
2530000000.0 0.9468576089360888 -0.18989787918112255
2535000000.0 0.9464824969618115 -0.19150949847761572
2540000000.0 0.9461037527997337 -0.193119637513938
2545000000.0 0.9457213758947204 -0.1947282868544704
2550000000.0 0.9453353660802993 -0.1963354366181746
2555000000.0 0.9449457235973852 -0.19794107648366632
2560000000.0 0.9445524491133652 -0.1995451956948203
2565000000.0 0.9441555437415505 -0.20114778306693656
2570000000.0 0.9437550090609855 -0.20274882699349284
2575000000.0 0.9433508471366213 -0.20434831545350834
2580000000.0 0.9429430605398477 -0.2059462360195508
2585000000.0 0.9425316523693817 -0.20754257586641417
2590000000.0 0.9421166262725105 -0.2091373217804929
2595000000.0 0.9416979864666826 -0.2107304601698912
2600000000.0 0.9412757377614454 -0.21232197707529102
2605000000.0 0.9408498855807182 -0.21391185818161818
2610000000.0 0.9404204359853996 -0.21550008883053098
2615000000.0 0.9399873956962956 -0.21708665403377886
2620000000.0 0.9395507721173638 -0.2186715384874523
2625000000.0 0.9391105733592613 -0.2202547265871688
2630000000.0 0.9386668082631838 -0.2218362024442298
2635000000.0 0.9382194864249814 -0.22341594990278674
2640000000.0 0.937768618219546 -0.2249939525580523
2645000000.0 0.9373142148254399 -0.22657019377560284
2650000000.0 0.9368562882497596 -0.22814465671180445
2655000000.0 0.9363948513532118 -0.22971732433541178
2660000000.0 0.9359299178753808 -0.23128817945037522
2665000000.0 0.935461502460159 -0.2328572047199077
2670000000.0 0.9349896206813311 -0.23442438269184454
2675000000.0 0.9345142890682689 -0.23598969582534965
2680000000.0 0.934035525131717 -0.23755312651901314
2685000000.0 0.9335533473896329 -0.23911465714037525
2690000000.0 0.9330677753930581 -0.24067427005694217
2695000000.0 0.9325788297519754 -0.24223194766872444
2700000000.0 0.9320865321611119 -0.24378767244235114
2705000000.0 0.9315909054256628 -0.24534142694681627
2710000000.0 0.9310919734868713 -0.24689319389088876
2715000000.0 0.9305897614474357 -0.24844295616225534
2720000000.0 0.9300842955966868 -0.24999069686842587
2725000000.0 0.9295756034354841 -0.2515363993794711
2730000000.0 0.9290637137007715 -0.25308004737262113
2735000000.0 0.9285486563897475 -0.2546216248787923
2740000000.0 0.928030462783569 -0.2561611163310805
2745000000.0 0.9275091654705362 -0.2576985066152753
2750000000.0 0.9269847983686881 -0.25923378112244266
2755000000.0 0.9264573967477283 -0.2607669258036232
2760000000.0 0.9259269972502122 -0.2622979272266972
2765000000.0 0.9253936379119092 -0.26382677263545434
2770000000.0 0.9248573581812617 -0.2653534500109325
2775000000.0 0.9243181989378421 -0.26687794813504634
2780000000.0 0.9237762025097216 -0.26840025665656736
2785000000.0 0.923231412689656 -0.26992036615949316
2790000000.0 0.9226838747499685 -0.27143826823383865
2795000000.0 0.9221336354560498 -0.2729539555489004
2800000000.0 0.921580743078338 -0.27446742192901763
2805000000.0 0.921025247402677 -0.2759786624318746
2810000000.0 0.9204671997389278 -0.27748767342936576
2815000000.0 0.9199066529277051 -0.2789944526910616
2820000000.0 0.919343661345103 -0.28049899947029416
2825000000.0 0.9187782809052932 -0.2820013145928851
2830000000.0 0.9182105690608237 -0.2835014005485384
2835000000.0 0.9176405848004945 -0.2849992615849031
2840000000.0 0.9170683886446471 -0.28649490380432824
2845000000.0 0.9164940426377212 -0.28798833526330386
2850000000.0 0.915917610337897 -0.2894795660745998
2855000000.0 0.915339156803672 -0.2909686085120767
2860000000.0 0.914758748577199 -0.2924554771181915
2865000000.0 0.9141764536641878 -0.29394018881414613
2870000000.0 0.9135923415102124 -0.29542276301267845
2875000000.0 0.9130064829732222 -0.2969032217334593
2880000000.0 0.9124189502920557 -0.2983815897210579
2885000000.0 0.9118298170507747 -0.2998578945654286
2890000000.0 0.91123915813861 -0.301332166824873
2895000000.0 0.9106470497052988 -0.3028044401514134
2900000000.0 0.9100535691116227 -0.3042747514185068
2905000000.0 0.9094587948749077 -0.30574314085101917
2910000000.0 0.9088628066092862 -0.30720965215738255
