#   Hz   S  RI   R   50
!
0.000000e+00 4.913071e-03 0.000000e+00 9.950871e-01 0.000000e+00 9.950861e-01 0.000000e+00 4.917539e-03 0.000000e+00
1.000000e+08 4.913195e-03 5.498266e-05 9.950869e-01 -3.862759e-04 9.950859e-01 -3.863133e-04 4.917676e-03 5.520857e-05
2.000000e+08 4.913567e-03 1.099603e-04 9.950863e-01 -7.725452e-04 9.950853e-01 -7.726201e-04 4.918087e-03 1.104119e-04
3.000000e+08 4.914187e-03 1.649278e-04 9.950853e-01 -1.158801e-03 9.950844e-01 -1.158914e-03 4.918772e-03 1.656049e-04
4.000000e+08 4.915054e-03 2.198802e-04 9.950840e-01 -1.545038e-03 9.950830e-01 -1.545188e-03 4.919729e-03 2.207822e-04
5.000000e+08 4.916169e-03 2.748124e-04 9.950822e-01 -1.931249e-03 9.950812e-01 -1.931436e-03 4.920960e-03 2.759387e-04
6.000000e+08 4.917529e-03 3.297195e-04 9.950800e-01 -2.317427e-03 9.950790e-01 -2.317651e-03 4.922463e-03 3.310692e-04
7.000000e+08 4.919135e-03 3.845965e-04 9.950775e-01 -2.703565e-03 9.950765e-01 -2.703827e-03 4.924238e-03 3.861686e-04
8.000000e+08 4.920986e-03 4.394383e-04 9.950745e-01 -3.089659e-03 9.950735e-01 -3.089957e-03 4.926283e-03 4.412318e-04
9.000000e+08 4.923081e-03 4.942402e-04 9.950712e-01 -3.475701e-03 9.950702e-01 -3.476035e-03 4.928598e-03 4.962536e-04
1.000000e+09 4.925419e-03 5.489971e-04 9.950675e-01 -3.861684e-03 9.950665e-01 -3.862055e-03 4.931181e-03 5.512291e-04
1.100000e+09 4.927998e-03 6.037043e-04 9.950633e-01 -4.247603e-03 9.950624e-01 -4.248011e-03 4.934032e-03 6.061531e-04
1.200000e+09 4.930817e-03 6.583569e-04 9.950588e-01 -4.633452e-03 9.950579e-01 -4.633896e-03 4.937148e-03 6.610208e-04
1.300000e+09 4.933874e-03 7.129502e-04 9.950540e-01 -5.019223e-03 9.950530e-01 -5.019703e-03 4.940529e-03 7.158273e-04
1.400000e+09 4.937169e-03 7.674794e-04 9.950487e-01 -5.404912e-03 9.950477e-01 -5.405428e-03 4.944172e-03 7.705676e-04
1.500000e+09 4.940699e-03 8.219400e-04 9.950431e-01 -5.790512e-03 9.950421e-01 -5.791064e-03 4.948076e-03 8.252370e-04
1.600000e+09 4.944462e-03 8.763273e-04 9.950371e-01 -6.176018e-03 9.950361e-01 -6.176604e-03 4.952240e-03 8.798307e-04
1.700000e+09 4.948457e-03 9.306368e-04 9.950307e-01 -6.561423e-03 9.950297e-01 -6.562044e-03 4.956660e-03 9.343441e-04
1.800000e+09 4.952681e-03 9.848640e-04 9.950239e-01 -6.946722e-03 9.950229e-01 -6.947378e-03 4.961335e-03 9.887725e-04
1.900000e+09 4.957133e-03 1.039005e-03 9.950168e-01 -7.331909e-03 9.950158e-01 -7.332599e-03 4.966263e-03 1.043111e-03
2.000000e+09 4.961809e-03 1.093054e-03 9.950093e-01 -7.716978e-03 9.950083e-01 -7.717703e-03 4.971441e-03 1.097356e-03
2.100000e+09 4.966708e-03 1.147009e-03 9.950014e-01 -8.101926e-03 9.950005e-01 -8.102683e-03 4.976867e-03 1.151503e-03
2.200000e+09 4.971827e-03 1.200864e-03 9.949932e-01 -8.486745e-03 9.949923e-01 -8.487535e-03 4.982539e-03 1.205547e-03
2.300000e+09 4.977163e-03 1.254615e-03 9.949847e-01 -8.871430e-03 9.949837e-01 -8.872254e-03 4.988453e-03 1.259484e-03
2.400000e+09 4.982714e-03 1.308259e-03 9.949757e-01 -9.255978e-03 9.949748e-01 -9.256834e-03 4.994607e-03 1.313310e-03
2.500000e+09 4.988477e-03 1.361792e-03 9.949665e-01 -9.640383e-03 9.949655e-01 -9.641271e-03 5.000998e-03 1.367021e-03
2.600000e+09 4.994449e-03 1.415210e-03 9.949568e-01 -1.002464e-02 9.949559e-01 -1.002556e-02 5.007623e-03 1.420613e-03
2.700000e+09 5.000627e-03 1.468508e-03 9.949469e-01 -1.040874e-02 9.949460e-01 -1.040969e-02 5.014479e-03 1.474083e-03
2.800000e+09 5.007009e-03 1.521684e-03 9.949366e-01 -1.079269e-02 9.949357e-01 -1.079367e-02 5.021564e-03 1.527426e-03
2.900000e+09 5.013590e-03 1.574735e-03 9.949260e-01 -1.117648e-02 9.949250e-01 -1.117749e-02 5.028873e-03 1.580638e-03
3.000000e+09 5.020367e-03 1.627655e-03 9.949150e-01 -1.156010e-02 9.949141e-01 -1.156114e-02 5.036403e-03 1.633717e-03
3.100000e+09 5.027339e-03 1.680443e-03 9.949037e-01 -1.194355e-02 9.949028e-01 -1.194462e-02 5.044152e-03 1.686659e-03
3.200000e+09 5.034500e-03 1.733095e-03 9.948921e-01 -1.232682e-02 9.948912e-01 -1.232792e-02 5.052115e-03 1.739461e-03
3.300000e+09 5.041848e-03 1.785608e-03 9.948802e-01 -1.270992e-02 9.948793e-01 -1.271105e-02 5.060290e-03 1.792118e-03
3.400000e+09 5.049379e-03 1.837979e-03 9.948680e-01 -1.309284e-02 9.948671e-01 -1.309399e-02 5.068672e-03 1.844629e-03
3.500000e+09 5.057090e-03 1.890205e-03 9.948554e-01 -1.347557e-02 9.948545e-01 -1.347675e-02 5.077258e-03 1.896991e-03
3.600000e+09 5.064977e-03 1.942284e-03 9.948426e-01 -1.385812e-02 9.948417e-01 -1.385932e-02 5.086045e-03 1.949199e-03
3.700000e+09 5.073036e-03 1.994212e-03 9.948294e-01 -1.424047e-02 9.948285e-01 -1.424170e-02 5.095029e-03 2.001253e-03
3.800000e+09 5.081264e-03 2.045986e-03 9.948160e-01 -1.462263e-02 9.948151e-01 -1.462389e-02 5.104205e-03 2.053148e-03
3.900000e+09 5.089657e-03 2.097606e-03 9.948022e-01 -1.500459e-02 9.948014e-01 -1.500588e-02 5.113570e-03 2.104883e-03
4.000000e+09 5.098211e-03 2.149068e-03 9.947882e-01 -1.538635e-02 9.947874e-01 -1.538766e-02 5.123121e-03 2.156455e-03
4.100000e+09 5.106922e-03 2.200370e-03 9.947739e-01 -1.576791e-02 9.947731e-01 -1.576925e-02 5.132853e-03 2.207862e-03
4.200000e+09 5.115787e-03 2.251510e-03 9.947594e-01 -1.614927e-02 9.947585e-01 -1.615063e-02 5.142762e-03 2.259102e-03
4.300000e+09 5.124802e-03 2.302486e-03 9.947445e-01 -1.653042e-02 9.947437e-01 -1.653180e-02 5.152845e-03 2.310172e-03
4.400000e+09 5.133963e-03 2.353297e-03 9.947294e-01 -1.691136e-02 9.947285e-01 -1.691276e-02 5.163097e-03 2.361070e-03
4.500000e+09 5.143265e-03 2.403940e-03 9.947140e-01 -1.729209e-02 9.947132e-01 -1.729351e-02 5.173515e-03 2.411796e-03
4.600000e+09 5.152705e-03 2.454413e-03 9.946984e-01 -1.767260e-02 9.946976e-01 -1.767405e-02 5.184094e-03 2.462347e-03
4.700000e+09 5.162279e-03 2.504716e-03 9.946825e-01 -1.805291e-02 9.946817e-01 -1.805437e-02 5.194831e-03 2.512722e-03
4.800000e+09 5.171983e-03 2.554847e-03 9.946664e-01 -1.843299e-02 9.946656e-01 -1.843447e-02 5.205721e-03 2.562919e-03
4.900000e+09 5.181813e-03 2.604805e-03 9.946500e-01 -1.881286e-02 9.946492e-01 -1.881436e-02 5.216760e-03 2.612936e-03
5.000000e+09 5.191765e-03 2.654588e-03 9.946334e-01 -1.919252e-02 9.946326e-01 -1.919403e-02 5.227944e-03 2.662774e-03
5.100000e+09 5.201836e-03 2.704196e-03 9.946166e-01 -1.957195e-02 9.946158e-01 -1.957348e-02 5.239270e-03 2.712430e-03
5.200000e+09 5.212020e-03 2.753627e-03 9.945995e-01 -1.995116e-02 9.945987e-01 -1.995271e-02 5.250733e-03 2.761903e-03
5.300000e+09 5.222314e-03 2.802881e-03 9.945822e-01 -2.033016e-02 9.945814e-01 -2.033172e-02 5.262329e-03 2.811194e-03
5.400000e+09 5.232714e-03 2.851957e-03 9.945647e-01 -2.070893e-02 9.945639e-01 -2.071051e-02 5.274054e-03 2.860300e-03
5.500000e+09 5.243217e-03 2.900854e-03 9.945469e-01 -2.108748e-02 9.945462e-01 -2.108908e-02 5.285903e-03 2.909222e-03
5.600000e+09 5.253818e-03 2.949572e-03 9.945290e-01 -2.146581e-02 9.945283e-01 -2.146742e-02 5.297874e-03 2.957959e-03
5.700000e+09 5.264513e-03 2.998111e-03 9.945109e-01 -2.184392e-02 9.945101e-01 -2.184555e-02 5.309962e-03 3.006510e-03
5.800000e+09 5.275298e-03 3.046470e-03 9.944925e-01 -2.222181e-02 9.944918e-01 -2.222345e-02 5.322163e-03 3.054875e-03
5.900000e+09 5.286171e-03 3.094649e-03 9.944740e-01 -2.259948e-02 9.944733e-01 -2.260113e-02 5.334473e-03 3.103055e-03
6.000000e+09 5.297125e-03 3.142648e-03 9.944553e-01 -2.297692e-02 9.944546e-01 -2.297858e-02 5.346888e-03 3.151048e-03
6.100000e+09 5.308159e-03 3.190467e-03 9.944364e-01 -2.335415e-02 9.944357e-01 -2.335582e-02 5.359404e-03 3.198855e-03
6.200000e+09 5.319268e-03 3.238106e-03 9.944173e-01 -2.373116e-02 9.944166e-01 -2.373284e-02 5.372018e-03 3.246476e-03
6.300000e+09 5.330448e-03 3.285566e-03 9.943980e-01 -2.410795e-02 9.943973e-01 -2.410964e-02 5.384725e-03 3.293911e-03
6.400000e+09 5.341696e-03 3.332846e-03 9.943786e-01 -2.448452e-02 9.943779e-01 -2.448622e-02 5.397522e-03 3.341161e-03
6.500000e+09 5.353007e-03 3.379947e-03 9.943589e-01 -2.486087e-02 9.943583e-01 -2.486258e-02 5.410405e-03 3.388226e-03
6.600000e+09 5.364379e-03 3.426870e-03 9.943392e-01 -2.523701e-02 9.943385e-01 -2.523872e-02 5.423371e-03 3.435107e-03
6.700000e+09 5.375808e-03 3.473615e-03 9.943192e-01 -2.561293e-02 9.943186e-01 -2.561465e-02 5.436415e-03 3.481803e-03
6.800000e+09 5.387290e-03 3.520183e-03 9.942991e-01 -2.598864e-02 9.942985e-01 -2.599037e-02 5.449534e-03 3.528316e-03
6.900000e+09 5.398822e-03 3.566574e-03 9.942789e-01 -2.636414e-02 9.942783e-01 -2.636588e-02 5.462725e-03 3.574647e-03
7.000000e+09 5.410400e-03 3.612790e-03 9.942585e-01 -2.673943e-02 9.942579e-01 -2.674117e-02 5.475984e-03 3.620796e-03
7.100000e+09 5.422021e-03 3.658831e-03 9.942380e-01 -2.711451e-02 9.942374e-01 -2.711626e-02 5.489307e-03 3.666764e-03
7.200000e+09 5.433681e-03 3.704699e-03 9.942173e-01 -2.748939e-02 9.942167e-01 -2.749113e-02 5.502692e-03 3.712553e-03
7.300000e+09 5.445378e-03 3.750394e-03 9.941965e-01 -2.786406e-02 9.941959e-01 -2.786581e-02 5.516135e-03 3.758163e-03
7.400000e+09 5.457107e-03 3.795917e-03 9.941755e-01 -2.823852e-02 9.941749e-01 -2.824028e-02 5.529632e-03 3.803596e-03
7.500000e+09 5.468867e-03 3.841271e-03 9.941544e-01 -2.861279e-02 9.941539e-01 -2.861455e-02 5.543180e-03 3.848852e-03
7.600000e+09 5.480653e-03 3.886455e-03 9.941332e-01 -2.898686e-02 9.941327e-01 -2.898861e-02 5.556777e-03 3.893934e-03
7.700000e+09 5.492463e-03 3.931472e-03 9.941119e-01 -2.936073e-02 9.941114e-01 -2.936249e-02 5.570418e-03 3.938842e-03
7.800000e+09 5.504294e-03 3.976323e-03 9.940904e-01 -2.973441e-02 9.940899e-01 -2.973617e-02 5.584102e-03 3.983578e-03
7.900000e+09 5.516142e-03 4.021009e-03 9.940689e-01 -3.010789e-02 9.940684e-01 -3.010965e-02 5.597825e-03 4.028144e-03
8.000000e+09 5.528005e-03 4.065532e-03 9.940472e-01 -3.048119e-02 9.940467e-01 -3.048295e-02 5.611584e-03 4.072540e-03
8.100000e+09 5.539880e-03 4.109894e-03 9.940254e-01 -3.085430e-02 9.940249e-01 -3.085606e-02 5.625376e-03 4.116769e-03
8.200000e+09 5.551765e-03 4.154095e-03 9.940035e-01 -3.122722e-02 9.940030e-01 -3.122898e-02 5.639199e-03 4.160833e-03
8.300000e+09 5.563657e-03 4.198139e-03 9.939815e-01 -3.159997e-02 9.939810e-01 -3.160172e-02 5.653049e-03 4.204733e-03
8.400000e+09 5.575552e-03 4.242025e-03 9.939594e-01 -3.197253e-02 9.939589e-01 -3.197428e-02 5.666925e-03 4.248470e-03
8.500000e+09 5.587449e-03 4.285757e-03 9.939372e-01 -3.234492e-02 9.939367e-01 -3.234667e-02 5.680824e-03 4.292047e-03
8.600000e+09 5.599345e-03 4.329337e-03 9.939149e-01 -3.271714e-02 9.939144e-01 -3.271888e-02 5.694742e-03 4.335466e-03
8.700000e+09 5.611238e-03 4.372765e-03 9.938925e-01 -3.308918e-02 9.938920e-01 -3.309092e-02 5.708678e-03 4.378728e-03
8.800000e+09 5.623125e-03 4.416044e-03 9.938700e-01 -3.346106e-02 9.938696e-01 -3.346279e-02 5.722630e-03 4.421836e-03
8.900000e+09 5.635004e-03 4.459176e-03 9.938474e-01 -3.383277e-02 9.938470e-01 -3.383450e-02 5.736594e-03 4.464791e-03
9.000000e+09 5.646873e-03 4.502163e-03 9.938247e-01 -3.420432e-02 9.938243e-01 -3.420605e-02 5.750570e-03 4.507595e-03
9.100000e+09 5.658730e-03 4.545007e-03 9.938019e-01 -3.457572e-02 9.938016e-01 -3.457743e-02 5.764554e-03 4.550251e-03
9.200000e+09 5.670573e-03 4.587710e-03 9.937791e-01 -3.494695e-02 9.937787e-01 -3.494866e-02 5.778544e-03 4.592761e-03
9.300000e+09 5.682399e-03 4.630273e-03 9.937561e-01 -3.531803e-02 9.937558e-01 -3.531974e-02 5.792539e-03 4.635126e-03
9.400000e+09 5.694207e-03 4.672700e-03 9.937331e-01 -3.568897e-02 9.937328e-01 -3.569066e-02 5.806537e-03 4.677349e-03
9.500000e+09 5.705995e-03 4.714992e-03 9.937100e-01 -3.605975e-02 9.937097e-01 -3.606144e-02 5.820535e-03 4.719431e-03
9.600000e+09 5.717761e-03 4.757151e-03 9.936869e-01 -3.643039e-02 9.936866e-01 -3.643207e-02 5.834533e-03 4.761376e-03
9.700000e+09 5.729503e-03 4.799180e-03 9.936636e-01 -3.680089e-02 9.936633e-01 -3.680257e-02 5.848527e-03 4.803186e-03
9.800000e+09 5.741220e-03 4.841080e-03 9.936403e-01 -3.717126e-02 9.936400e-01 -3.717292e-02 5.862517e-03 4.844862e-03
9.900000e+09 5.752910e-03 4.882854e-03 9.936169e-01 -3.754149e-02 9.936166e-01 -3.754314e-02 5.876501e-03 4.886407e-03
1.000000e+10 5.764572e-03 4.924504e-03 9.935934e-01 -3.791158e-02 9.935932e-01 -3.791323e-02 5.890478e-03 4.927823e-03
1.010000e+10 5.776205e-03 4.966033e-03 9.935699e-01 -3.828155e-02 9.935696e-01 -3.828318e-02 5.904445e-03 4.969112e-03
1.020000e+10 5.787806e-03 5.007442e-03 9.935462e-01 -3.865140e-02 9.935460e-01 -3.865302e-02 5.918402e-03 5.010276e-03
1.030000e+10 5.799374e-03 5.048733e-03 9.935226e-01 -3.902112e-02 9.935224e-01 -3.902273e-02 5.932347e-03 5.051319e-03
1.040000e+10 5.810909e-03 5.089910e-03 9.934988e-01 -3.939072e-02 9.934986e-01 -3.939232e-02 5.946279e-03 5.092242e-03
1.050000e+10 5.822409e-03 5.130973e-03 9.934750e-01 -3.976020e-02 9.934748e-01 -3.976179e-02 5.960197e-03 5.133047e-03
1.060000e+10 5.833872e-03 5.171927e-03 9.934511e-01 -4.012957e-02 9.934510e-01 -4.013115e-02 5.974099e-03 5.173737e-03
1.070000e+10 5.845299e-03 5.212771e-03 9.934271e-01 -4.049884e-02 9.934270e-01 -4.050040e-02 5.987986e-03 5.214314e-03
1.080000e+10 5.856687e-03 5.253510e-03 9.934031e-01 -4.086799e-02 9.934030e-01 -4.086954e-02 6.001854e-03 5.254780e-03
1.090000e+10 5.868036e-03 5.294144e-03 9.933790e-01 -4.123704e-02 9.933789e-01 -4.123858e-02 6.015704e-03 5.295137e-03
1.100000e+10 5.879345e-03 5.334677e-03 9.933549e-01 -4.160599e-02 9.933548e-01 -4.160752e-02 6.029535e-03 5.335389e-03
1.110000e+10 5.890614e-03 5.375111e-03 9.933306e-01 -4.197484e-02 9.933306e-01 -4.197635e-02 6.043346e-03 5.375536e-03
1.120000e+10 5.901841e-03 5.415447e-03 9.933064e-01 -4.234359e-02 9.933063e-01 -4.234510e-02 6.057136e-03 5.415582e-03
1.130000e+10 5.913025e-03 5.455688e-03 9.932820e-01 -4.271226e-02 9.932820e-01 -4.271374e-02 6.070905e-03 5.455528e-03
1.140000e+10 5.924166e-03 5.495836e-03 9.932576e-01 -4.308083e-02 9.932576e-01 -4.308230e-02 6.084651e-03 5.495377e-03
1.150000e+10 5.935264e-03 5.535894e-03 9.932331e-01 -4.344931e-02 9.932331e-01 -4.345078e-02 6.098374e-03 5.535131e-03
1.160000e+10 5.946318e-03 5.575863e-03 9.932086e-01 -4.381771e-02 9.932086e-01 -4.381916e-02 6.112074e-03 5.574793e-03
1.170000e+10 5.957326e-03 5.615745e-03 9.931839e-01 -4.418603e-02 9.931840e-01 -4.418747e-02 6.125750e-03 5.614363e-03
1.180000e+10 5.968290e-03 5.655544e-03 9.931593e-01 -4.455428e-02 9.931593e-01 -4.455569e-02 6.139402e-03 5.653845e-03
1.190000e+10 5.979209e-03 5.695260e-03 9.931345e-01 -4.492244e-02 9.931346e-01 -4.492385e-02 6.153030e-03 5.693241e-03
1.200000e+10 5.990081e-03 5.734896e-03 9.931097e-01 -4.529053e-02 9.931098e-01 -4.529192e-02 6.166632e-03 5.732553e-03
1.210000e+10 6.000907e-03 5.774454e-03 9.930849e-01 -4.565855e-02 9.930850e-01 -4.565993e-02 6.180209e-03 5.771782e-03
1.220000e+10 6.011687e-03 5.813936e-03 9.930599e-01 -4.602650e-02 9.930600e-01 -4.602787e-02 6.193760e-03 5.810932e-03
1.230000e+10 6.022420e-03 5.853344e-03 9.930349e-01 -4.639439e-02 9.930350e-01 -4.639574e-02 6.207286e-03 5.850003e-03
1.240000e+10 6.033107e-03 5.892680e-03 9.930098e-01 -4.676221e-02 9.930100e-01 -4.676355e-02 6.220786e-03 5.888999e-03
1.250000e+10 6.043747e-03 5.931947e-03 9.929847e-01 -4.712998e-02 9.929849e-01 -4.713129e-02 6.234260e-03 5.927921e-03
1.260000e+10 6.054339e-03 5.971145e-03 9.929595e-01 -4.749768e-02 9.929597e-01 -4.749898e-02 6.247708e-03 5.966771e-03
1.270000e+10 6.064885e-03 6.010278e-03 9.929342e-01 -4.786533e-02 9.929344e-01 -4.786661e-02 6.261130e-03 6.005551e-03
1.280000e+10 6.075383e-03 6.049346e-03 9.929089e-01 -4.823292e-02 9.929091e-01 -4.823419e-02 6.274526e-03 6.044263e-03
1.290000e+10 6.085835e-03 6.088353e-03 9.928834e-01 -4.860046e-02 9.928837e-01 -4.860172e-02 6.287896e-03 6.082910e-03
1.300000e+10 6.096240e-03 6.127298e-03 9.928580e-01 -4.896795e-02 9.928582e-01 -4.896919e-02 6.301240e-03 6.121492e-03
1.310000e+10 6.106598e-03 6.166186e-03 9.928324e-01 -4.933540e-02 9.928327e-01 -4.933662e-02 6.314559e-03 6.160011e-03
1.320000e+10 6.116909e-03 6.205017e-03 9.928068e-01 -4.970279e-02 9.928071e-01 -4.970400e-02 6.327852e-03 6.198471e-03
1.330000e+10 6.127174e-03 6.243792e-03 9.927811e-01 -5.007015e-02 9.927814e-01 -5.007134e-02 6.341120e-03 6.236871e-03
1.340000e+10 6.137393e-03 6.282515e-03 9.927553e-01 -5.043746e-02 9.927556e-01 -5.043864e-02 6.354362e-03 6.275215e-03
1.350000e+10 6.147565e-03 6.321186e-03 9.927294e-01 -5.080474e-02 9.927298e-01 -5.080590e-02 6.367580e-03 6.313504e-03
1.360000e+10 6.157693e-03 6.359808e-03 9.927035e-01 -5.117197e-02 9.927039e-01 -5.117312e-02 6.380774e-03 6.351739e-03
1.370000e+10 6.167774e-03 6.398381e-03 9.926775e-01 -5.153917e-02 9.926779e-01 -5.154031e-02 6.393944e-03 6.389923e-03
1.380000e+10 6.177811e-03 6.436908e-03 9.926514e-01 -5.190634e-02 9.926518e-01 -5.190746e-02 6.407090e-03 6.428056e-03
1.390000e+10 6.187803e-03 6.475390e-03 9.926252e-01 -5.227347e-02 9.926256e-01 -5.227458e-02 6.420212e-03 6.466141e-03
1.400000e+10 6.197752e-03 6.513829e-03 9.925990e-01 -5.264058e-02 9.925994e-01 -5.264167e-02 6.433312e-03 6.504179e-03
1.410000e+10 6.207656e-03 6.552226e-03 9.925727e-01 -5.300765e-02 9.925731e-01 -5.300872e-02 6.446389e-03 6.542172e-03
1.420000e+10 6.217517e-03 6.590582e-03 9.925463e-01 -5.337470e-02 9.925467e-01 -5.337576e-02 6.459444e-03 6.580120e-03
1.430000e+10 6.227335e-03 6.628900e-03 9.925198e-01 -5.374172e-02 9.925202e-01 -5.374276e-02 6.472478e-03 6.618027e-03
1.440000e+10 6.237110e-03 6.667181e-03 9.924932e-01 -5.410871e-02 9.924937e-01 -5.410974e-02 6.485491e-03 6.655892e-03
1.450000e+10 6.246844e-03 6.705426e-03 9.924665e-01 -5.447568e-02 9.924670e-01 -5.447670e-02 6.498484e-03 6.693718e-03
1.460000e+10 6.256536e-03 6.743636e-03 9.924398e-01 -5.484263e-02 9.924403e-01 -5.484363e-02 6.511456e-03 6.731506e-03
1.470000e+10 6.266188e-03 6.781813e-03 9.924129e-01 -5.520956e-02 9.924135e-01 -5.521055e-02 6.524410e-03 6.769257e-03
1.480000e+10 6.275800e-03 6.819958e-03 9.923860e-01 -5.557647e-02 9.923866e-01 -5.557744e-02 6.537345e-03 6.806973e-03
1.490000e+10 6.285372e-03 6.858072e-03 9.923590e-01 -5.594336e-02 9.923596e-01 -5.594432e-02 6.550262e-03 6.844655e-03
1.500000e+10 6.294905e-03 6.896157e-03 9.923319e-01 -5.631024e-02 9.923325e-01 -5.631118e-02 6.563161e-03 6.882303e-03
1.510000e+10 6.304399e-03 6.934214e-03 9.923047e-01 -5.667710e-02 9.923053e-01 -5.667803e-02 6.576044e-03 6.919920e-03
1.520000e+10 6.313856e-03 6.972244e-03 9.922774e-01 -5.704394e-02 9.922780e-01 -5.704486e-02 6.588910e-03 6.957507e-03
1.530000e+10 6.323276e-03 7.010248e-03 9.922500e-01 -5.741077e-02 9.922507e-01 -5.741167e-02 6.601762e-03 6.995064e-03
1.540000e+10 6.332659e-03 7.048227e-03 9.922226e-01 -5.777759e-02 9.922232e-01 -5.777847e-02 6.614598e-03 7.032593e-03
1.550000e+10 6.342007e-03 7.086183e-03 9.921950e-01 -5.814439e-02 9.921956e-01 -5.814527e-02 6.627421e-03 7.070094e-03
1.560000e+10 6.351319e-03 7.124116e-03 9.921673e-01 -5.851118e-02 9.921680e-01 -5.851204e-02 6.640230e-03 7.107570e-03
1.570000e+10 6.360597e-03 7.162028e-03 9.921395e-01 -5.887797e-02 9.921402e-01 -5.887881e-02 6.653027e-03 7.145020e-03
1.580000e+10 6.369842e-03 7.199919e-03 9.921117e-01 -5.924474e-02 9.921124e-01 -5.924557e-02 6.665812e-03 7.182447e-03
1.590000e+10 6.379053e-03 7.237790e-03 9.920837e-01 -5.961150e-02 9.920844e-01 -5.961232e-02 6.678586e-03 7.219850e-03
1.600000e+10 6.388232e-03 7.275643e-03 9.920556e-01 -5.997826e-02 9.920563e-01 -5.997907e-02 6.691349e-03 7.257231e-03
1.610000e+10 6.397380e-03 7.313478e-03 9.920274e-01 -6.034500e-02 9.920282e-01 -6.034580e-02 6.704103e-03 7.294591e-03
1.620000e+10 6.406497e-03 7.351296e-03 9.919991e-01 -6.071174e-02 9.919999e-01 -6.071253e-02 6.716848e-03 7.331930e-03
1.630000e+10 6.415584e-03 7.389098e-03 9.919708e-01 -6.107848e-02 9.919715e-01 -6.107925e-02 6.729585e-03 7.369250e-03
1.640000e+10 6.424642e-03 7.426885e-03 9.919423e-01 -6.144520e-02 9.919430e-01 -6.144596e-02 6.742315e-03 7.406550e-03
1.650000e+10 6.433671e-03 7.464658e-03 9.919137e-01 -6.181192e-02 9.919145e-01 -6.181267e-02 6.755038e-03 7.443833e-03
