#   Hz   S  RI   R   50
!
0.000000e+00 3.631537e-03 0.000000e+00 9.963671e-01 0.000000e+00 9.963658e-01 0.000000e+00 3.633582e-03 0.000000e+00
1.000000e+08 3.631631e-03 4.795618e-05 9.963669e-01 -3.390674e-04 9.963656e-01 -3.487410e-04 3.633688e-03 3.828698e-05
2.000000e+08 3.631912e-03 9.590855e-05 9.963665e-01 -6.781296e-04 9.963651e-01 -6.974769e-04 3.634008e-03 7.657001e-05
3.000000e+08 3.632382e-03 1.438533e-04 9.963657e-01 -1.017182e-03 9.963644e-01 -1.046202e-03 3.634541e-03 1.148451e-04
4.000000e+08 3.633038e-03 1.917866e-04 9.963646e-01 -1.356218e-03 9.963633e-01 -1.394912e-03 3.635286e-03 1.531084e-04
5.000000e+08 3.633882e-03 2.397048e-04 9.963632e-01 -1.695234e-03 9.963618e-01 -1.743602e-03 3.636243e-03 1.913558e-04
6.000000e+08 3.634912e-03 2.876039e-04 9.963615e-01 -2.034225e-03 9.963601e-01 -2.092265e-03 3.637413e-03 2.295836e-04
7.000000e+08 3.636128e-03 3.354803e-04 9.963595e-01 -2.373185e-03 9.963581e-01 -2.440898e-03 3.638794e-03 2.677877e-04
8.000000e+08 3.637529e-03 3.833302e-04 9.963572e-01 -2.712109e-03 9.963557e-01 -2.789495e-03 3.640385e-03 3.059643e-04
9.000000e+08 3.639115e-03 4.311499e-04 9.963546e-01 -3.050992e-03 9.963531e-01 -3.138051e-03 3.642186e-03 3.441096e-04
1.000000e+09 3.640884e-03 4.789356e-04 9.963517e-01 -3.389830e-03 9.963501e-01 -3.486560e-03 3.644197e-03 3.822196e-04
1.100000e+09 3.642837e-03 5.266839e-04 9.963485e-01 -3.728618e-03 9.963468e-01 -3.835019e-03 3.646415e-03 4.202906e-04
1.200000e+09 3.644971e-03 5.743909e-04 9.963450e-01 -4.067350e-03 9.963432e-01 -4.183422e-03 3.648840e-03 4.583188e-04
1.300000e+09 3.647286e-03 6.220531e-04 9.963412e-01 -4.406021e-03 9.963394e-01 -4.531764e-03 3.651471e-03 4.963005e-04
1.400000e+09 3.649780e-03 6.696669e-04 9.963371e-01 -4.744628e-03 9.963352e-01 -4.880041e-03 3.654307e-03 5.342319e-04
1.500000e+09 3.652452e-03 7.172288e-04 9.963327e-01 -5.083165e-03 9.963307e-01 -5.228247e-03 3.657346e-03 5.721095e-04
1.600000e+09 3.655300e-03 7.647354e-04 9.963280e-01 -5.421628e-03 9.963259e-01 -5.576378e-03 3.660586e-03 6.099295e-04
1.700000e+09 3.658324e-03 8.121832e-04 9.963230e-01 -5.760011e-03 9.963208e-01 -5.924430e-03 3.664027e-03 6.476885e-04
1.800000e+09 3.661522e-03 8.595688e-04 9.963178e-01 -6.098312e-03 9.963154e-01 -6.272397e-03 3.667667e-03 6.853829e-04
1.900000e+09 3.664891e-03 9.068889e-04 9.963122e-01 -6.436524e-03 9.963097e-01 -6.620276e-03 3.671503e-03 7.230092e-04
2.000000e+09 3.668431e-03 9.541402e-04 9.963064e-01 -6.774644e-03 9.963037e-01 -6.968062e-03 3.675535e-03 7.605641e-04
2.100000e+09 3.672139e-03 1.001319e-03 9.963002e-01 -7.112668e-03 9.962975e-01 -7.315751e-03 3.679760e-03 7.980442e-04
2.200000e+09 3.676013e-03 1.048424e-03 9.962938e-01 -7.450590e-03 9.962909e-01 -7.663338e-03 3.684176e-03 8.354462e-04
2.300000e+09 3.680051e-03 1.095449e-03 9.962871e-01 -7.788408e-03 9.962841e-01 -8.010819e-03 3.688781e-03 8.727668e-04
2.400000e+09 3.684253e-03 1.142394e-03 9.962802e-01 -8.126118e-03 9.962770e-01 -8.358191e-03 3.693574e-03 9.100030e-04
2.500000e+09 3.688614e-03 1.189254e-03 9.962729e-01 -8.463714e-03 9.962696e-01 -8.705449e-03 3.698552e-03 9.471516e-04
2.600000e+09 3.693133e-03 1.236027e-03 9.962654e-01 -8.801194e-03 9.962619e-01 -9.052590e-03 3.703712e-03 9.842096e-04
2.700000e+09 3.697808e-03 1.282710e-03 9.962576e-01 -9.138554e-03 9.962539e-01 -9.399609e-03 3.709053e-03 1.021174e-03
2.800000e+09 3.702637e-03 1.329301e-03 9.962496e-01 -9.475790e-03 9.962457e-01 -9.746504e-03 3.714572e-03 1.058042e-03
2.900000e+09 3.707616e-03 1.375795e-03 9.962413e-01 -9.812899e-03 9.962372e-01 -1.009327e-02 3.720267e-03 1.094811e-03
3.000000e+09 3.712744e-03 1.422192e-03 9.962327e-01 -1.014988e-02 9.962284e-01 -1.043990e-02 3.726135e-03 1.131478e-03
3.100000e+09 3.718018e-03 1.468488e-03 9.962239e-01 -1.048672e-02 9.962194e-01 -1.078640e-02 3.732173e-03 1.168040e-03
3.200000e+09 3.723436e-03 1.514681e-03 9.962148e-01 -1.082343e-02 9.962101e-01 -1.113277e-02 3.738379e-03 1.204495e-03
3.300000e+09 3.728994e-03 1.560768e-03 9.962055e-01 -1.115999e-02 9.962006e-01 -1.147898e-02 3.744751e-03 1.240840e-03
3.400000e+09 3.734691e-03 1.606748e-03 9.961960e-01 -1.149642e-02 9.961908e-01 -1.182506e-02 3.751285e-03 1.277074e-03
3.500000e+09 3.740523e-03 1.652618e-03 9.961861e-01 -1.183269e-02 9.961808e-01 -1.217099e-02 3.757979e-03 1.313192e-03
3.600000e+09 3.746488e-03 1.698375e-03 9.961761e-01 -1.216882e-02 9.961705e-01 -1.251677e-02 3.764830e-03 1.349195e-03
3.700000e+09 3.752582e-03 1.744018e-03 9.961658e-01 -1.250480e-02 9.961600e-01 -1.286239e-02 3.771834e-03 1.385078e-03
3.800000e+09 3.758804e-03 1.789545e-03 9.961553e-01 -1.284062e-02 9.961492e-01 -1.320786e-02 3.778990e-03 1.420841e-03
3.900000e+09 3.765150e-03 1.834954e-03 9.961446e-01 -1.317629e-02 9.961382e-01 -1.355318e-02 3.786295e-03 1.456481e-03
4.000000e+09 3.771617e-03 1.880243e-03 9.961336e-01 -1.351180e-02 9.961270e-01 -1.389833e-02 3.793744e-03 1.491996e-03
4.100000e+09 3.778203e-03 1.925410e-03 9.961224e-01 -1.384715e-02 9.961155e-01 -1.424332e-02 3.801336e-03 1.527384e-03
4.200000e+09 3.784904e-03 1.970454e-03 9.961110e-01 -1.418234e-02 9.961038e-01 -1.458815e-02 3.809067e-03 1.562644e-03
4.300000e+09 3.791717e-03 2.015373e-03 9.960994e-01 -1.451736e-02 9.960919e-01 -1.493281e-02 3.816934e-03 1.597775e-03
4.400000e+09 3.798640e-03 2.060166e-03 9.960875e-01 -1.485221e-02 9.960798e-01 -1.527731e-02 3.824935e-03 1.632773e-03
4.500000e+09 3.805669e-03 2.104831e-03 9.960755e-01 -1.518690e-02 9.960675e-01 -1.562164e-02 3.833065e-03 1.667640e-03
4.600000e+09 3.812802e-03 2.149367e-03 9.960632e-01 -1.552142e-02 9.960549e-01 -1.596579e-02 3.841322e-03 1.702371e-03
4.700000e+09 3.820034e-03 2.193773e-03 9.960508e-01 -1.585577e-02 9.960422e-01 -1.630978e-02 3.849703e-03 1.736968e-03
4.800000e+09 3.827364e-03 2.238048e-03 9.960381e-01 -1.618995e-02 9.960292e-01 -1.665359e-02 3.858205e-03 1.771427e-03
4.900000e+09 3.834788e-03 2.282190e-03 9.960253e-01 -1.652395e-02 9.960161e-01 -1.699723e-02 3.866824e-03 1.805749e-03
5.000000e+09 3.842303e-03 2.326199e-03 9.960123e-01 -1.685779e-02 9.960027e-01 -1.734069e-02 3.875558e-03 1.839932e-03
5.100000e+09 3.849906e-03 2.370074e-03 9.959991e-01 -1.719144e-02 9.959892e-01 -1.768398e-02 3.884403e-03 1.873975e-03
5.200000e+09 3.857593e-03 2.413814e-03 9.959857e-01 -1.752492e-02 9.959755e-01 -1.802709e-02 3.893356e-03 1.907878e-03
5.300000e+09 3.865363e-03 2.457418e-03 9.959721e-01 -1.785823e-02 9.959616e-01 -1.837002e-02 3.902413e-03 1.941639e-03
5.400000e+09 3.873211e-03 2.500886e-03 9.959584e-01 -1.819136e-02 9.959475e-01 -1.871277e-02 3.911573e-03 1.975259e-03
5.500000e+09 3.881134e-03 2.544217e-03 9.959445e-01 -1.852431e-02 9.959332e-01 -1.905535e-02 3.920831e-03 2.008736e-03
5.600000e+09 3.889130e-03 2.587410e-03 9.959304e-01 -1.885708e-02 9.959188e-01 -1.939775e-02 3.930184e-03 2.042069e-03
5.700000e+09 3.897196e-03 2.630467e-03 9.959161e-01 -1.918968e-02 9.959042e-01 -1.973997e-02 3.939630e-03 2.075260e-03
5.800000e+09 3.905328e-03 2.673385e-03 9.959017e-01 -1.952210e-02 9.958894e-01 -2.008201e-02 3.949165e-03 2.108306e-03
5.900000e+09 3.913523e-03 2.716165e-03 9.958872e-01 -1.985434e-02 9.958745e-01 -2.042387e-02 3.958787e-03 2.141209e-03
6.000000e+09 3.921779e-03 2.758806e-03 9.958725e-01 -2.018641e-02 9.958594e-01 -2.076555e-02 3.968491e-03 2.173967e-03
6.100000e+09 3.930092e-03 2.801310e-03 9.958576e-01 -2.051829e-02 9.958441e-01 -2.110705e-02 3.978275e-03 2.206581e-03
6.200000e+09 3.938459e-03 2.843675e-03 9.958426e-01 -2.085000e-02 9.958287e-01 -2.144838e-02 3.988137e-03 2.239051e-03
6.300000e+09 3.946878e-03 2.885901e-03 9.958275e-01 -2.118154e-02 9.958132e-01 -2.178953e-02 3.998072e-03 2.271376e-03
6.400000e+09 3.955346e-03 2.927990e-03 9.958122e-01 -2.151290e-02 9.957975e-01 -2.213050e-02 4.008079e-03 2.303557e-03
6.500000e+09 3.963859e-03 2.969940e-03 9.957967e-01 -2.184408e-02 9.957816e-01 -2.247130e-02 4.018153e-03 2.335595e-03
6.600000e+09 3.972415e-03 3.011753e-03 9.957812e-01 -2.217509e-02 9.957656e-01 -2.281192e-02 4.028293e-03 2.367488e-03
6.700000e+09 3.981011e-03 3.053429e-03 9.957655e-01 -2.250593e-02 9.957495e-01 -2.315236e-02 4.038494e-03 2.399239e-03
6.800000e+09 3.989644e-03 3.094968e-03 9.957497e-01 -2.283659e-02 9.957333e-01 -2.349263e-02 4.048756e-03 2.430846e-03
6.900000e+09 3.998311e-03 3.136371e-03 9.957338e-01 -2.316709e-02 9.957169e-01 -2.383273e-02 4.059074e-03 2.462311e-03
7.000000e+09 4.007011e-03 3.177637e-03 9.957177e-01 -2.349741e-02 9.957004e-01 -2.417266e-02 4.069445e-03 2.493634e-03
7.100000e+09 4.015739e-03 3.218769e-03 9.957016e-01 -2.382756e-02 9.956838e-01 -2.451242e-02 4.079868e-03 2.524816e-03
7.200000e+09 4.024493e-03 3.259766e-03 9.956853e-01 -2.415755e-02 9.956671e-01 -2.485201e-02 4.090339e-03 2.555857e-03
7.300000e+09 4.033272e-03 3.300629e-03 9.956689e-01 -2.448737e-02 9.956502e-01 -2.519143e-02 4.100855e-03 2.586759e-03
7.400000e+09 4.042071e-03 3.341359e-03 9.956524e-01 -2.481702e-02 9.956333e-01 -2.553068e-02 4.111415e-03 2.617521e-03
7.500000e+09 4.050889e-03 3.381957e-03 9.956358e-01 -2.514651e-02 9.956162e-01 -2.586977e-02 4.122015e-03 2.648145e-03
7.600000e+09 4.059724e-03 3.422424e-03 9.956191e-01 -2.547584e-02 9.955990e-01 -2.620870e-02 4.132653e-03 2.678632e-03
7.700000e+09 4.068572e-03 3.462760e-03 9.956023e-01 -2.580500e-02 9.955817e-01 -2.654746e-02 4.143326e-03 2.708982e-03
7.800000e+09 4.077431e-03 3.502967e-03 9.955854e-01 -2.613401e-02 9.955643e-01 -2.688606e-02 4.154033e-03 2.739197e-03
7.900000e+09 4.086299e-03 3.543046e-03 9.955684e-01 -2.646287e-02 9.955468e-01 -2.722451e-02 4.164770e-03 2.769278e-03
8.000000e+09 4.095174e-03 3.582998e-03 9.955513e-01 -2.679156e-02 9.955292e-01 -2.756280e-02 4.175535e-03 2.799225e-03
8.100000e+09 4.104053e-03 3.622823e-03 9.955341e-01 -2.712011e-02 9.955115e-01 -2.790094e-02 4.186326e-03 2.829040e-03
8.200000e+09 4.112935e-03 3.662524e-03 9.955169e-01 -2.744850e-02 9.954937e-01 -2.823892e-02 4.197140e-03 2.858725e-03
8.300000e+09 4.121816e-03 3.702101e-03 9.954995e-01 -2.777674e-02 9.954759e-01 -2.857675e-02 4.207976e-03 2.888279e-03
8.400000e+09 4.130695e-03 3.741555e-03 9.954821e-01 -2.810483e-02 9.954579e-01 -2.891444e-02 4.218832e-03 2.917705e-03
8.500000e+09 4.139570e-03 3.780888e-03 9.954646e-01 -2.843278e-02 9.954398e-01 -2.925198e-02 4.229704e-03 2.947004e-03
8.600000e+09 4.148439e-03 3.820101e-03 9.954470e-01 -2.876059e-02 9.954217e-01 -2.958937e-02 4.240592e-03 2.976178e-03
8.700000e+09 4.157300e-03 3.859196e-03 9.954293e-01 -2.908826e-02 9.954035e-01 -2.992662e-02 4.251492e-03 3.005227e-03
8.800000e+09 4.166151e-03 3.898174e-03 9.954116e-01 -2.941578e-02 9.953852e-01 -3.026373e-02 4.262404e-03 3.034152e-03
8.900000e+09 4.174990e-03 3.937036e-03 9.953938e-01 -2.974317e-02 9.953668e-01 -3.060071e-02 4.273325e-03 3.062957e-03
9.000000e+09 4.183815e-03 3.975784e-03 9.953759e-01 -3.007043e-02 9.953484e-01 -3.093755e-02 4.284253e-03 3.091641e-03
9.100000e+09 4.192625e-03 4.014419e-03 9.953579e-01 -3.039755e-02 9.953298e-01 -3.127425e-02 4.295187e-03 3.120206e-03
9.200000e+09 4.201417e-03 4.052942e-03 9.953399e-01 -3.072454e-02 9.953112e-01 -3.161083e-02 4.306125e-03 3.148655e-03
9.300000e+09 4.210191e-03 4.091356e-03 9.953218e-01 -3.105141e-02 9.952926e-01 -3.194728e-02 4.317065e-03 3.176988e-03
9.400000e+09 4.218944e-03 4.129662e-03 9.953037e-01 -3.137815e-02 9.952738e-01 -3.228360e-02 4.328005e-03 3.205207e-03
9.500000e+09 4.227676e-03 4.167861e-03 9.952855e-01 -3.170476e-02 9.952550e-01 -3.261979e-02 4.338945e-03 3.233314e-03
9.600000e+09 4.236383e-03 4.205955e-03 9.952672e-01 -3.203126e-02 9.952361e-01 -3.295587e-02 4.349881e-03 3.261310e-03
9.700000e+09 4.245066e-03 4.243945e-03 9.952488e-01 -3.235764e-02 9.952172e-01 -3.329182e-02 4.360814e-03 3.289196e-03
9.800000e+09 4.253723e-03 4.281833e-03 9.952304e-01 -3.268390e-02 9.951981e-01 -3.362767e-02 4.371741e-03 3.316976e-03
9.900000e+09 4.262352e-03 4.319622e-03 9.952120e-01 -3.301005e-02 9.951791e-01 -3.396339e-02 4.382661e-03 3.344649e-03
1.000000e+10 4.270951e-03 4.357311e-03 9.951935e-01 -3.333609e-02 9.951599e-01 -3.429901e-02 4.393573e-03 3.372218e-03
1.010000e+10 4.279521e-03 4.394904e-03 9.951749e-01 -3.366202e-02 9.951407e-01 -3.463451e-02 4.404475e-03 3.399685e-03
1.020000e+10 4.288059e-03 4.432401e-03 9.951563e-01 -3.398784e-02 9.951215e-01 -3.496991e-02 4.415367e-03 3.427051e-03
1.030000e+10 4.296565e-03 4.469804e-03 9.951376e-01 -3.431356e-02 9.951021e-01 -3.530520e-02 4.426247e-03 3.454318e-03
1.040000e+10 4.305037e-03 4.507116e-03 9.951189e-01 -3.463918e-02 9.950827e-01 -3.564040e-02 4.437113e-03 3.481488e-03
1.050000e+10 4.313474e-03 4.544337e-03 9.951001e-01 -3.496470e-02 9.950633e-01 -3.597549e-02 4.447966e-03 3.508561e-03
1.060000e+10 4.321876e-03 4.581469e-03 9.950813e-01 -3.529012e-02 9.950438e-01 -3.631049e-02 4.458803e-03 3.535541e-03
1.070000e+10 4.330241e-03 4.618515e-03 9.950624e-01 -3.561545e-02 9.950242e-01 -3.664539e-02 4.469625e-03 3.562429e-03
1.080000e+10 4.338568e-03 4.655475e-03 9.950435e-01 -3.594069e-02 9.950046e-01 -3.698020e-02 4.480429e-03 3.589226e-03
1.090000e+10 4.346857e-03 4.692351e-03 9.950245e-01 -3.626583e-02 9.949849e-01 -3.731492e-02 4.491215e-03 3.615934e-03
1.100000e+10 4.355107e-03 4.729146e-03 9.950054e-01 -3.659090e-02 9.949652e-01 -3.764955e-02 4.501983e-03 3.642555e-03
1.110000e+10 4.363316e-03 4.765860e-03 9.949864e-01 -3.691587e-02 9.949454e-01 -3.798410e-02 4.512731e-03 3.669091e-03
1.120000e+10 4.371485e-03 4.802496e-03 9.949672e-01 -3.724077e-02 9.949256e-01 -3.831856e-02 4.523459e-03 3.695543e-03
1.130000e+10 4.379613e-03 4.839055e-03 9.949480e-01 -3.756558e-02 9.949057e-01 -3.865295e-02 4.534165e-03 3.721913e-03
1.140000e+10 4.387698e-03 4.875538e-03 9.949288e-01 -3.789032e-02 9.948857e-01 -3.898725e-02 4.544851e-03 3.748202e-03
1.150000e+10 4.395741e-03 4.911948e-03 9.949095e-01 -3.821498e-02 9.948657e-01 -3.932149e-02 4.555514e-03 3.774414e-03
1.160000e+10 4.403741e-03 4.948286e-03 9.948902e-01 -3.853957e-02 9.948457e-01 -3.965564e-02 4.566154e-03 3.800548e-03
1.170000e+10 4.411697e-03 4.984554e-03 9.948708e-01 -3.886409e-02 9.948256e-01 -3.998973e-02 4.576770e-03 3.826607e-03
1.180000e+10 4.419609e-03 5.020753e-03 9.948514e-01 -3.918854e-02 9.948054e-01 -4.032375e-02 4.587363e-03 3.852593e-03
1.190000e+10 4.427476e-03 5.056885e-03 9.948320e-01 -3.951293e-02 9.947852e-01 -4.065770e-02 4.597932e-03 3.878506e-03
1.200000e+10 4.435299e-03 5.092952e-03 9.948124e-01 -3.983725e-02 9.947649e-01 -4.099159e-02 4.608476e-03 3.904350e-03
1.210000e+10 4.443076e-03 5.128955e-03 9.947929e-01 -4.016151e-02 9.947446e-01 -4.132541e-02 4.618996e-03 3.930125e-03
1.220000e+10 4.450807e-03 5.164895e-03 9.947733e-01 -4.048571e-02 9.947242e-01 -4.165918e-02 4.629489e-03 3.955833e-03
1.230000e+10 4.458493e-03 5.200775e-03 9.947536e-01 -4.080985e-02 9.947038e-01 -4.199289e-02 4.639958e-03 3.981476e-03
1.240000e+10 4.466133e-03 5.236596e-03 9.947339e-01 -4.113393e-02 9.946833e-01 -4.232654e-02 4.650400e-03 4.007054e-03
1.250000e+10 4.473726e-03 5.272359e-03 9.947142e-01 -4.145797e-02 9.946627e-01 -4.266014e-02 4.660816e-03 4.032571e-03
1.260000e+10 4.481272e-03 5.308066e-03 9.946944e-01 -4.178195e-02 9.946421e-01 -4.299368e-02 4.671207e-03 4.058027e-03
1.270000e+10 4.488773e-03 5.343719e-03 9.946745e-01 -4.210588e-02 9.946215e-01 -4.332718e-02 4.681570e-03 4.083424e-03
1.280000e+10 4.496226e-03 5.379319e-03 9.946546e-01 -4.242976e-02 9.946007e-01 -4.366063e-02 4.691908e-03 4.108764e-03
1.290000e+10 4.503633e-03 5.414867e-03 9.946347e-01 -4.275360e-02 9.945800e-01 -4.399403e-02 4.702218e-03 4.134048e-03
1.300000e+10 4.510992e-03 5.450365e-03 9.946147e-01 -4.307740e-02 9.945591e-01 -4.432739e-02 4.712502e-03 4.159277e-03
1.310000e+10 4.518305e-03 5.485814e-03 9.945946e-01 -4.340115e-02 9.945383e-01 -4.466071e-02 4.722760e-03 4.184453e-03
1.320000e+10 4.525571e-03 5.521216e-03 9.945745e-01 -4.372486e-02 9.945173e-01 -4.499398e-02 4.732991e-03 4.209577e-03
1.330000e+10 4.532791e-03 5.556573e-03 9.945544e-01 -4.404853e-02 9.944963e-01 -4.532722e-02 4.743195e-03 4.234652e-03
1.340000e+10 4.539964e-03 5.591885e-03 9.945342e-01 -4.437217e-02 9.944753e-01 -4.566042e-02 4.753373e-03 4.259678e-03
1.350000e+10 4.547090e-03 5.627154e-03 9.945139e-01 -4.469577e-02 9.944541e-01 -4.599358e-02 4.763525e-03 4.284656e-03
1.360000e+10 4.554170e-03 5.662381e-03 9.944936e-01 -4.501934e-02 9.944330e-01 -4.632672e-02 4.773650e-03 4.309588e-03
1.370000e+10 4.561203e-03 5.697568e-03 9.944732e-01 -4.534288e-02 9.944117e-01 -4.665982e-02 4.783750e-03 4.334476e-03
1.380000e+10 4.568190e-03 5.732716e-03 9.944528e-01 -4.566638e-02 9.943904e-01 -4.699289e-02 4.793823e-03 4.359321e-03
1.390000e+10 4.575132e-03 5.767826e-03 9.944323e-01 -4.598986e-02 9.943691e-01 -4.732593e-02 4.803871e-03 4.384124e-03
1.400000e+10 4.582028e-03 5.802899e-03 9.944118e-01 -4.631331e-02 9.943476e-01 -4.765894e-02 4.813894e-03 4.408886e-03
1.410000e+10 4.588878e-03 5.837937e-03 9.943912e-01 -4.663674e-02 9.943261e-01 -4.799193e-02 4.823891e-03 4.433609e-03
1.420000e+10 4.595684e-03 5.872941e-03 9.943706e-01 -4.696014e-02 9.943046e-01 -4.832489e-02 4.833863e-03 4.458293e-03
1.430000e+10 4.602444e-03 5.907913e-03 9.943499e-01 -4.728352e-02 9.942830e-01 -4.865783e-02 4.843811e-03 4.482941e-03
1.440000e+10 4.609160e-03 5.942852e-03 9.943291e-01 -4.760687e-02 9.942613e-01 -4.899075e-02 4.853734e-03 4.507553e-03
1.450000e+10 4.615832e-03 5.977761e-03 9.943083e-01 -4.793021e-02 9.942395e-01 -4.932364e-02 4.863634e-03 4.532131e-03
1.460000e+10 4.622460e-03 6.012641e-03 9.942874e-01 -4.825353e-02 9.942177e-01 -4.965652e-02 4.873510e-03 4.556675e-03
1.470000e+10 4.629045e-03 6.047492e-03 9.942664e-01 -4.857683e-02 9.941958e-01 -4.998938e-02 4.883362e-03 4.581187e-03
1.480000e+10 4.635586e-03 6.082316e-03 9.942454e-01 -4.890011e-02 9.941739e-01 -5.032223e-02 4.893192e-03 4.605668e-03
1.490000e+10 4.642085e-03 6.117113e-03 9.942244e-01 -4.922338e-02 9.941518e-01 -5.065506e-02 4.903000e-03 4.630118e-03
1.500000e+10 4.648542e-03 6.151886e-03 9.942032e-01 -4.954663e-02 9.941297e-01 -5.098787e-02 4.912785e-03 4.654540e-03
1.510000e+10 4.654956e-03 6.186634e-03 9.941820e-01 -4.986987e-02 9.941076e-01 -5.132067e-02 4.922549e-03 4.678934e-03
1.520000e+10 4.661330e-03 6.221360e-03 9.941608e-01 -5.019310e-02 9.940853e-01 -5.165346e-02 4.932292e-03 4.703301e-03
1.530000e+10 4.667662e-03 6.256063e-03 9.941394e-01 -5.051631e-02 9.940630e-01 -5.198623e-02 4.942014e-03 4.727642e-03
1.540000e+10 4.673954e-03 6.290745e-03 9.941180e-01 -5.083952e-02 9.940406e-01 -5.231900e-02 4.951716e-03 4.751958e-03
1.550000e+10 4.680206e-03 6.325406e-03 9.940966e-01 -5.116272e-02 9.940181e-01 -5.265176e-02 4.961398e-03 4.776250e-03
1.560000e+10 4.686419e-03 6.360048e-03 9.940750e-01 -5.148591e-02 9.939956e-01 -5.298450e-02 4.971061e-03 4.800518e-03
1.570000e+10 4.692592e-03 6.394672e-03 9.940534e-01 -5.180909e-02 9.939730e-01 -5.331724e-02 4.980706e-03 4.824765e-03
1.580000e+10 4.698728e-03 6.429277e-03 9.940318e-01 -5.213226e-02 9.939503e-01 -5.364998e-02 4.990332e-03 4.848990e-03
1.590000e+10 4.704825e-03 6.463866e-03 9.940100e-01 -5.245543e-02 9.939275e-01 -5.398270e-02 4.999941e-03 4.873194e-03
1.600000e+10 4.710885e-03 6.498439e-03 9.939882e-01 -5.277859e-02 9.939047e-01 -5.431542e-02 5.009532e-03 4.897379e-03
1.610000e+10 4.716908e-03 6.532997e-03 9.939663e-01 -5.310175e-02 9.938817e-01 -5.464814e-02 5.019107e-03 4.921545e-03
1.620000e+10 4.722894e-03 6.567540e-03 9.939443e-01 -5.342491e-02 9.938587e-01 -5.498085e-02 5.028667e-03 4.945693e-03
1.630000e+10 4.728845e-03 6.602069e-03 9.939223e-01 -5.374806e-02 9.938356e-01 -5.531356e-02 5.038210e-03 4.969823e-03
1.640000e+10 4.734761e-03 6.636585e-03 9.939002e-01 -5.407120e-02 9.938124e-01 -5.564627e-02 5.047739e-03 4.993936e-03
1.650000e+10 4.740642e-03 6.671088e-03 9.938780e-01 -5.439435e-02 9.937892e-01 -5.597897e-02 5.057254e-03 5.018034e-03
