#   Hz   S  RI   R   50
!
0.000000e+00 6.859084e-03 0.000000e+00 9.931560e-01 0.000000e+00 9.931626e-01 0.000000e+00 6.856418e-03 0.000000e+00
1.000000e+08 6.859366e-03 3.712737e-05 9.931554e-01 -7.746279e-04 9.931620e-01 -7.749638e-04 6.856716e-03 3.658082e-05
2.000000e+08 6.860211e-03 7.424110e-05 9.931536e-01 -1.549237e-03 9.931601e-01 -1.549908e-03 6.857612e-03 7.314811e-05
3.000000e+08 6.861619e-03 1.113275e-04 9.931506e-01 -2.323810e-03 9.931571e-01 -2.324814e-03 6.859103e-03 1.096883e-04
4.000000e+08 6.863588e-03 1.483731e-04 9.931464e-01 -3.098326e-03 9.931528e-01 -3.099663e-03 6.861190e-03 1.461880e-04
5.000000e+08 6.866118e-03 1.853642e-04 9.931409e-01 -3.872769e-03 9.931473e-01 -3.874435e-03 6.863871e-03 1.826337e-04
6.000000e+08 6.869207e-03 2.222874e-04 9.931343e-01 -4.647120e-03 9.931406e-01 -4.649111e-03 6.867144e-03 2.190120e-04
7.000000e+08 6.872851e-03 2.591292e-04 9.931264e-01 -5.421359e-03 9.931327e-01 -5.423673e-03 6.871006e-03 2.553095e-04
8.000000e+08 6.877049e-03 2.958763e-04 9.931174e-01 -6.195471e-03 9.931235e-01 -6.198102e-03 6.875455e-03 2.915131e-04
9.000000e+08 6.881797e-03 3.325155e-04 9.931072e-01 -6.969435e-03 9.931132e-01 -6.972378e-03 6.880489e-03 3.276097e-04
1.000000e+09 6.887091e-03 3.690337e-04 9.930958e-01 -7.743236e-03 9.931016e-01 -7.746485e-03 6.886103e-03 3.635861e-04
1.100000e+09 6.892929e-03 4.054178e-04 9.930832e-01 -8.516854e-03 9.930889e-01 -8.520403e-03 6.892294e-03 3.994295e-04
1.200000e+09 6.899305e-03 4.416551e-04 9.930694e-01 -9.290274e-03 9.930750e-01 -9.294115e-03 6.899057e-03 4.351272e-04
1.300000e+09 6.906215e-03 4.777328e-04 9.930545e-01 -1.006348e-02 9.930599e-01 -1.006760e-02 6.906388e-03 4.706665e-04
1.400000e+09 6.913653e-03 5.136385e-04 9.930384e-01 -1.083645e-02 9.930436e-01 -1.084085e-02 6.914282e-03 5.060351e-04
1.500000e+09 6.921615e-03 5.493599e-04 9.930211e-01 -1.160917e-02 9.930262e-01 -1.161384e-02 6.922734e-03 5.412206e-04
1.600000e+09 6.930095e-03 5.848848e-04 9.930027e-01 -1.238162e-02 9.930076e-01 -1.238655e-02 6.931738e-03 5.762111e-04
1.700000e+09 6.939086e-03 6.202013e-04 9.929832e-01 -1.315379e-02 9.929878e-01 -1.315898e-02 6.941288e-03 6.109945e-04
1.800000e+09 6.948582e-03 6.552977e-04 9.929625e-01 -1.392567e-02 9.929669e-01 -1.393109e-02 6.951377e-03 6.455594e-04
1.900000e+09 6.958576e-03 6.901626e-04 9.929407e-01 -1.469723e-02 9.929449e-01 -1.470288e-02 6.962000e-03 6.798943e-04
2.000000e+09 6.969061e-03 7.247847e-04 9.929178e-01 -1.546847e-02 9.929218e-01 -1.547433e-02 6.973148e-03 7.139880e-04
2.100000e+09 6.980030e-03 7.591532e-04 9.928938e-01 -1.623936e-02 9.928975e-01 -1.624543e-02 6.984815e-03 7.478295e-04
2.200000e+09 6.991474e-03 7.932573e-04 9.928687e-01 -1.700990e-02 9.928722e-01 -1.701616e-02 6.996992e-03 7.814082e-04
2.300000e+09 7.003386e-03 8.270865e-04 9.928426e-01 -1.778007e-02 9.928458e-01 -1.778651e-02 7.009673e-03 8.147137e-04
2.400000e+09 7.015757e-03 8.606309e-04 9.928153e-01 -1.854985e-02 9.928183e-01 -1.855647e-02 7.022849e-03 8.477359e-04
2.500000e+09 7.028579e-03 8.938804e-04 9.927870e-01 -1.931924e-02 9.927897e-01 -1.932601e-02 7.036511e-03 8.804648e-04
2.600000e+09 7.041843e-03 9.268257e-04 9.927577e-01 -2.008822e-02 9.927601e-01 -2.009513e-02 7.050650e-03 9.128909e-04
2.700000e+09 7.055539e-03 9.594574e-04 9.927273e-01 -2.085678e-02 9.927294e-01 -2.086382e-02 7.065259e-03 9.450049e-04
2.800000e+09 7.069659e-03 9.917666e-04 9.926959e-01 -2.162490e-02 9.926977e-01 -2.163207e-02 7.080326e-03 9.767980e-04
2.900000e+09 7.084192e-03 1.023745e-03 9.926635e-01 -2.239259e-02 9.926651e-01 -2.239986e-02 7.095844e-03 1.008261e-03
3.000000e+09 7.099129e-03 1.055384e-03 9.926301e-01 -2.315982e-02 9.926314e-01 -2.316718e-02 7.111802e-03 1.039387e-03
3.100000e+09 7.114461e-03 1.086675e-03 9.925958e-01 -2.392659e-02 9.925967e-01 -2.393402e-02 7.128190e-03 1.070166e-03
3.200000e+09 7.130175e-03 1.117612e-03 9.925604e-01 -2.469289e-02 9.925611e-01 -2.470038e-02 7.145000e-03 1.100592e-03
3.300000e+09 7.146263e-03 1.148186e-03 9.925242e-01 -2.545870e-02 9.925245e-01 -2.546624e-02 7.162219e-03 1.130656e-03
3.400000e+09 7.162714e-03 1.178392e-03 9.924869e-01 -2.622402e-02 9.924870e-01 -2.623160e-02 7.179838e-03 1.160353e-03
3.500000e+09 7.179517e-03 1.208222e-03 9.924488e-01 -2.698885e-02 9.924485e-01 -2.699644e-02 7.197847e-03 1.189675e-03
3.600000e+09 7.196662e-03 1.237670e-03 9.924097e-01 -2.775317e-02 9.924092e-01 -2.776077e-02 7.216234e-03 1.218616e-03
3.700000e+09 7.214137e-03 1.266731e-03 9.923698e-01 -2.851698e-02 9.923689e-01 -2.852457e-02 7.234990e-03 1.247169e-03
3.800000e+09 7.231931e-03 1.295398e-03 9.923289e-01 -2.928027e-02 9.923278e-01 -2.928784e-02 7.254102e-03 1.275331e-03
3.900000e+09 7.250033e-03 1.323667e-03 9.922872e-01 -3.004303e-02 9.922858e-01 -3.005056e-02 7.273561e-03 1.303094e-03
4.000000e+09 7.268433e-03 1.351533e-03 9.922447e-01 -3.080527e-02 9.922430e-01 -3.081275e-02 7.293355e-03 1.330454e-03
4.100000e+09 7.287118e-03 1.378992e-03 9.922013e-01 -3.156697e-02 9.921993e-01 -3.157438e-02 7.313472e-03 1.357407e-03
4.200000e+09 7.306077e-03 1.406039e-03 9.921571e-01 -3.232813e-02 9.921548e-01 -3.233547e-02 7.333903e-03 1.383948e-03
4.300000e+09 7.325300e-03 1.432671e-03 9.921121e-01 -3.308874e-02 9.921095e-01 -3.309599e-02 7.354634e-03 1.410073e-03
4.400000e+09 7.344774e-03 1.458885e-03 9.920663e-01 -3.384882e-02 9.920634e-01 -3.385596e-02 7.375657e-03 1.435780e-03
4.500000e+09 7.364489e-03 1.484676e-03 9.920197e-01 -3.460834e-02 9.920166e-01 -3.461537e-02 7.396957e-03 1.461064e-03
4.600000e+09 7.384432e-03 1.510044e-03 9.919723e-01 -3.536731e-02 9.919690e-01 -3.537421e-02 7.418526e-03 1.485922e-03
4.700000e+09 7.404593e-03 1.534985e-03 9.919242e-01 -3.612573e-02 9.919206e-01 -3.613249e-02 7.440351e-03 1.510353e-03
4.800000e+09 7.424960e-03 1.559498e-03 9.918754e-01 -3.688359e-02 9.918715e-01 -3.689020e-02 7.462421e-03 1.534355e-03
4.900000e+09 7.445521e-03 1.583580e-03 9.918258e-01 -3.764090e-02 9.918218e-01 -3.764734e-02 7.484724e-03 1.557924e-03
5.000000e+09 7.466266e-03 1.607232e-03 9.917756e-01 -3.839765e-02 9.917713e-01 -3.840392e-02 7.507250e-03 1.581060e-03
5.100000e+09 7.487182e-03 1.630451e-03 9.917246e-01 -3.915385e-02 9.917201e-01 -3.915994e-02 7.529987e-03 1.603762e-03
5.200000e+09 7.508260e-03 1.653237e-03 9.916730e-01 -3.990949e-02 9.916683e-01 -3.991539e-02 7.552924e-03 1.626029e-03
5.300000e+09 7.529487e-03 1.675591e-03 9.916207e-01 -4.066458e-02 9.916158e-01 -4.067027e-02 7.576051e-03 1.647860e-03
5.400000e+09 7.550853e-03 1.697511e-03 9.915678e-01 -4.141911e-02 9.915626e-01 -4.142460e-02 7.599355e-03 1.669255e-03
5.500000e+09 7.572346e-03 1.718998e-03 9.915142e-01 -4.217310e-02 9.915089e-01 -4.217836e-02 7.622826e-03 1.690214e-03
5.600000e+09 7.593956e-03 1.740054e-03 9.914600e-01 -4.292654e-02 9.914545e-01 -4.293157e-02 7.646454e-03 1.710737e-03
5.700000e+09 7.615673e-03 1.760679e-03 9.914052e-01 -4.367943e-02 9.913996e-01 -4.368423e-02 7.670227e-03 1.730826e-03
5.800000e+09 7.637484e-03 1.780873e-03 9.913498e-01 -4.443179e-02 9.913440e-01 -4.443634e-02 7.694136e-03 1.750481e-03
5.900000e+09 7.659381e-03 1.800640e-03 9.912938e-01 -4.518360e-02 9.912879e-01 -4.518790e-02 7.718169e-03 1.769704e-03
6.000000e+09 7.681353e-03 1.819980e-03 9.912372e-01 -4.593488e-02 9.912312e-01 -4.593893e-02 7.742316e-03 1.788495e-03
6.100000e+09 7.703389e-03 1.838896e-03 9.911801e-01 -4.668563e-02 9.911740e-01 -4.668941e-02 7.766567e-03 1.806858e-03
6.200000e+09 7.725479e-03 1.857390e-03 9.911224e-01 -4.743586e-02 9.911162e-01 -4.743937e-02 7.790912e-03 1.824793e-03
6.300000e+09 7.747614e-03 1.875465e-03 9.910642e-01 -4.818556e-02 9.910579e-01 -4.818881e-02 7.815341e-03 1.842304e-03
6.400000e+09 7.769784e-03 1.893124e-03 9.910055e-01 -4.893475e-02 9.909991e-01 -4.893772e-02 7.839844e-03 1.859392e-03
6.500000e+09 7.791979e-03 1.910369e-03 9.909462e-01 -4.968343e-02 9.909398e-01 -4.968612e-02 7.864412e-03 1.876061e-03
6.600000e+09 7.814190e-03 1.927204e-03 9.908865e-01 -5.043161e-02 9.908800e-01 -5.043402e-02 7.889035e-03 1.892314e-03
6.700000e+09 7.836407e-03 1.943633e-03 9.908262e-01 -5.117929e-02 9.908197e-01 -5.118142e-02 7.913704e-03 1.908154e-03
6.800000e+09 7.858623e-03 1.959660e-03 9.907655e-01 -5.192648e-02 9.907590e-01 -5.192832e-02 7.938411e-03 1.923584e-03
6.900000e+09 7.880828e-03 1.975288e-03 9.907043e-01 -5.267319e-02 9.906978e-01 -5.267474e-02 7.963145e-03 1.938609e-03
7.000000e+09 7.903013e-03 1.990521e-03 9.906426e-01 -5.341941e-02 9.906361e-01 -5.342069e-02 7.987899e-03 1.953232e-03
7.100000e+09 7.925170e-03 2.005365e-03 9.905805e-01 -5.416517e-02 9.905740e-01 -5.416616e-02 8.012664e-03 1.967458e-03
7.200000e+09 7.947292e-03 2.019824e-03 9.905180e-01 -5.491047e-02 9.905115e-01 -5.491117e-02 8.037432e-03 1.981290e-03
7.300000e+09 7.969369e-03 2.033902e-03 9.904550e-01 -5.565531e-02 9.904485e-01 -5.565573e-02 8.062195e-03 1.994733e-03
7.400000e+09 7.991395e-03 2.047604e-03 9.903915e-01 -5.639971e-02 9.903852e-01 -5.639985e-02 8.086945e-03 2.007791e-03
7.500000e+09 8.013362e-03 2.060936e-03 9.903277e-01 -5.714367e-02 9.903214e-01 -5.714352e-02 8.111674e-03 2.020470e-03
7.600000e+09 8.035262e-03 2.073902e-03 9.902634e-01 -5.788719e-02 9.902572e-01 -5.788677e-02 8.136374e-03 2.032775e-03
7.700000e+09 8.057089e-03 2.086509e-03 9.901987e-01 -5.863029e-02 9.901926e-01 -5.862960e-02 8.161040e-03 2.044710e-03
7.800000e+09 8.078835e-03 2.098761e-03 9.901337e-01 -5.937298e-02 9.901276e-01 -5.937202e-02 8.185663e-03 2.056282e-03
7.900000e+09 8.100495e-03 2.110664e-03 9.900682e-01 -6.011527e-02 9.900623e-01 -6.011404e-02 8.210237e-03 2.067494e-03
8.000000e+09 8.122061e-03 2.122224e-03 9.900023e-01 -6.085715e-02 9.899965e-01 -6.085567e-02 8.234756e-03 2.078353e-03
8.100000e+09 8.143528e-03 2.133447e-03 9.899361e-01 -6.159865e-02 9.899304e-01 -6.159691e-02 8.259213e-03 2.088864e-03
8.200000e+09 8.164890e-03 2.144339e-03 9.898695e-01 -6.233977e-02 9.898640e-01 -6.233778e-02 8.283602e-03 2.099032e-03
8.300000e+09 8.186141e-03 2.154905e-03 9.898025e-01 -6.308052e-02 9.897971e-01 -6.307829e-02 8.307917e-03 2.108865e-03
8.400000e+09 8.207276e-03 2.165152e-03 9.897351e-01 -6.382090e-02 9.897299e-01 -6.381844e-02 8.332153e-03 2.118367e-03
8.500000e+09 8.228289e-03 2.175086e-03 9.896674e-01 -6.456093e-02 9.896624e-01 -6.455825e-02 8.356303e-03 2.127544e-03
8.600000e+09 8.249176e-03 2.184712e-03 9.895993e-01 -6.530062e-02 9.895945e-01 -6.529771e-02 8.380364e-03 2.136403e-03
8.700000e+09 8.269931e-03 2.194039e-03 9.895309e-01 -6.603998e-02 9.895263e-01 -6.603685e-02 8.404330e-03 2.144950e-03
8.800000e+09 8.290551e-03 2.203071e-03 9.894621e-01 -6.677900e-02 9.894577e-01 -6.677568e-02 8.428196e-03 2.153190e-03
8.900000e+09 8.311030e-03 2.211815e-03 9.893929e-01 -6.751771e-02 9.893887e-01 -6.751419e-02 8.451958e-03 2.161130e-03
9.000000e+09 8.331366e-03 2.220278e-03 9.893234e-01 -6.825611e-02 9.893195e-01 -6.825240e-02 8.475612e-03 2.168775e-03
9.100000e+09 8.351554e-03 2.228466e-03 9.892536e-01 -6.899421e-02 9.892498e-01 -6.899033e-02 8.499153e-03 2.176134e-03
9.200000e+09 8.371590e-03 2.236385e-03 9.891834e-01 -6.973202e-02 9.891799e-01 -6.972797e-02 8.522578e-03 2.183210e-03
9.300000e+09 8.391471e-03 2.244042e-03 9.891129e-01 -7.046955e-02 9.891096e-01 -7.046534e-02 8.545882e-03 2.190011e-03
9.400000e+09 8.411194e-03 2.251444e-03 9.890420e-01 -7.120680e-02 9.890390e-01 -7.120244e-02 8.569064e-03 2.196544e-03
9.500000e+09 8.430756e-03 2.258596e-03 9.889708e-01 -7.194379e-02 9.889680e-01 -7.193929e-02 8.592118e-03 2.202814e-03
9.600000e+09 8.450155e-03 2.265505e-03 9.888992e-01 -7.268052e-02 9.888967e-01 -7.267590e-02 8.615044e-03 2.208827e-03
9.700000e+09 8.469387e-03 2.272178e-03 9.888274e-01 -7.341700e-02 9.888251e-01 -7.341226e-02 8.637836e-03 2.214590e-03
9.800000e+09 8.488450e-03 2.278622e-03 9.887551e-01 -7.415324e-02 9.887532e-01 -7.414840e-02 8.660494e-03 2.220110e-03
9.900000e+09 8.507343e-03 2.284841e-03 9.886826e-01 -7.488926e-02 9.886809e-01 -7.488432e-02 8.683014e-03 2.225392e-03
1.000000e+10 8.526063e-03 2.290844e-03 9.886097e-01 -7.562504e-02 9.886082e-01 -7.562002e-02 8.705395e-03 2.230442e-03
1.010000e+10 8.544609e-03 2.296635e-03 9.885364e-01 -7.636061e-02 9.885353e-01 -7.635552e-02 8.727635e-03 2.235268e-03
1.020000e+10 8.562979e-03 2.302222e-03 9.884628e-01 -7.709598e-02 9.884620e-01 -7.709083e-02 8.749731e-03 2.239875e-03
1.030000e+10 8.581171e-03 2.307610e-03 9.883889e-01 -7.783114e-02 9.883883e-01 -7.782594e-02 8.771682e-03 2.244268e-03
1.040000e+10 8.599185e-03 2.312807e-03 9.883147e-01 -7.856611e-02 9.883143e-01 -7.856087e-02 8.793487e-03 2.248455e-03
1.050000e+10 8.617019e-03 2.317817e-03 9.882401e-01 -7.930089e-02 9.882400e-01 -7.929563e-02 8.815144e-03 2.252441e-03
1.060000e+10 8.634674e-03 2.322647e-03 9.881651e-01 -8.003550e-02 9.881653e-01 -8.003022e-02 8.836653e-03 2.256233e-03
1.070000e+10 8.652147e-03 2.327302e-03 9.880898e-01 -8.076993e-02 9.880903e-01 -8.076465e-02 8.858012e-03 2.259835e-03
1.080000e+10 8.669439e-03 2.331790e-03 9.880142e-01 -8.150420e-02 9.880149e-01 -8.149892e-02 8.879220e-03 2.263255e-03
1.090000e+10 8.686549e-03 2.336115e-03 9.879382e-01 -8.223831e-02 9.879392e-01 -8.223305e-02 8.900278e-03 2.266497e-03
1.100000e+10 8.703477e-03 2.340283e-03 9.878618e-01 -8.297227e-02 9.878631e-01 -8.296704e-02 8.921185e-03 2.269568e-03
1.110000e+10 8.720224e-03 2.344301e-03 9.877851e-01 -8.370609e-02 9.877867e-01 -8.370090e-02 8.941940e-03 2.272472e-03
1.120000e+10 8.736789e-03 2.348173e-03 9.877080e-01 -8.443976e-02 9.877099e-01 -8.443463e-02 8.962544e-03 2.275216e-03
1.130000e+10 8.753172e-03 2.351905e-03 9.876306e-01 -8.517331e-02 9.876327e-01 -8.516823e-02 8.982996e-03 2.277806e-03
1.140000e+10 8.769375e-03 2.355502e-03 9.875528e-01 -8.590672e-02 9.875552e-01 -8.590172e-02 9.003297e-03 2.280245e-03
1.150000e+10 8.785397e-03 2.358970e-03 9.874746e-01 -8.664001e-02 9.874773e-01 -8.663509e-02 9.023446e-03 2.282540e-03
1.160000e+10 8.801239e-03 2.362314e-03 9.873961e-01 -8.737319e-02 9.873990e-01 -8.736836e-02 9.043445e-03 2.284697e-03
1.170000e+10 8.816902e-03 2.365538e-03 9.873172e-01 -8.810625e-02 9.873203e-01 -8.810153e-02 9.063295e-03 2.286719e-03
1.180000e+10 8.832388e-03 2.368649e-03 9.872379e-01 -8.883921e-02 9.872413e-01 -8.883460e-02 9.082994e-03 2.288612e-03
1.190000e+10 8.847697e-03 2.371651e-03 9.871582e-01 -8.957207e-02 9.871619e-01 -8.956758e-02 9.102546e-03 2.290381e-03
1.200000e+10 8.862829e-03 2.374548e-03 9.870781e-01 -9.030482e-02 9.870820e-01 -9.030047e-02 9.121950e-03 2.292031e-03
1.210000e+10 8.877788e-03 2.377345e-03 9.869977e-01 -9.103749e-02 9.870018e-01 -9.103327e-02 9.141207e-03 2.293566e-03
1.220000e+10 8.892573e-03 2.380048e-03 9.869169e-01 -9.177006e-02 9.869212e-01 -9.176600e-02 9.160320e-03 2.294991e-03
1.230000e+10 8.907187e-03 2.382659e-03 9.868356e-01 -9.250256e-02 9.868401e-01 -9.249865e-02 9.179288e-03 2.296310e-03
1.240000e+10 8.921631e-03 2.385184e-03 9.867540e-01 -9.323497e-02 9.867587e-01 -9.323122e-02 9.198113e-03 2.297529e-03
1.250000e+10 8.935906e-03 2.387627e-03 9.866719e-01 -9.396730e-02 9.866769e-01 -9.396373e-02 9.216798e-03 2.298650e-03
1.260000e+10 8.950015e-03 2.389992e-03 9.865895e-01 -9.469955e-02 9.865946e-01 -9.469616e-02 9.235343e-03 2.299679e-03
1.270000e+10 8.963958e-03 2.392282e-03 9.865066e-01 -9.543174e-02 9.865119e-01 -9.542854e-02 9.253750e-03 2.300619e-03
1.280000e+10 8.977739e-03 2.394503e-03 9.864233e-01 -9.616386e-02 9.864288e-01 -9.616085e-02 9.272020e-03 2.301474e-03
1.290000e+10 8.991359e-03 2.396657e-03 9.863396e-01 -9.689591e-02 9.863452e-01 -9.689310e-02 9.290156e-03 2.302249e-03
1.300000e+10 9.004820e-03 2.398748e-03 9.862555e-01 -9.762789e-02 9.862612e-01 -9.762529e-02 9.308159e-03 2.302946e-03
1.310000e+10 9.018124e-03 2.400779e-03 9.861709e-01 -9.835982e-02 9.861768e-01 -9.835743e-02 9.326032e-03 2.303569e-03
1.320000e+10 9.031273e-03 2.402755e-03 9.860859e-01 -9.909169e-02 9.860919e-01 -9.908951e-02 9.343775e-03 2.304123e-03
1.330000e+10 9.044269e-03 2.404678e-03 9.860005e-01 -9.982350e-02 9.860066e-01 -9.982154e-02 9.361392e-03 2.304610e-03
1.340000e+10 9.057115e-03 2.406551e-03 9.859146e-01 -1.005553e-01 9.859209e-01 -1.005535e-01 9.378884e-03 2.305033e-03
1.350000e+10 9.069813e-03 2.408378e-03 9.858283e-01 -1.012870e-01 9.858346e-01 -1.012854e-01 9.396254e-03 2.305396e-03
1.360000e+10 9.082365e-03 2.410162e-03 9.857415e-01 -1.020186e-01 9.857479e-01 -1.020173e-01 9.413503e-03 2.305702e-03
1.370000e+10 9.094774e-03 2.411905e-03 9.856542e-01 -1.027502e-01 9.856608e-01 -1.027492e-01 9.430635e-03 2.305954e-03
1.380000e+10 9.107041e-03 2.413610e-03 9.855666e-01 -1.034817e-01 9.855732e-01 -1.034809e-01 9.447650e-03 2.306154e-03
1.390000e+10 9.119170e-03 2.415279e-03 9.854784e-01 -1.042132e-01 9.854851e-01 -1.042127e-01 9.464551e-03 2.306305e-03
1.400000e+10 9.131162e-03 2.416915e-03 9.853898e-01 -1.049447e-01 9.853965e-01 -1.049444e-01 9.481342e-03 2.306410e-03
1.410000e+10 9.143021e-03 2.418521e-03 9.853007e-01 -1.056761e-01 9.853075e-01 -1.056760e-01 9.498023e-03 2.306471e-03
1.420000e+10 9.154748e-03 2.420099e-03 9.852111e-01 -1.064075e-01 9.852179e-01 -1.064076e-01 9.514598e-03 2.306491e-03
1.430000e+10 9.166346e-03 2.421650e-03 9.851211e-01 -1.071388e-01 9.851279e-01 -1.071392e-01 9.531069e-03 2.306472e-03
1.440000e+10 9.177818e-03 2.423178e-03 9.850306e-01 -1.078700e-01 9.850374e-01 -1.078707e-01 9.547438e-03 2.306416e-03
1.450000e+10 9.189166e-03 2.424683e-03 9.849395e-01 -1.086012e-01 9.849463e-01 -1.086021e-01 9.563708e-03 2.306325e-03
1.460000e+10 9.200393e-03 2.426168e-03 9.848480e-01 -1.093324e-01 9.848548e-01 -1.093335e-01 9.579880e-03 2.306202e-03
1.470000e+10 9.211500e-03 2.427634e-03 9.847560e-01 -1.100635e-01 9.847628e-01 -1.100649e-01 9.595959e-03 2.306047e-03
1.480000e+10 9.222491e-03 2.429083e-03 9.846636e-01 -1.107946e-01 9.846703e-01 -1.107962e-01 9.611945e-03 2.305863e-03
1.490000e+10 9.233368e-03 2.430517e-03 9.845706e-01 -1.115256e-01 9.845773e-01 -1.115274e-01 9.627841e-03 2.305651e-03
1.500000e+10 9.244133e-03 2.431937e-03 9.844771e-01 -1.122566e-01 9.844837e-01 -1.122586e-01 9.643651e-03 2.305413e-03
1.510000e+10 9.254789e-03 2.433344e-03 9.843831e-01 -1.129875e-01 9.843896e-01 -1.129898e-01 9.659375e-03 2.305151e-03
1.520000e+10 9.265339e-03 2.434740e-03 9.842886e-01 -1.137183e-01 9.842951e-01 -1.137209e-01 9.675017e-03 2.304865e-03
1.530000e+10 9.275784e-03 2.436125e-03 9.841936e-01 -1.144492e-01 9.842000e-01 -1.144519e-01 9.690580e-03 2.304558e-03
1.540000e+10 9.286128e-03 2.437501e-03 9.840980e-01 -1.151799e-01 9.841043e-01 -1.151829e-01 9.706064e-03 2.304229e-03
1.550000e+10 9.296371e-03 2.438869e-03 9.840020e-01 -1.159106e-01 9.840082e-01 -1.159138e-01 9.721474e-03 2.303881e-03
1.560000e+10 9.306518e-03 2.440229e-03 9.839054e-01 -1.166413e-01 9.839115e-01 -1.166447e-01 9.736811e-03 2.303514e-03
1.570000e+10 9.316570e-03 2.441583e-03 9.838083e-01 -1.173719e-01 9.838143e-01 -1.173755e-01 9.752077e-03 2.303130e-03
1.580000e+10 9.326529e-03 2.442931e-03 9.837107e-01 -1.181024e-01 9.837165e-01 -1.181062e-01 9.767275e-03 2.302728e-03
1.590000e+10 9.336398e-03 2.444274e-03 9.836126e-01 -1.188329e-01 9.836183e-01 -1.188369e-01 9.782407e-03 2.302310e-03
1.600000e+10 9.346179e-03 2.445613e-03 9.835139e-01 -1.195633e-01 9.835194e-01 -1.195674e-01 9.797476e-03 2.301877e-03
1.610000e+10 9.355874e-03 2.446947e-03 9.834147e-01 -1.202936e-01 9.834201e-01 -1.202980e-01 9.812483e-03 2.301429e-03
1.620000e+10 9.365485e-03 2.448277e-03 9.833150e-01 -1.210239e-01 9.833202e-01 -1.210284e-01 9.827431e-03 2.300966e-03
1.630000e+10 9.375015e-03 2.449604e-03 9.832147e-01 -1.217541e-01 9.832197e-01 -1.217588e-01 9.842322e-03 2.300490e-03
1.640000e+10 9.384465e-03 2.450928e-03 9.831139e-01 -1.224842e-01 9.831188e-01 -1.224891e-01 9.857158e-03 2.300000e-03
1.650000e+10 9.393838e-03 2.452250e-03 9.830125e-01 -1.232143e-01 9.830172e-01 -1.232193e-01 9.871941e-03 2.299497e-03
