#   Hz   S  RI   R   50
!
0.000000e+00 8.781019e-03 0.000000e+00 9.914465e-01 0.000000e+00 9.914440e-01 0.000000e+00 8.774789e-03 0.000000e+00
1.000000e+08 8.782603e-03 1.063998e-05 9.914414e-01 -2.575040e-03 9.914389e-01 -2.576982e-03 8.776382e-03 7.790531e-06
2.000000e+08 8.787353e-03 2.117437e-05 9.914260e-01 -5.149936e-03 9.914235e-01 -5.153819e-03 8.781160e-03 1.547546e-05
3.000000e+08 8.795262e-03 3.149771e-05 9.914005e-01 -7.724543e-03 9.913979e-01 -7.730368e-03 8.789117e-03 2.294931e-05
4.000000e+08 8.806323e-03 4.150483e-05 9.913648e-01 -1.029872e-02 9.913622e-01 -1.030648e-02 8.800244e-03 3.010692e-05
5.000000e+08 8.820522e-03 5.109098e-05 9.913189e-01 -1.287232e-02 9.913162e-01 -1.288202e-02 8.814529e-03 3.684350e-05
6.000000e+08 8.837843e-03 6.015194e-05 9.912628e-01 -1.544520e-02 9.912600e-01 -1.545684e-02 8.831955e-03 4.305485e-05
7.000000e+08 8.858267e-03 6.858423e-05 9.911966e-01 -1.801723e-02 9.911937e-01 -1.803081e-02 8.852503e-03 4.863744e-05
8.000000e+08 8.881770e-03 7.628517e-05 9.911203e-01 -2.058825e-02 9.911173e-01 -2.060377e-02 8.876149e-03 5.348859e-05
9.000000e+08 8.908326e-03 8.315304e-05 9.910339e-01 -2.315814e-02 9.910308e-01 -2.317559e-02 8.902867e-03 5.750657e-05
1.000000e+09 8.937903e-03 8.908723e-05 9.909375e-01 -2.572675e-02 9.909343e-01 -2.574613e-02 8.932625e-03 6.059075e-05
1.100000e+09 8.970469e-03 9.398834e-05 9.908312e-01 -2.829395e-02 9.908277e-01 -2.831525e-02 8.965392e-03 6.264170e-05
1.200000e+09 9.005987e-03 9.775834e-05 9.907148e-01 -3.085960e-02 9.907112e-01 -3.088283e-02 9.001129e-03 6.356138e-05
1.300000e+09 9.044415e-03 1.003007e-04 9.905886e-01 -3.342358e-02 9.905848e-01 -3.344873e-02 9.039796e-03 6.325318e-05
1.400000e+09 9.085712e-03 1.015203e-04 9.904526e-01 -3.598574e-02 9.904486e-01 -3.601282e-02 9.081351e-03 6.162212e-05
1.500000e+09 9.129830e-03 1.013241e-04 9.903067e-01 -3.854598e-02 9.903025e-01 -3.857497e-02 9.125746e-03 5.857491e-05
1.600000e+09 9.176720e-03 9.962061e-05 9.901512e-01 -4.110415e-02 9.901468e-01 -4.113505e-02 9.172932e-03 5.402011e-05
1.700000e+09 9.226329e-03 9.632029e-05 9.899860e-01 -4.366013e-02 9.899813e-01 -4.369294e-02 9.222857e-03 4.786820e-05
1.800000e+09 9.278601e-03 9.133576e-05 9.898112e-01 -4.621381e-02 9.898063e-01 -4.624853e-02 9.275465e-03 4.003170e-05
1.900000e+09 9.333479e-03 8.458171e-05 9.896270e-01 -4.876507e-02 9.896218e-01 -4.880169e-02 9.330697e-03 3.042529e-05
2.000000e+09 9.390901e-03 7.597514e-05 9.894333e-01 -5.131380e-02 9.894278e-01 -5.135232e-02 9.388493e-03 1.896590e-05
2.100000e+09 9.450803e-03 6.543534e-05 9.892303e-01 -5.385988e-02 9.892245e-01 -5.390029e-02 9.448789e-03 5.572787e-06
2.200000e+09 9.513120e-03 5.288408e-05 9.890180e-01 -5.640320e-02 9.890119e-01 -5.644550e-02 9.511519e-03 -9.832354e-06
2.300000e+09 9.577783e-03 3.824560e-05 9.887965e-01 -5.894367e-02 9.887901e-01 -5.898785e-02 9.576615e-03 -2.732532e-05
2.400000e+09 9.644721e-03 2.144678e-05 9.885660e-01 -6.148117e-02 9.885592e-01 -6.152723e-02 9.644005e-03 -4.697930e-05
2.500000e+09 9.713862e-03 2.417157e-06 9.883264e-01 -6.401562e-02 9.883193e-01 -6.406355e-02 9.713617e-03 -6.886483e-05
2.600000e+09 9.785128e-03 -1.891099e-05 9.880780e-01 -6.654692e-02 9.880705e-01 -6.659671e-02 9.785375e-03 -9.304970e-05
2.700000e+09 9.858445e-03 -4.260258e-05 9.878207e-01 -6.907497e-02 9.878129e-01 -6.912662e-02 9.859203e-03 -1.195989e-04
2.800000e+09 9.933732e-03 -6.871963e-05 9.875548e-01 -7.159970e-02 9.875465e-01 -7.165320e-02 9.935021e-03 -1.485745e-04
2.900000e+09 1.001091e-02 -9.732128e-05 9.872803e-01 -7.412101e-02 9.872716e-01 -7.417637e-02 1.001275e-02 -1.800358e-04
3.000000e+09 1.008989e-02 -1.284637e-04 9.869972e-01 -7.663883e-02 9.869881e-01 -7.669603e-02 1.009230e-02 -2.140389e-04
3.100000e+09 1.017060e-02 -1.621999e-04 9.867058e-01 -7.915309e-02 9.866963e-01 -7.921213e-02 1.017360e-02 -2.506372e-04
3.200000e+09 1.025295e-02 -1.985801e-04 9.864061e-01 -8.166371e-02 9.863961e-01 -8.172458e-02 1.025656e-02 -2.898807e-04
3.300000e+09 1.033685e-02 -2.376512e-04 9.860982e-01 -8.417063e-02 9.860878e-01 -8.423332e-02 1.034109e-02 -3.318166e-04
3.400000e+09 1.042222e-02 -2.794572e-04 9.857822e-01 -8.667379e-02 9.857714e-01 -8.673829e-02 1.042711e-02 -3.764889e-04
3.500000e+09 1.050896e-02 -3.240386e-04 9.854583e-01 -8.917311e-02 9.854470e-01 -8.923943e-02 1.051452e-02 -4.239383e-04
3.600000e+09 1.059698e-02 -3.714331e-04 9.851266e-01 -9.166856e-02 9.851147e-01 -9.173668e-02 1.060323e-02 -4.742026e-04
3.700000e+09 1.068621e-02 -4.216752e-04 9.847870e-01 -9.416008e-02 9.847747e-01 -9.423000e-02 1.069317e-02 -5.273163e-04
3.800000e+09 1.077653e-02 -4.747960e-04 9.844399e-01 -9.664762e-02 9.844270e-01 -9.671933e-02 1.078423e-02 -5.833107e-04
3.900000e+09 1.086788e-02 -5.308236e-04 9.840853e-01 -9.913114e-02 9.840719e-01 -9.920463e-02 1.087632e-02 -6.422141e-04
4.000000e+09 1.096014e-02 -5.897828e-04 9.837232e-01 -1.016106e-01 9.837093e-01 -1.016859e-01 1.096935e-02 -7.040515e-04
4.100000e+09 1.105324e-02 -6.516955e-04 9.833539e-01 -1.040860e-01 9.833394e-01 -1.041630e-01 1.106324e-02 -7.688447e-04
4.200000e+09 1.114707e-02 -7.165801e-04 9.829773e-01 -1.065572e-01 9.829623e-01 -1.066360e-01 1.115788e-02 -8.366124e-04
4.300000e+09 1.124155e-02 -7.844521e-04 9.825938e-01 -1.090243e-01 9.825782e-01 -1.091049e-01 1.125319e-02 -9.073702e-04
4.400000e+09 1.133658e-02 -8.553237e-04 9.822032e-01 -1.114872e-01 9.821871e-01 -1.115695e-01 1.134908e-02 -9.811306e-04
4.500000e+09 1.143207e-02 -9.292043e-04 9.818059e-01 -1.139460e-01 9.817891e-01 -1.140300e-01 1.144544e-02 -1.057903e-03
4.600000e+09 1.152794e-02 -1.006100e-03 9.814018e-01 -1.164005e-01 9.813844e-01 -1.164863e-01 1.154220e-02 -1.137694e-03
4.700000e+09 1.162408e-02 -1.086014e-03 9.809910e-01 -1.188508e-01 9.809731e-01 -1.189383e-01 1.163925e-02 -1.220506e-03
4.800000e+09 1.172041e-02 -1.168946e-03 9.805738e-01 -1.212969e-01 9.805553e-01 -1.213861e-01 1.173652e-02 -1.306340e-03
4.900000e+09 1.181683e-02 -1.254894e-03 9.801501e-01 -1.237388e-01 9.801310e-01 -1.238297e-01 1.183390e-02 -1.395194e-03
5.000000e+09 1.191327e-02 -1.343852e-03 9.797202e-01 -1.261764e-01 9.797004e-01 -1.262690e-01 1.193130e-02 -1.487061e-03
5.100000e+09 1.200962e-02 -1.435812e-03 9.792841e-01 -1.286098e-01 9.792637e-01 -1.287041e-01 1.202865e-02 -1.581934e-03
5.200000e+09 1.210581e-02 -1.530761e-03 9.788418e-01 -1.310390e-01 9.788208e-01 -1.311350e-01 1.212585e-02 -1.679802e-03
5.300000e+09 1.220174e-02 -1.628687e-03 9.783936e-01 -1.334639e-01 9.783719e-01 -1.335616e-01 1.222282e-02 -1.780650e-03
5.400000e+09 1.229733e-02 -1.729572e-03 9.779395e-01 -1.358847e-01 9.779172e-01 -1.359841e-01 1.231947e-02 -1.884463e-03
5.500000e+09 1.239249e-02 -1.833397e-03 9.774796e-01 -1.383013e-01 9.774566e-01 -1.384023e-01 1.241571e-02 -1.991220e-03
5.600000e+09 1.248715e-02 -1.940141e-03 9.770140e-01 -1.407137e-01 9.769904e-01 -1.408164e-01 1.251146e-02 -2.100901e-03
5.700000e+09 1.258122e-02 -2.049779e-03 9.765428e-01 -1.431220e-01 9.765185e-01 -1.432264e-01 1.260664e-02 -2.213481e-03
5.800000e+09 1.267461e-02 -2.162284e-03 9.760661e-01 -1.455262e-01 9.760411e-01 -1.456322e-01 1.270118e-02 -2.328934e-03
5.900000e+09 1.276726e-02 -2.277627e-03 9.755840e-01 -1.479263e-01 9.755583e-01 -1.480339e-01 1.279498e-02 -2.447230e-03
6.000000e+09 1.285908e-02 -2.395777e-03 9.750966e-01 -1.503223e-01 9.750702e-01 -1.504316e-01 1.288798e-02 -2.568340e-03
6.100000e+09 1.295000e-02 -2.516701e-03 9.746039e-01 -1.527143e-01 9.745768e-01 -1.528252e-01 1.298010e-02 -2.692229e-03
6.200000e+09 1.303994e-02 -2.640362e-03 9.741061e-01 -1.551023e-01 9.740782e-01 -1.552148e-01 1.307126e-02 -2.818863e-03
6.300000e+09 1.312883e-02 -2.766724e-03 9.736032e-01 -1.574864e-01 9.735746e-01 -1.576005e-01 1.316139e-02 -2.948203e-03
6.400000e+09 1.321660e-02 -2.895746e-03 9.730952e-01 -1.598665e-01 9.730659e-01 -1.599822e-01 1.325042e-02 -3.080211e-03
6.500000e+09 1.330319e-02 -3.027387e-03 9.725824e-01 -1.622428e-01 9.725524e-01 -1.623601e-01 1.333828e-02 -3.214845e-03
6.600000e+09 1.338852e-02 -3.161605e-03 9.720647e-01 -1.646152e-01 9.720339e-01 -1.647341e-01 1.342491e-02 -3.352062e-03
6.700000e+09 1.347253e-02 -3.298354e-03 9.715422e-01 -1.669839e-01 9.715107e-01 -1.671044e-01 1.351024e-02 -3.491819e-03
6.800000e+09 1.355516e-02 -3.437587e-03 9.710150e-01 -1.693488e-01 9.709827e-01 -1.694708e-01 1.359421e-02 -3.634067e-03
6.900000e+09 1.363634e-02 -3.579257e-03 9.704831e-01 -1.717100e-01 9.704501e-01 -1.718336e-01 1.367675e-02 -3.778760e-03
7.000000e+09 1.371602e-02 -3.723314e-03 9.699467e-01 -1.740676e-01 9.699129e-01 -1.741928e-01 1.375781e-02 -3.925849e-03
7.100000e+09 1.379414e-02 -3.869708e-03 9.694057e-01 -1.764216e-01 9.693712e-01 -1.765483e-01 1.383733e-02 -4.075282e-03
7.200000e+09 1.387065e-02 -4.018386e-03 9.688603e-01 -1.787720e-01 9.688250e-01 -1.789003e-01 1.391526e-02 -4.227009e-03
7.300000e+09 1.394549e-02 -4.169295e-03 9.683104e-01 -1.811190e-01 9.682744e-01 -1.812488e-01 1.399154e-02 -4.380975e-03
7.400000e+09 1.401862e-02 -4.322380e-03 9.677562e-01 -1.834625e-01 9.677193e-01 -1.835939e-01 1.406612e-02 -4.537128e-03
7.500000e+09 1.408998e-02 -4.477587e-03 9.671977e-01 -1.858026e-01 9.671600e-01 -1.859355e-01 1.413896e-02 -4.695411e-03
7.600000e+09 1.415952e-02 -4.634859e-03 9.666348e-01 -1.881394e-01 9.665964e-01 -1.882739e-01 1.421000e-02 -4.855769e-03
7.700000e+09 1.422722e-02 -4.794139e-03 9.660678e-01 -1.904730e-01 9.660285e-01 -1.906089e-01 1.427921e-02 -5.018145e-03
7.800000e+09 1.429301e-02 -4.955369e-03 9.654965e-01 -1.928033e-01 9.654565e-01 -1.929408e-01 1.434654e-02 -5.182481e-03
7.900000e+09 1.435687e-02 -5.118490e-03 9.649211e-01 -1.951305e-01 9.648803e-01 -1.952694e-01 1.441196e-02 -5.348718e-03
8.000000e+09 1.441876e-02 -5.283443e-03 9.643416e-01 -1.974545e-01 9.642999e-01 -1.975950e-01 1.447542e-02 -5.516799e-03
8.100000e+09 1.447863e-02 -5.450169e-03 9.637580e-01 -1.997756e-01 9.637155e-01 -1.999175e-01 1.453689e-02 -5.686663e-03
8.200000e+09 1.453647e-02 -5.618607e-03 9.631703e-01 -2.020936e-01 9.631270e-01 -2.022371e-01 1.459633e-02 -5.858251e-03
8.300000e+09 1.459223e-02 -5.788698e-03 9.625786e-01 -2.044087e-01 9.625344e-01 -2.045537e-01 1.465372e-02 -6.031502e-03
8.400000e+09 1.464588e-02 -5.960379e-03 9.619828e-01 -2.067209e-01 9.619379e-01 -2.068674e-01 1.470903e-02 -6.206355e-03
8.500000e+09 1.469741e-02 -6.133590e-03 9.613831e-01 -2.090304e-01 9.613373e-01 -2.091783e-01 1.476222e-02 -6.382751e-03
8.600000e+09 1.474678e-02 -6.308271e-03 9.607794e-01 -2.113370e-01 9.607328e-01 -2.114864e-01 1.481328e-02 -6.560628e-03
8.700000e+09 1.479398e-02 -6.484359e-03 9.601718e-01 -2.136410e-01 9.601243e-01 -2.137918e-01 1.486218e-02 -6.739925e-03
8.800000e+09 1.483898e-02 -6.661794e-03 9.595602e-01 -2.159423e-01 9.595118e-01 -2.160946e-01 1.490891e-02 -6.920581e-03
8.900000e+09 1.488177e-02 -6.840514e-03 9.589446e-01 -2.182409e-01 9.588955e-01 -2.183947e-01 1.495343e-02 -7.102536e-03
9.000000e+09 1.492232e-02 -7.020459e-03 9.583252e-01 -2.205371e-01 9.582751e-01 -2.206923e-01 1.499575e-02 -7.285728e-03
9.100000e+09 1.496063e-02 -7.201568e-03 9.577018e-01 -2.228308e-01 9.576509e-01 -2.229874e-01 1.503583e-02 -7.470098e-03
9.200000e+09 1.499668e-02 -7.383780e-03 9.570745e-01 -2.251220e-01 9.570227e-01 -2.252801e-01 1.507367e-02 -7.655584e-03
9.300000e+09 1.503046e-02 -7.567035e-03 9.564433e-01 -2.274108e-01 9.563907e-01 -2.275704e-01 1.510927e-02 -7.842128e-03
9.400000e+09 1.506196e-02 -7.751273e-03 9.558081e-01 -2.296973e-01 9.557547e-01 -2.298583e-01 1.514260e-02 -8.029669e-03
9.500000e+09 1.509118e-02 -7.936436e-03 9.551691e-01 -2.319815e-01 9.551147e-01 -2.321439e-01 1.517366e-02 -8.218148e-03
9.600000e+09 1.511811e-02 -8.122464e-03 9.545261e-01 -2.342635e-01 9.544709e-01 -2.344273e-01 1.520245e-02 -8.407507e-03
9.700000e+09 1.514274e-02 -8.309299e-03 9.538793e-01 -2.365433e-01 9.538231e-01 -2.367085e-01 1.522897e-02 -8.597687e-03
9.800000e+09 1.516508e-02 -8.496883e-03 9.532284e-01 -2.388209e-01 9.531714e-01 -2.389875e-01 1.525321e-02 -8.788632e-03
9.900000e+09 1.518513e-02 -8.685160e-03 9.525737e-01 -2.410964e-01 9.525158e-01 -2.412645e-01 1.527517e-02 -8.980285e-03
1.000000e+10 1.520288e-02 -8.874073e-03 9.519150e-01 -2.433698e-01 9.518561e-01 -2.435393e-01 1.529485e-02 -9.172589e-03
1.010000e+10 1.521835e-02 -9.063566e-03 9.512523e-01 -2.456413e-01 9.511925e-01 -2.458122e-01 1.531226e-02 -9.365489e-03
1.020000e+10 1.523153e-02 -9.253585e-03 9.505856e-01 -2.479107e-01 9.505250e-01 -2.480830e-01 1.532740e-02 -9.558931e-03
1.030000e+10 1.524243e-02 -9.444076e-03 9.499149e-01 -2.501782e-01 9.498534e-01 -2.503519e-01 1.534028e-02 -9.752861e-03
1.040000e+10 1.525106e-02 -9.634986e-03 9.492402e-01 -2.524438e-01 9.491778e-01 -2.526189e-01 1.535091e-02 -9.947227e-03
1.050000e+10 1.525743e-02 -9.826263e-03 9.485615e-01 -2.547075e-01 9.484981e-01 -2.548840e-01 1.535929e-02 -1.014198e-02
1.060000e+10 1.526155e-02 -1.001786e-02 9.478787e-01 -2.569694e-01 9.478144e-01 -2.571473e-01 1.536544e-02 -1.033706e-02
1.070000e+10 1.526344e-02 -1.020971e-02 9.471919e-01 -2.592295e-01 9.471266e-01 -2.594088e-01 1.536937e-02 -1.053242e-02
1.080000e+10 1.526310e-02 -1.040179e-02 9.465009e-01 -2.614878e-01 9.464347e-01 -2.616685e-01 1.537108e-02 -1.072802e-02
1.090000e+10 1.526055e-02 -1.059403e-02 9.458058e-01 -2.637444e-01 9.457387e-01 -2.639264e-01 1.537061e-02 -1.092380e-02
1.100000e+10 1.525580e-02 -1.078639e-02 9.451066e-01 -2.659992e-01 9.450385e-01 -2.661826e-01 1.536795e-02 -1.111972e-02
1.110000e+10 1.524888e-02 -1.097883e-02 9.444032e-01 -2.682524e-01 9.443342e-01 -2.684372e-01 1.536313e-02 -1.131573e-02
1.120000e+10 1.523980e-02 -1.117130e-02 9.436956e-01 -2.705039e-01 9.436256e-01 -2.706900e-01 1.535616e-02 -1.151179e-02
1.130000e+10 1.522858e-02 -1.136376e-02 9.429838e-01 -2.727537e-01 9.429129e-01 -2.729412e-01 1.534707e-02 -1.170786e-02
1.140000e+10 1.521524e-02 -1.155615e-02 9.422677e-01 -2.750019e-01 9.421958e-01 -2.751908e-01 1.533588e-02 -1.190389e-02
1.150000e+10 1.519979e-02 -1.174846e-02 9.415473e-01 -2.772486e-01 9.414745e-01 -2.774388e-01 1.532259e-02 -1.209983e-02
1.160000e+10 1.518227e-02 -1.194062e-02 9.408227e-01 -2.794936e-01 9.407489e-01 -2.796852e-01 1.530724e-02 -1.229566e-02
1.170000e+10 1.516270e-02 -1.213261e-02 9.400937e-01 -2.817370e-01 9.400189e-01 -2.819300e-01 1.528986e-02 -1.249134e-02
1.180000e+10 1.514109e-02 -1.232438e-02 9.393603e-01 -2.839789e-01 9.392845e-01 -2.841732e-01 1.527045e-02 -1.268681e-02
1.190000e+10 1.511747e-02 -1.251590e-02 9.386225e-01 -2.862193e-01 9.385458e-01 -2.864149e-01 1.524904e-02 -1.288205e-02
1.200000e+10 1.509187e-02 -1.270713e-02 9.378803e-01 -2.884581e-01 9.378026e-01 -2.886551e-01 1.522567e-02 -1.307703e-02
1.210000e+10 1.506431e-02 -1.289804e-02 9.371337e-01 -2.906954e-01 9.370550e-01 -2.908937e-01 1.520035e-02 -1.327170e-02
1.220000e+10 1.503482e-02 -1.308860e-02 9.363826e-01 -2.929311e-01 9.363028e-01 -2.931308e-01 1.517311e-02 -1.346604e-02
1.230000e+10 1.500342e-02 -1.327877e-02 9.356269e-01 -2.951654e-01 9.355462e-01 -2.953664e-01 1.514398e-02 -1.366001e-02
1.240000e+10 1.497015e-02 -1.346853e-02 9.348667e-01 -2.973981e-01 9.347850e-01 -2.976005e-01 1.511298e-02 -1.385359e-02
1.250000e+10 1.493502e-02 -1.365784e-02 9.341020e-01 -2.996294e-01 9.340192e-01 -2.998331e-01 1.508014e-02 -1.404674e-02
1.260000e+10 1.489807e-02 -1.384667e-02 9.333326e-01 -3.018591e-01 9.332488e-01 -3.020641e-01 1.504549e-02 -1.423944e-02
1.270000e+10 1.485932e-02 -1.403501e-02 9.325586e-01 -3.040873e-01 9.324737e-01 -3.042937e-01 1.500906e-02 -1.443166e-02
1.280000e+10 1.481880e-02 -1.422282e-02 9.317799e-01 -3.063141e-01 9.316940e-01 -3.065217e-01 1.497087e-02 -1.462337e-02
1.290000e+10 1.477654e-02 -1.441007e-02 9.309965e-01 -3.085393e-01 9.309096e-01 -3.087483e-01 1.493095e-02 -1.481455e-02
1.300000e+10 1.473258e-02 -1.459676e-02 9.302084e-01 -3.107630e-01 9.301205e-01 -3.109733e-01 1.488933e-02 -1.500518e-02
1.310000e+10 1.468693e-02 -1.478284e-02 9.294156e-01 -3.129852e-01 9.293266e-01 -3.131968e-01 1.484604e-02 -1.519523e-02
1.320000e+10 1.463963e-02 -1.496831e-02 9.286180e-01 -3.152058e-01 9.285279e-01 -3.154188e-01 1.480112e-02 -1.538468e-02
1.330000e+10 1.459070e-02 -1.515315e-02 9.278156e-01 -3.174249e-01 9.277244e-01 -3.176392e-01 1.475457e-02 -1.557352e-02
1.340000e+10 1.454019e-02 -1.533732e-02 9.270083e-01 -3.196425e-01 9.269161e-01 -3.198581e-01 1.470645e-02 -1.576173e-02
1.350000e+10 1.448810e-02 -1.552083e-02 9.261962e-01 -3.218585e-01 9.261029e-01 -3.220754e-01 1.465677e-02 -1.594929e-02
1.360000e+10 1.443449e-02 -1.570364e-02 9.253792e-01 -3.240730e-01 9.252848e-01 -3.242912e-01 1.460557e-02 -1.613617e-02
1.370000e+10 1.437936e-02 -1.588575e-02 9.245573e-01 -3.262858e-01 9.244618e-01 -3.265053e-01 1.455287e-02 -1.632238e-02
1.380000e+10 1.432276e-02 -1.606715e-02 9.237304e-01 -3.284971e-01 9.236339e-01 -3.287179e-01 1.449870e-02 -1.650789e-02
1.390000e+10 1.426471e-02 -1.624781e-02 9.228986e-01 -3.307068e-01 9.228010e-01 -3.309289e-01 1.444309e-02 -1.669268e-02
1.400000e+10 1.420524e-02 -1.642772e-02 9.220618e-01 -3.329148e-01 9.219631e-01 -3.331382e-01 1.438608e-02 -1.687676e-02
1.410000e+10 1.414437e-02 -1.660688e-02 9.212200e-01 -3.351212e-01 9.211202e-01 -3.353459e-01 1.432768e-02 -1.706010e-02
1.420000e+10 1.408215e-02 -1.678528e-02 9.203732e-01 -3.373259e-01 9.202722e-01 -3.375519e-01 1.426793e-02 -1.724270e-02
1.430000e+10 1.401859e-02 -1.696290e-02 9.195213e-01 -3.395290e-01 9.194193e-01 -3.397562e-01 1.420685e-02 -1.742455e-02
1.440000e+10 1.395372e-02 -1.713974e-02 9.186644e-01 -3.417303e-01 9.185612e-01 -3.419588e-01 1.414447e-02 -1.760564e-02
1.450000e+10 1.388757e-02 -1.731579e-02 9.178024e-01 -3.439299e-01 9.176981e-01 -3.441597e-01 1.408083e-02 -1.778597e-02
1.460000e+10 1.382018e-02 -1.749104e-02 9.169353e-01 -3.461278e-01 9.168298e-01 -3.463588e-01 1.401594e-02 -1.796552e-02
1.470000e+10 1.375155e-02 -1.766550e-02 9.160630e-01 -3.483239e-01 9.159564e-01 -3.485562e-01 1.394983e-02 -1.814429e-02
1.480000e+10 1.368172e-02 -1.783914e-02 9.151857e-01 -3.505182e-01 9.150779e-01 -3.507518e-01 1.388253e-02 -1.832228e-02
1.490000e+10 1.361073e-02 -1.801198e-02 9.143031e-01 -3.527107e-01 9.141942e-01 -3.529455e-01 1.381407e-02 -1.849948e-02
1.500000e+10 1.353858e-02 -1.818400e-02 9.134154e-01 -3.549013e-01 9.133053e-01 -3.551375e-01 1.374447e-02 -1.867589e-02
1.510000e+10 1.346531e-02 -1.835521e-02 9.125226e-01 -3.570901e-01 9.124113e-01 -3.573275e-01 1.367375e-02 -1.885151e-02
1.520000e+10 1.339094e-02 -1.852561e-02 9.116245e-01 -3.592770e-01 9.115121e-01 -3.595157e-01 1.360194e-02 -1.902634e-02
1.530000e+10 1.331550e-02 -1.869518e-02 9.107212e-01 -3.614620e-01 9.106076e-01 -3.617019e-01 1.352906e-02 -1.920038e-02
1.540000e+10 1.323901e-02 -1.886394e-02 9.098128e-01 -3.636451e-01 9.096979e-01 -3.638862e-01 1.345515e-02 -1.937362e-02
1.550000e+10 1.316149e-02 -1.903189e-02 9.088991e-01 -3.658261e-01 9.087830e-01 -3.660685e-01 1.338021e-02 -1.954607e-02
1.560000e+10 1.308296e-02 -1.919901e-02 9.079801e-01 -3.680052e-01 9.078629e-01 -3.682488e-01 1.330427e-02 -1.971773e-02
1.570000e+10 1.300345e-02 -1.936533e-02 9.070559e-01 -3.701823e-01 9.069375e-01 -3.704271e-01 1.322736e-02 -1.988859e-02
1.580000e+10 1.292298e-02 -1.953083e-02 9.061265e-01 -3.723573e-01 9.060069e-01 -3.726034e-01 1.314949e-02 -2.005868e-02
1.590000e+10 1.284157e-02 -1.969553e-02 9.051918e-01 -3.745302e-01 9.050710e-01 -3.747775e-01 1.307069e-02 -2.022798e-02
1.600000e+10 1.275924e-02 -1.985942e-02 9.042519e-01 -3.767011e-01 9.041298e-01 -3.769496e-01 1.299098e-02 -2.039650e-02
1.610000e+10 1.267601e-02 -2.002251e-02 9.033067e-01 -3.788697e-01 9.031834e-01 -3.791195e-01 1.291037e-02 -2.056424e-02
1.620000e+10 1.259190e-02 -2.018481e-02 9.023563e-01 -3.810363e-01 9.022317e-01 -3.812873e-01 1.282888e-02 -2.073121e-02
1.630000e+10 1.250692e-02 -2.034632e-02 9.014005e-01 -3.832006e-01 9.012747e-01 -3.834528e-01 1.274654e-02 -2.089742e-02
