#   Hz   S  RI   R   50
!
0.000000e+00 7.932793e-03 0.000000e+00 9.922175e-01 0.000000e+00 9.922178e-01 0.000000e+00 7.926752e-03 0.000000e+00
1.000000e+08 7.933832e-03 -7.284986e-06 9.922143e-01 -2.012595e-03 9.922146e-01 -2.012614e-03 7.927793e-03 -8.023462e-06
2.000000e+08 7.936949e-03 -1.463544e-05 9.922046e-01 -4.025102e-03 9.922049e-01 -4.025141e-03 7.930914e-03 -1.611224e-05
3.000000e+08 7.942139e-03 -2.211675e-05 9.921885e-01 -6.037433e-03 9.921888e-01 -6.037491e-03 7.936113e-03 -2.433159e-05
4.000000e+08 7.949397e-03 -2.979416e-05 9.921658e-01 -8.049500e-03 9.921662e-01 -8.049578e-03 7.943383e-03 -3.274657e-05
5.000000e+08 7.958717e-03 -3.773264e-05 9.921368e-01 -1.006122e-02 9.921371e-01 -1.006131e-02 7.952718e-03 -4.142205e-05
6.000000e+08 7.970089e-03 -4.599689e-05 9.921013e-01 -1.207249e-02 9.921016e-01 -1.207261e-02 7.964107e-03 -5.042254e-05
7.000000e+08 7.983500e-03 -5.465119e-05 9.920594e-01 -1.408325e-02 9.920597e-01 -1.408338e-02 7.977540e-03 -5.981219e-05
8.000000e+08 7.998937e-03 -6.375935e-05 9.920111e-01 -1.609339e-02 9.920114e-01 -1.609354e-02 7.993003e-03 -6.965468e-05
9.000000e+08 8.016385e-03 -7.338463e-05 9.919565e-01 -1.810284e-02 9.919568e-01 -1.810301e-02 8.010479e-03 -8.001312e-05
1.000000e+09 8.035824e-03 -8.358970e-05 9.918954e-01 -2.011151e-02 9.918957e-01 -2.011170e-02 8.029951e-03 -9.095001e-05
1.100000e+09 8.057237e-03 -9.443650e-05 9.918281e-01 -2.211931e-02 9.918284e-01 -2.211952e-02 8.051399e-03 -1.025272e-04
1.200000e+09 8.080600e-03 -1.059862e-04 9.917544e-01 -2.412617e-02 9.917547e-01 -2.412640e-02 8.074801e-03 -1.148057e-04
1.300000e+09 8.105890e-03 -1.182992e-04 9.916745e-01 -2.613201e-02 9.916748e-01 -2.613225e-02 8.100134e-03 -1.278457e-04
1.400000e+09 8.133081e-03 -1.314348e-04 9.915884e-01 -2.813674e-02 9.915886e-01 -2.813700e-02 8.127372e-03 -1.417065e-04
1.500000e+09 8.162146e-03 -1.454517e-04 9.914960e-01 -3.014028e-02 9.914963e-01 -3.014056e-02 8.156487e-03 -1.564466e-04
1.600000e+09 8.193055e-03 -1.604071e-04 9.913975e-01 -3.214256e-02 9.913977e-01 -3.214286e-02 8.187451e-03 -1.721230e-04
1.700000e+09 8.225777e-03 -1.763574e-04 9.912928e-01 -3.414350e-02 9.912931e-01 -3.414382e-02 8.220231e-03 -1.887921e-04
1.800000e+09 8.260279e-03 -1.933577e-04 9.911821e-01 -3.614304e-02 9.911823e-01 -3.614337e-02 8.254795e-03 -2.065089e-04
1.900000e+09 8.296527e-03 -2.114620e-04 9.910653e-01 -3.814108e-02 9.910656e-01 -3.814143e-02 8.291109e-03 -2.253272e-04
2.000000e+09 8.334484e-03 -2.307229e-04 9.909425e-01 -4.013758e-02 9.909428e-01 -4.013794e-02 8.329136e-03 -2.452995e-04
2.100000e+09 8.374112e-03 -2.511917e-04 9.908138e-01 -4.213245e-02 9.908141e-01 -4.213282e-02 8.368839e-03 -2.664769e-04
2.200000e+09 8.415373e-03 -2.729183e-04 9.906792e-01 -4.412563e-02 9.906795e-01 -4.412602e-02 8.410179e-03 -2.889093e-04
2.300000e+09 8.458224e-03 -2.959512e-04 9.905388e-01 -4.611705e-02 9.905390e-01 -4.611745e-02 8.453114e-03 -3.126451e-04
2.400000e+09 8.502625e-03 -3.203373e-04 9.903926e-01 -4.810665e-02 9.903928e-01 -4.810707e-02 8.497602e-03 -3.377311e-04
2.500000e+09 8.548531e-03 -3.461222e-04 9.902406e-01 -5.009437e-02 9.902408e-01 -5.009481e-02 8.543601e-03 -3.642126e-04
2.600000e+09 8.595898e-03 -3.733495e-04 9.900829e-01 -5.208016e-02 9.900832e-01 -5.208060e-02 8.591065e-03 -3.921335e-04
2.700000e+09 8.644678e-03 -4.020617e-04 9.899197e-01 -5.406394e-02 9.899199e-01 -5.406440e-02 8.639948e-03 -4.215359e-04
2.800000e+09 8.694826e-03 -4.322993e-04 9.897509e-01 -5.604568e-02 9.897511e-01 -5.604615e-02 8.690203e-03 -4.524604e-04
2.900000e+09 8.746293e-03 -4.641012e-04 9.895765e-01 -5.802531e-02 9.895767e-01 -5.802580e-02 8.741781e-03 -4.849457e-04
3.000000e+09 8.799029e-03 -4.975047e-04 9.893968e-01 -6.000279e-02 9.893970e-01 -6.000329e-02 8.794635e-03 -5.190289e-04
3.100000e+09 8.852984e-03 -5.325451e-04 9.892117e-01 -6.197807e-02 9.892118e-01 -6.197857e-02 8.848712e-03 -5.547456e-04
3.200000e+09 8.908107e-03 -5.692562e-04 9.890212e-01 -6.395110e-02 9.890214e-01 -6.395162e-02 8.903963e-03 -5.921292e-04
3.300000e+09 8.964345e-03 -6.076699e-04 9.888255e-01 -6.592184e-02 9.888257e-01 -6.592237e-02 8.960334e-03 -6.312117e-04
3.400000e+09 9.021646e-03 -6.478162e-04 9.886247e-01 -6.789025e-02 9.886248e-01 -6.789078e-02 9.017775e-03 -6.720231e-04
3.500000e+09 9.079956e-03 -6.897235e-04 9.884187e-01 -6.985629e-02 9.884189e-01 -6.985683e-02 9.076230e-03 -7.145915e-04
3.600000e+09 9.139221e-03 -7.334181e-04 9.882077e-01 -7.181993e-02 9.882079e-01 -7.182048e-02 9.135646e-03 -7.589434e-04
3.700000e+09 9.199387e-03 -7.789246e-04 9.879917e-01 -7.378113e-02 9.879919e-01 -7.378168e-02 9.195968e-03 -8.051033e-04
3.800000e+09 9.260398e-03 -8.262657e-04 9.877709e-01 -7.573985e-02 9.877710e-01 -7.574042e-02 9.257142e-03 -8.530938e-04
3.900000e+09 9.322198e-03 -8.754623e-04 9.875451e-01 -7.769608e-02 9.875453e-01 -7.769665e-02 9.319111e-03 -9.029359e-04
4.000000e+09 9.384732e-03 -9.265334e-04 9.873146e-01 -7.964979e-02 9.873148e-01 -7.965036e-02 9.381821e-03 -9.546485e-04
4.100000e+09 9.447943e-03 -9.794961e-04 9.870794e-01 -8.160094e-02 9.870796e-01 -8.160152e-02 9.445215e-03 -1.008249e-03
4.200000e+09 9.511776e-03 -1.034366e-03 9.868396e-01 -8.354953e-02 9.868397e-01 -8.355011e-02 9.509236e-03 -1.063752e-03
4.300000e+09 9.576173e-03 -1.091156e-03 9.865952e-01 -8.549552e-02 9.865953e-01 -8.549612e-02 9.573829e-03 -1.121171e-03
4.400000e+09 9.641077e-03 -1.149877e-03 9.863464e-01 -8.743891e-02 9.863465e-01 -8.743951e-02 9.638936e-03 -1.180518e-03
4.500000e+09 9.706433e-03 -1.210541e-03 9.860931e-01 -8.937968e-02 9.860932e-01 -8.938028e-02 9.704502e-03 -1.241802e-03
4.600000e+09 9.772184e-03 -1.273153e-03 9.858354e-01 -9.131782e-02 9.858355e-01 -9.131842e-02 9.770470e-03 -1.305032e-03
4.700000e+09 9.838273e-03 -1.337722e-03 9.855735e-01 -9.325332e-02 9.855736e-01 -9.325392e-02 9.836783e-03 -1.370214e-03
4.800000e+09 9.904644e-03 -1.404250e-03 9.853074e-01 -9.518616e-02 9.853074e-01 -9.518677e-02 9.903386e-03 -1.437351e-03
4.900000e+09 9.971241e-03 -1.472741e-03 9.850371e-01 -9.711636e-02 9.850371e-01 -9.711696e-02 9.970222e-03 -1.506448e-03
5.000000e+09 1.003801e-02 -1.543195e-03 9.847627e-01 -9.904389e-02 9.847627e-01 -9.904450e-02 1.003724e-02 -1.577503e-03
5.100000e+09 1.010489e-02 -1.615612e-03 9.844843e-01 -1.009688e-01 9.844843e-01 -1.009694e-01 1.010437e-02 -1.650517e-03
5.200000e+09 1.017183e-02 -1.689988e-03 9.842019e-01 -1.028910e-01 9.842020e-01 -1.028916e-01 1.017158e-02 -1.725487e-03
5.300000e+09 1.023878e-02 -1.766321e-03 9.839157e-01 -1.048105e-01 9.839157e-01 -1.048112e-01 1.023880e-02 -1.802408e-03
5.400000e+09 1.030568e-02 -1.844602e-03 9.836256e-01 -1.067275e-01 9.836257e-01 -1.067281e-01 1.030598e-02 -1.881276e-03
5.500000e+09 1.037248e-02 -1.924826e-03 9.833318e-01 -1.086417e-01 9.833319e-01 -1.086423e-01 1.037306e-02 -1.962082e-03
5.600000e+09 1.043912e-02 -2.006983e-03 9.830343e-01 -1.105534e-01 9.830343e-01 -1.105540e-01 1.044000e-02 -2.044817e-03
5.700000e+09 1.050556e-02 -2.091063e-03 9.827332e-01 -1.124624e-01 9.827332e-01 -1.124630e-01 1.050674e-02 -2.129472e-03
5.800000e+09 1.057173e-02 -2.177053e-03 9.824284e-01 -1.143688e-01 9.824284e-01 -1.143694e-01 1.057323e-02 -2.216033e-03
5.900000e+09 1.063760e-02 -2.264941e-03 9.821202e-01 -1.162726e-01 9.821202e-01 -1.162732e-01 1.063943e-02 -2.304488e-03
6.000000e+09 1.070312e-02 -2.354710e-03 9.818085e-01 -1.181739e-01 9.818085e-01 -1.181744e-01 1.070527e-02 -2.394822e-03
6.100000e+09 1.076822e-02 -2.446345e-03 9.814933e-01 -1.200725e-01 9.814934e-01 -1.200731e-01 1.077072e-02 -2.487018e-03
6.200000e+09 1.083287e-02 -2.539828e-03 9.811749e-01 -1.219687e-01 9.811749e-01 -1.219693e-01 1.083571e-02 -2.581058e-03
6.300000e+09 1.089702e-02 -2.635140e-03 9.808531e-01 -1.238623e-01 9.808531e-01 -1.238629e-01 1.090022e-02 -2.676925e-03
6.400000e+09 1.096062e-02 -2.732261e-03 9.805281e-01 -1.257534e-01 9.805281e-01 -1.257540e-01 1.096419e-02 -2.774597e-03
6.500000e+09 1.102362e-02 -2.831169e-03 9.801999e-01 -1.276420e-01 9.801999e-01 -1.276426e-01 1.102757e-02 -2.874054e-03
6.600000e+09 1.108599e-02 -2.931842e-03 9.798685e-01 -1.295282e-01 9.798685e-01 -1.295288e-01 1.109033e-02 -2.975273e-03
6.700000e+09 1.114768e-02 -3.034257e-03 9.795341e-01 -1.314120e-01 9.795341e-01 -1.314126e-01 1.115241e-02 -3.078231e-03
6.800000e+09 1.120864e-02 -3.138388e-03 9.791966e-01 -1.332934e-01 9.791966e-01 -1.332939e-01 1.121378e-02 -3.182902e-03
6.900000e+09 1.126884e-02 -3.244210e-03 9.788560e-01 -1.351724e-01 9.788560e-01 -1.351729e-01 1.127440e-02 -3.289262e-03
7.000000e+09 1.132824e-02 -3.351696e-03 9.785125e-01 -1.370490e-01 9.785125e-01 -1.370496e-01 1.133423e-02 -3.397283e-03
7.100000e+09 1.138680e-02 -3.460818e-03 9.781661e-01 -1.389234e-01 9.781661e-01 -1.389239e-01 1.139322e-02 -3.506938e-03
7.200000e+09 1.144447e-02 -3.571548e-03 9.778168e-01 -1.407955e-01 9.778168e-01 -1.407960e-01 1.145134e-02 -3.618199e-03
7.300000e+09 1.150123e-02 -3.683857e-03 9.774647e-01 -1.426653e-01 9.774647e-01 -1.426658e-01 1.150856e-02 -3.731037e-03
7.400000e+09 1.155704e-02 -3.797714e-03 9.771097e-01 -1.445329e-01 9.771097e-01 -1.445335e-01 1.156484e-02 -3.845421e-03
7.500000e+09 1.161187e-02 -3.913088e-03 9.767520e-01 -1.463984e-01 9.767520e-01 -1.463989e-01 1.162014e-02 -3.961320e-03
7.600000e+09 1.166568e-02 -4.029948e-03 9.763915e-01 -1.482617e-01 9.763915e-01 -1.482622e-01 1.167444e-02 -4.078703e-03
7.700000e+09 1.171843e-02 -4.148262e-03 9.760283e-01 -1.501229e-01 9.760283e-01 -1.501234e-01 1.172770e-02 -4.197539e-03
7.800000e+09 1.177011e-02 -4.267997e-03 9.756624e-01 -1.519820e-01 9.756624e-01 -1.519825e-01 1.177989e-02 -4.317794e-03
7.900000e+09 1.182069e-02 -4.389119e-03 9.752939e-01 -1.538391e-01 9.752939e-01 -1.538395e-01 1.183098e-02 -4.439435e-03
8.000000e+09 1.187012e-02 -4.511594e-03 9.749227e-01 -1.556941e-01 9.749227e-01 -1.556946e-01 1.188095e-02 -4.562429e-03
8.100000e+09 1.191840e-02 -4.635389e-03 9.745489e-01 -1.575473e-01 9.745489e-01 -1.575477e-01 1.192977e-02 -4.686741e-03
8.200000e+09 1.196549e-02 -4.760468e-03 9.741726e-01 -1.593984e-01 9.741726e-01 -1.593989e-01 1.197741e-02 -4.812336e-03
8.300000e+09 1.201136e-02 -4.886797e-03 9.737937e-01 -1.612477e-01 9.737937e-01 -1.612482e-01 1.202385e-02 -4.939181e-03
8.400000e+09 1.205600e-02 -5.014340e-03 9.734122e-01 -1.630951e-01 9.734122e-01 -1.630956e-01 1.206907e-02 -5.067239e-03
8.500000e+09 1.209939e-02 -5.143061e-03 9.730282e-01 -1.649407e-01 9.730283e-01 -1.649412e-01 1.211304e-02 -5.196474e-03
8.600000e+09 1.214150e-02 -5.272924e-03 9.726417e-01 -1.667846e-01 9.726418e-01 -1.667850e-01 1.215575e-02 -5.326852e-03
8.700000e+09 1.218232e-02 -5.403894e-03 9.722527e-01 -1.686266e-01 9.722528e-01 -1.686270e-01 1.219718e-02 -5.458336e-03
8.800000e+09 1.222183e-02 -5.535933e-03 9.718613e-01 -1.704670e-01 9.718613e-01 -1.704674e-01 1.223730e-02 -5.590891e-03
8.900000e+09 1.226000e-02 -5.669007e-03 9.714674e-01 -1.723057e-01 9.714674e-01 -1.723061e-01 1.227611e-02 -5.724479e-03
9.000000e+09 1.229683e-02 -5.803077e-03 9.710710e-01 -1.741427e-01 9.710711e-01 -1.741431e-01 1.231358e-02 -5.859064e-03
9.100000e+09 1.233231e-02 -5.938108e-03 9.706722e-01 -1.759782e-01 9.706722e-01 -1.759786e-01 1.234971e-02 -5.994611e-03
9.200000e+09 1.236641e-02 -6.074063e-03 9.702709e-01 -1.778121e-01 9.702710e-01 -1.778124e-01 1.238448e-02 -6.131083e-03
9.300000e+09 1.239913e-02 -6.210906e-03 9.698672e-01 -1.796444e-01 9.698673e-01 -1.796448e-01 1.241787e-02 -6.268444e-03
9.400000e+09 1.243045e-02 -6.348601e-03 9.694611e-01 -1.814753e-01 9.694612e-01 -1.814756e-01 1.244988e-02 -6.406657e-03
9.500000e+09 1.246038e-02 -6.487110e-03 9.690525e-01 -1.833047e-01 9.690526e-01 -1.833050e-01 1.248051e-02 -6.545686e-03
9.600000e+09 1.248889e-02 -6.626399e-03 9.686416e-01 -1.851326e-01 9.686417e-01 -1.851330e-01 1.250973e-02 -6.685496e-03
9.700000e+09 1.251598e-02 -6.766431e-03 9.682282e-01 -1.869592e-01 9.682283e-01 -1.869595e-01 1.253754e-02 -6.826051e-03
9.800000e+09 1.254165e-02 -6.907171e-03 9.678124e-01 -1.887844e-01 9.678125e-01 -1.887847e-01 1.256394e-02 -6.967315e-03
9.900000e+09 1.256588e-02 -7.048582e-03 9.673941e-01 -1.906083e-01 9.673943e-01 -1.906086e-01 1.258892e-02 -7.109253e-03
1.000000e+10 1.258868e-02 -7.190631e-03 9.669735e-01 -1.924309e-01 9.669736e-01 -1.924312e-01 1.261247e-02 -7.251830e-03
1.010000e+10 1.261005e-02 -7.333282e-03 9.665504e-01 -1.942522e-01 9.665505e-01 -1.942525e-01 1.263460e-02 -7.395012e-03
1.020000e+10 1.262997e-02 -7.476500e-03 9.661249e-01 -1.960723e-01 9.661250e-01 -1.960725e-01 1.265530e-02 -7.538763e-03
1.030000e+10 1.264846e-02 -7.620252e-03 9.656969e-01 -1.978911e-01 9.656970e-01 -1.978914e-01 1.267458e-02 -7.683050e-03
1.040000e+10 1.266550e-02 -7.764503e-03 9.652665e-01 -1.997088e-01 9.652666e-01 -1.997091e-01 1.269242e-02 -7.827840e-03
1.050000e+10 1.268110e-02 -7.909221e-03 9.648336e-01 -2.015253e-01 9.648338e-01 -2.015256e-01 1.270883e-02 -7.973099e-03
1.060000e+10 1.269526e-02 -8.054372e-03 9.643983e-01 -2.033408e-01 9.643985e-01 -2.033410e-01 1.272382e-02 -8.118794e-03
1.070000e+10 1.270799e-02 -8.199924e-03 9.639605e-01 -2.051551e-01 9.639607e-01 -2.051553e-01 1.273738e-02 -8.264894e-03
1.080000e+10 1.271928e-02 -8.345845e-03 9.635202e-01 -2.069683e-01 9.635204e-01 -2.069685e-01 1.274951e-02 -8.411365e-03
1.090000e+10 1.272915e-02 -8.492104e-03 9.630774e-01 -2.087805e-01 9.630776e-01 -2.087807e-01 1.276024e-02 -8.558178e-03
1.100000e+10 1.273759e-02 -8.638669e-03 9.626321e-01 -2.105917e-01 9.626323e-01 -2.105919e-01 1.276954e-02 -8.705301e-03
1.110000e+10 1.274462e-02 -8.785510e-03 9.621843e-01 -2.124018e-01 9.621845e-01 -2.124021e-01 1.277744e-02 -8.852703e-03
1.120000e+10 1.275023e-02 -8.932597e-03 9.617339e-01 -2.142110e-01 9.617341e-01 -2.142112e-01 1.278394e-02 -9.000356e-03
1.130000e+10 1.275444e-02 -9.079901e-03 9.612810e-01 -2.160192e-01 9.612813e-01 -2.160194e-01 1.278905e-02 -9.148230e-03
1.140000e+10 1.275725e-02 -9.227393e-03 9.608256e-01 -2.178265e-01 9.608258e-01 -2.178267e-01 1.279277e-02 -9.296296e-03
1.150000e+10 1.275867e-02 -9.375046e-03 9.603675e-01 -2.196329e-01 9.603678e-01 -2.196331e-01 1.279511e-02 -9.444527e-03
1.160000e+10 1.275872e-02 -9.522830e-03 9.599069e-01 -2.214383e-01 9.599071e-01 -2.214385e-01 1.279609e-02 -9.592895e-03
1.170000e+10 1.275739e-02 -9.670721e-03 9.594436e-01 -2.232429e-01 9.594439e-01 -2.232431e-01 1.279571e-02 -9.741373e-03
1.180000e+10 1.275471e-02 -9.818691e-03 9.589777e-01 -2.250466e-01 9.589780e-01 -2.250468e-01 1.279398e-02 -9.889935e-03
1.190000e+10 1.275068e-02 -9.966714e-03 9.585092e-01 -2.268495e-01 9.585095e-01 -2.268496e-01 1.279091e-02 -1.003856e-02
1.200000e+10 1.274531e-02 -1.011477e-02 9.580380e-01 -2.286515e-01 9.580383e-01 -2.286516e-01 1.278652e-02 -1.018721e-02
1.210000e+10 1.273862e-02 -1.026282e-02 9.575641e-01 -2.304526e-01 9.575644e-01 -2.304528e-01 1.278081e-02 -1.033588e-02
1.220000e+10 1.273062e-02 -1.041086e-02 9.570876e-01 -2.322530e-01 9.570879e-01 -2.322532e-01 1.277380e-02 -1.048453e-02
1.230000e+10 1.272132e-02 -1.055886e-02 9.566083e-01 -2.340526e-01 9.566086e-01 -2.340527e-01 1.276551e-02 -1.063314e-02
1.240000e+10 1.271073e-02 -1.070679e-02 9.561263e-01 -2.358513e-01 9.561265e-01 -2.358515e-01 1.275593e-02 -1.078170e-02
1.250000e+10 1.269888e-02 -1.085463e-02 9.556415e-01 -2.376493e-01 9.556418e-01 -2.376495e-01 1.274510e-02 -1.093017e-02
1.260000e+10 1.268576e-02 -1.100237e-02 9.551539e-01 -2.394465e-01 9.551542e-01 -2.394467e-01 1.273302e-02 -1.107855e-02
1.270000e+10 1.267140e-02 -1.114998e-02 9.546635e-01 -2.412429e-01 9.546639e-01 -2.412431e-01 1.271971e-02 -1.122680e-02
1.280000e+10 1.265582e-02 -1.129744e-02 9.541704e-01 -2.430386e-01 9.541707e-01 -2.430387e-01 1.270517e-02 -1.137491e-02
1.290000e+10 1.263902e-02 -1.144474e-02 9.536744e-01 -2.448335e-01 9.536747e-01 -2.448337e-01 1.268944e-02 -1.152286e-02
1.300000e+10 1.262102e-02 -1.159185e-02 9.531755e-01 -2.466277e-01 9.531758e-01 -2.466278e-01 1.267251e-02 -1.167064e-02
1.310000e+10 1.260184e-02 -1.173877e-02 9.526738e-01 -2.484211e-01 9.526741e-01 -2.484212e-01 1.265442e-02 -1.181822e-02
1.320000e+10 1.258149e-02 -1.188546e-02 9.521692e-01 -2.502137e-01 9.521695e-01 -2.502139e-01 1.263516e-02 -1.196559e-02
1.330000e+10 1.256000e-02 -1.203192e-02 9.516617e-01 -2.520057e-01 9.516620e-01 -2.520058e-01 1.261477e-02 -1.211273e-02
1.340000e+10 1.253737e-02 -1.217813e-02 9.511512e-01 -2.537968e-01 9.511516e-01 -2.537970e-01 1.259325e-02 -1.225963e-02
1.350000e+10 1.251362e-02 -1.232407e-02 9.506378e-01 -2.555873e-01 9.506382e-01 -2.555874e-01 1.257062e-02 -1.240627e-02
1.360000e+10 1.248877e-02 -1.246974e-02 9.501215e-01 -2.573769e-01 9.501218e-01 -2.573771e-01 1.254689e-02 -1.255264e-02
1.370000e+10 1.246283e-02 -1.261511e-02 9.496021e-01 -2.591659e-01 9.496025e-01 -2.591660e-01 1.252210e-02 -1.269872e-02
1.380000e+10 1.243582e-02 -1.276018e-02 9.490798e-01 -2.609541e-01 9.490801e-01 -2.609542e-01 1.249624e-02 -1.284450e-02
1.390000e+10 1.240777e-02 -1.290493e-02 9.485544e-01 -2.627415e-01 9.485548e-01 -2.627417e-01 1.246934e-02 -1.298998e-02
1.400000e+10 1.237868e-02 -1.304935e-02 9.480260e-01 -2.645282e-01 9.480264e-01 -2.645284e-01 1.244141e-02 -1.313513e-02
1.410000e+10 1.234857e-02 -1.319343e-02 9.474945e-01 -2.663142e-01 9.474949e-01 -2.663143e-01 1.241247e-02 -1.327995e-02
1.420000e+10 1.231745e-02 -1.333716e-02 9.469600e-01 -2.680993e-01 9.469604e-01 -2.680995e-01 1.238254e-02 -1.342443e-02
1.430000e+10 1.228536e-02 -1.348053e-02 9.464224e-01 -2.698837e-01 9.464228e-01 -2.698839e-01 1.235164e-02 -1.356856e-02
1.440000e+10 1.225229e-02 -1.362354e-02 9.458817e-01 -2.716674e-01 9.458820e-01 -2.716675e-01 1.231977e-02 -1.371233e-02
1.450000e+10 1.221828e-02 -1.376616e-02 9.453379e-01 -2.734502e-01 9.453382e-01 -2.734503e-01 1.228696e-02 -1.385572e-02
1.460000e+10 1.218332e-02 -1.390840e-02 9.447909e-01 -2.752323e-01 9.447912e-01 -2.752324e-01 1.225322e-02 -1.399874e-02
1.470000e+10 1.214745e-02 -1.405025e-02 9.442408e-01 -2.770136e-01 9.442411e-01 -2.770137e-01 1.221858e-02 -1.414138e-02
1.480000e+10 1.211068e-02 -1.419169e-02 9.436875e-01 -2.787940e-01 9.436878e-01 -2.787941e-01 1.218303e-02 -1.428362e-02
1.490000e+10 1.207302e-02 -1.433274e-02 9.431310e-01 -2.805737e-01 9.431313e-01 -2.805738e-01 1.214661e-02 -1.442547e-02
1.500000e+10 1.203449e-02 -1.447337e-02 9.425713e-01 -2.823525e-01 9.425717e-01 -2.823526e-01 1.210933e-02 -1.456691e-02
1.510000e+10 1.199511e-02 -1.461358e-02 9.420085e-01 -2.841304e-01 9.420088e-01 -2.841305e-01 1.207120e-02 -1.470795e-02
1.520000e+10 1.195489e-02 -1.475337e-02 9.414424e-01 -2.859076e-01 9.414427e-01 -2.859077e-01 1.203224e-02 -1.484857e-02
1.530000e+10 1.191385e-02 -1.489274e-02 9.408731e-01 -2.876839e-01 9.408734e-01 -2.876839e-01 1.199247e-02 -1.498878e-02
1.540000e+10 1.187200e-02 -1.503168e-02 9.403005e-01 -2.894593e-01 9.403009e-01 -2.894594e-01 1.195190e-02 -1.512856e-02
1.550000e+10 1.182936e-02 -1.517019e-02 9.397247e-01 -2.912338e-01 9.397250e-01 -2.912339e-01 1.191054e-02 -1.526793e-02
1.560000e+10 1.178594e-02 -1.530827e-02 9.391456e-01 -2.930074e-01 9.391460e-01 -2.930075e-01 1.186841e-02 -1.540686e-02
1.570000e+10 1.174176e-02 -1.544590e-02 9.385633e-01 -2.947801e-01 9.385636e-01 -2.947802e-01 1.182552e-02 -1.554538e-02
1.580000e+10 1.169683e-02 -1.558310e-02 9.379776e-01 -2.965519e-01 9.379780e-01 -2.965520e-01 1.178190e-02 -1.568346e-02
1.590000e+10 1.165117e-02 -1.571986e-02 9.373887e-01 -2.983228e-01 9.373890e-01 -2.983229e-01 1.173755e-02 -1.582111e-02
1.600000e+10 1.160478e-02 -1.585618e-02 9.367965e-01 -3.000927e-01 9.367968e-01 -3.000928e-01 1.169248e-02 -1.595832e-02
1.610000e+10 1.155770e-02 -1.599205e-02 9.362009e-01 -3.018617e-01 9.362012e-01 -3.018618e-01 1.164672e-02 -1.609511e-02
1.620000e+10 1.150992e-02 -1.612749e-02 9.356021e-01 -3.036297e-01 9.356024e-01 -3.036298e-01 1.160027e-02 -1.623146e-02
