#   Hz   S  RI   R   50
!
0.000000e+00 5.248284e-03 0.000000e+00 9.948914e-01 0.000000e+00 9.948919e-01 0.000000e+00 5.252591e-03 0.000000e+00
1.000000e+08 5.248817e-03 1.614033e-05 9.948901e-01 -1.183643e-03 9.948906e-01 -1.183639e-03 5.253124e-03 1.630296e-05
2.000000e+08 5.250414e-03 3.225394e-05 9.948861e-01 -2.367250e-03 9.948866e-01 -2.367242e-03 5.254723e-03 3.257917e-05
3.000000e+08 5.253076e-03 4.831415e-05 9.948795e-01 -3.550785e-03 9.948801e-01 -3.550774e-03 5.257385e-03 4.880189e-05
4.000000e+08 5.256799e-03 6.429431e-05 9.948704e-01 -4.734213e-03 9.948709e-01 -4.734198e-03 5.261111e-03 6.494443e-05
5.000000e+08 5.261582e-03 8.016783e-05 9.948585e-01 -5.917498e-03 9.948591e-01 -5.917479e-03 5.265896e-03 8.098018e-05
6.000000e+08 5.267422e-03 9.590823e-05 9.948441e-01 -7.100604e-03 9.948446e-01 -7.100582e-03 5.271738e-03 9.688261e-05
7.000000e+08 5.274313e-03 1.114891e-04 9.948271e-01 -8.283497e-03 9.948276e-01 -8.283471e-03 5.278632e-03 1.126253e-04
8.000000e+08 5.282252e-03 1.268843e-04 9.948074e-01 -9.466140e-03 9.948080e-01 -9.466110e-03 5.286575e-03 1.281819e-04
9.000000e+08 5.291233e-03 1.420676e-04 9.947852e-01 -1.064850e-02 9.947857e-01 -1.064847e-02 5.295560e-03 1.435264e-04
1.000000e+09 5.301250e-03 1.570131e-04 9.947604e-01 -1.183054e-02 9.947609e-01 -1.183050e-02 5.305581e-03 1.586328e-04
1.100000e+09 5.312296e-03 1.716952e-04 9.947330e-01 -1.301223e-02 9.947335e-01 -1.301219e-02 5.316632e-03 1.734753e-04
1.200000e+09 5.324364e-03 1.860883e-04 9.947030e-01 -1.419353e-02 9.947035e-01 -1.419349e-02 5.328705e-03 1.880284e-04
1.300000e+09 5.337445e-03 2.001671e-04 9.946705e-01 -1.537441e-02 9.946710e-01 -1.537436e-02 5.341791e-03 2.022667e-04
1.400000e+09 5.351530e-03 2.139067e-04 9.946354e-01 -1.655484e-02 9.946359e-01 -1.655479e-02 5.355882e-03 2.161653e-04
1.500000e+09 5.366610e-03 2.272823e-04 9.945978e-01 -1.773478e-02 9.945983e-01 -1.773472e-02 5.370969e-03 2.296994e-04
1.600000e+09 5.382675e-03 2.402696e-04 9.945577e-01 -1.891420e-02 9.945582e-01 -1.891414e-02 5.387040e-03 2.428446e-04
1.700000e+09 5.399714e-03 2.528443e-04 9.945151e-01 -2.009307e-02 9.945156e-01 -2.009300e-02 5.404086e-03 2.555766e-04
1.800000e+09 5.417714e-03 2.649829e-04 9.944700e-01 -2.127135e-02 9.944705e-01 -2.127128e-02 5.422094e-03 2.678717e-04
1.900000e+09 5.436665e-03 2.766617e-04 9.944224e-01 -2.244903e-02 9.944229e-01 -2.244895e-02 5.441053e-03 2.797065e-04
2.000000e+09 5.456553e-03 2.878579e-04 9.943724e-01 -2.362605e-02 9.943729e-01 -2.362598e-02 5.460949e-03 2.910579e-04
2.100000e+09 5.477365e-03 2.985487e-04 9.943199e-01 -2.480241e-02 9.943204e-01 -2.480233e-02 5.481769e-03 3.019032e-04
2.200000e+09 5.499087e-03 3.087120e-04 9.942650e-01 -2.597805e-02 9.942655e-01 -2.597797e-02 5.503499e-03 3.122201e-04
2.300000e+09 5.521705e-03 3.183259e-04 9.942077e-01 -2.715297e-02 9.942083e-01 -2.715288e-02 5.526126e-03 3.219869e-04
2.400000e+09 5.545202e-03 3.273691e-04 9.941481e-01 -2.832713e-02 9.941486e-01 -2.832704e-02 5.549633e-03 3.311822e-04
2.500000e+09 5.569565e-03 3.358207e-04 9.940861e-01 -2.950050e-02 9.940866e-01 -2.950040e-02 5.574004e-03 3.397849e-04
2.600000e+09 5.594776e-03 3.436602e-04 9.940217e-01 -3.067305e-02 9.940222e-01 -3.067295e-02 5.599225e-03 3.477747e-04
2.700000e+09 5.620819e-03 3.508678e-04 9.939551e-01 -3.184476e-02 9.939556e-01 -3.184466e-02 5.625277e-03 3.551317e-04
2.800000e+09 5.647677e-03 3.574240e-04 9.938861e-01 -3.301561e-02 9.938867e-01 -3.301550e-02 5.652145e-03 3.618362e-04
2.900000e+09 5.675332e-03 3.633098e-04 9.938149e-01 -3.418557e-02 9.938155e-01 -3.418546e-02 5.679809e-03 3.678695e-04
3.000000e+09 5.703766e-03 3.685070e-04 9.937415e-01 -3.535461e-02 9.937420e-01 -3.535449e-02 5.708253e-03 3.732131e-04
3.100000e+09 5.732961e-03 3.729976e-04 9.936659e-01 -3.652272e-02 9.936664e-01 -3.652260e-02 5.737457e-03 3.778491e-04
3.200000e+09 5.762896e-03 3.767644e-04 9.935880e-01 -3.768987e-02 9.935885e-01 -3.768974e-02 5.767403e-03 3.817602e-04
3.300000e+09 5.793554e-03 3.797906e-04 9.935080e-01 -3.885603e-02 9.935085e-01 -3.885590e-02 5.798070e-03 3.849297e-04
3.400000e+09 5.824914e-03 3.820601e-04 9.934259e-01 -4.002120e-02 9.934264e-01 -4.002106e-02 5.829440e-03 3.873414e-04
3.500000e+09 5.856956e-03 3.835573e-04 9.933416e-01 -4.118534e-02 9.933421e-01 -4.118520e-02 5.861492e-03 3.889798e-04
3.600000e+09 5.889660e-03 3.842673e-04 9.932553e-01 -4.234844e-02 9.932558e-01 -4.234830e-02 5.894205e-03 3.898298e-04
3.700000e+09 5.923004e-03 3.841756e-04 9.931669e-01 -4.351049e-02 9.931674e-01 -4.351034e-02 5.927559e-03 3.898770e-04
3.800000e+09 5.956968e-03 3.832686e-04 9.930765e-01 -4.467146e-02 9.930770e-01 -4.467131e-02 5.961532e-03 3.891077e-04
3.900000e+09 5.991529e-03 3.815331e-04 9.929841e-01 -4.583134e-02 9.929846e-01 -4.583118e-02 5.996103e-03 3.875087e-04
4.000000e+09 6.026667e-03 3.789565e-04 9.928897e-01 -4.699011e-02 9.928902e-01 -4.698995e-02 6.031249e-03 3.850676e-04
4.100000e+09 6.062359e-03 3.755270e-04 9.927934e-01 -4.814776e-02 9.927939e-01 -4.814760e-02 6.066950e-03 3.817723e-04
4.200000e+09 6.098584e-03 3.712333e-04 9.926952e-01 -4.930428e-02 9.926957e-01 -4.930411e-02 6.103183e-03 3.776117e-04
4.300000e+09 6.135317e-03 3.660649e-04 9.925951e-01 -5.045965e-02 9.925956e-01 -5.045947e-02 6.139925e-03 3.725750e-04
4.400000e+09 6.172538e-03 3.600116e-04 9.924932e-01 -5.161386e-02 9.924936e-01 -5.161368e-02 6.177153e-03 3.666524e-04
4.500000e+09 6.210222e-03 3.530643e-04 9.923894e-01 -5.276689e-02 9.923899e-01 -5.276671e-02 6.214845e-03 3.598345e-04
4.600000e+09 6.248347e-03 3.452142e-04 9.922838e-01 -5.391875e-02 9.922843e-01 -5.391856e-02 6.252977e-03 3.521127e-04
4.700000e+09 6.286891e-03 3.364533e-04 9.921765e-01 -5.506942e-02 9.921770e-01 -5.506922e-02 6.291527e-03 3.434788e-04
4.800000e+09 6.325828e-03 3.267743e-04 9.920675e-01 -5.621889e-02 9.920679e-01 -5.621869e-02 6.330471e-03 3.339255e-04
4.900000e+09 6.365137e-03 3.161703e-04 9.919567e-01 -5.736715e-02 9.919572e-01 -5.736695e-02 6.369786e-03 3.234461e-04
5.000000e+09 6.404794e-03 3.046354e-04 9.918443e-01 -5.851421e-02 9.918448e-01 -5.851400e-02 6.409448e-03 3.120345e-04
5.100000e+09 6.444775e-03 2.921641e-04 9.917303e-01 -5.966004e-02 9.917307e-01 -5.965983e-02 6.449434e-03 2.996853e-04
5.200000e+09 6.485057e-03 2.787516e-04 9.916146e-01 -6.080466e-02 9.916151e-01 -6.080444e-02 6.489720e-03 2.863938e-04
5.300000e+09 6.525616e-03 2.643939e-04 9.914974e-01 -6.194804e-02 9.914978e-01 -6.194782e-02 6.530283e-03 2.721557e-04
5.400000e+09 6.566428e-03 2.490874e-04 9.913786e-01 -6.309020e-02 9.913790e-01 -6.308998e-02 6.571098e-03 2.569677e-04
5.500000e+09 6.607471e-03 2.328293e-04 9.912583e-01 -6.423113e-02 9.912587e-01 -6.423090e-02 6.612143e-03 2.408269e-04
5.600000e+09 6.648720e-03 2.156174e-04 9.911365e-01 -6.537083e-02 9.911370e-01 -6.537060e-02 6.653394e-03 2.237311e-04
5.700000e+09 6.690152e-03 1.974502e-04 9.910133e-01 -6.650930e-02 9.910137e-01 -6.650906e-02 6.694828e-03 2.056788e-04
5.800000e+09 6.731743e-03 1.783266e-04 9.908886e-01 -6.764654e-02 9.908890e-01 -6.764629e-02 6.736420e-03 1.866690e-04
5.900000e+09 6.773471e-03 1.582465e-04 9.907625e-01 -6.878254e-02 9.907630e-01 -6.878229e-02 6.778148e-03 1.667014e-04
6.000000e+09 6.815313e-03 1.372100e-04 9.906351e-01 -6.991732e-02 9.906355e-01 -6.991706e-02 6.819988e-03 1.457764e-04
6.100000e+09 6.857244e-03 1.152182e-04 9.905063e-01 -7.105087e-02 9.905067e-01 -7.105061e-02 6.861918e-03 1.238949e-04
6.200000e+09 6.899243e-03 9.227252e-05 9.903762e-01 -7.218321e-02 9.903767e-01 -7.218294e-02 6.903914e-03 1.010583e-04
6.300000e+09 6.941285e-03 6.837508e-05 9.902448e-01 -7.331432e-02 9.902453e-01 -7.331405e-02 6.945954e-03 7.726896e-05
6.400000e+09 6.983350e-03 4.352860e-05 9.901122e-01 -7.444423e-02 9.901127e-01 -7.444396e-02 6.988014e-03 5.252945e-05
6.500000e+09 7.025414e-03 1.773637e-05 9.899784e-01 -7.557293e-02 9.899788e-01 -7.557265e-02 7.030074e-03 2.684311e-05
6.600000e+09 7.067456e-03 -8.997763e-06 9.898433e-01 -7.670044e-02 9.898437e-01 -7.670016e-02 7.072109e-03 2.138222e-07
6.700000e+09 7.109453e-03 -3.666937e-05 9.897071e-01 -7.782676e-02 9.897075e-01 -7.782647e-02 7.114099e-03 -2.735398e-05
6.800000e+09 7.151383e-03 -6.527349e-05 9.895697e-01 -7.895189e-02 9.895701e-01 -7.895160e-02 7.156022e-03 -5.585532e-05
6.900000e+09 7.193225e-03 -9.480461e-05 9.894312e-01 -8.007585e-02 9.894316e-01 -8.007555e-02 7.197856e-03 -8.528464e-05
7.000000e+09 7.234959e-03 -1.252567e-04 9.892916e-01 -8.119865e-02 9.892920e-01 -8.119835e-02 7.239580e-03 -1.156359e-04
7.100000e+09 7.276562e-03 -1.566231e-04 9.891509e-01 -8.232030e-02 9.891514e-01 -8.231999e-02 7.281173e-03 -1.469025e-04
7.200000e+09 7.318014e-03 -1.888969e-04 9.890092e-01 -8.344080e-02 9.890097e-01 -8.344049e-02 7.322614e-03 -1.790773e-04
7.300000e+09 7.359296e-03 -2.220704e-04 9.888665e-01 -8.456018e-02 9.888669e-01 -8.455986e-02 7.363883e-03 -2.121528e-04
7.400000e+09 7.400386e-03 -2.561355e-04 9.887228e-01 -8.567844e-02 9.887232e-01 -8.567812e-02 7.404961e-03 -2.461208e-04
7.500000e+09 7.441266e-03 -2.910838e-04 9.885781e-01 -8.679559e-02 9.885785e-01 -8.679527e-02 7.445826e-03 -2.809728e-04
7.600000e+09 7.481916e-03 -3.269063e-04 9.884324e-01 -8.791165e-02 9.884328e-01 -8.791132e-02 7.486461e-03 -3.166998e-04
7.700000e+09 7.522317e-03 -3.635935e-04 9.882858e-01 -8.902664e-02 9.882862e-01 -8.902630e-02 7.526845e-03 -3.532923e-04
7.800000e+09 7.562450e-03 -4.011355e-04 9.881383e-01 -9.014056e-02 9.881387e-01 -9.014022e-02 7.566961e-03 -3.907404e-04
7.900000e+09 7.602297e-03 -4.395220e-04 9.879899e-01 -9.125343e-02 9.879903e-01 -9.125309e-02 7.606790e-03 -4.290338e-04
8.000000e+09 7.641840e-03 -4.787423e-04 9.878406e-01 -9.236527e-02 9.878410e-01 -9.236492e-02 7.646314e-03 -4.681617e-04
8.100000e+09 7.681062e-03 -5.187853e-04 9.876905e-01 -9.347609e-02 9.876909e-01 -9.347574e-02 7.685516e-03 -5.081130e-04
8.200000e+09 7.719946e-03 -5.596395e-04 9.875395e-01 -9.458591e-02 9.875400e-01 -9.458556e-02 7.724378e-03 -5.488762e-04
8.300000e+09 7.758475e-03 -6.012931e-04 9.873878e-01 -9.569475e-02 9.873882e-01 -9.569439e-02 7.762885e-03 -5.904394e-04
8.400000e+09 7.796633e-03 -6.437338e-04 9.872352e-01 -9.680262e-02 9.872356e-01 -9.680226e-02 7.801019e-03 -6.327903e-04
8.500000e+09 7.834403e-03 -6.869491e-04 9.870819e-01 -9.790954e-02 9.870823e-01 -9.790917e-02 7.838765e-03 -6.759163e-04
8.600000e+09 7.871771e-03 -7.309261e-04 9.869277e-01 -9.901553e-02 9.869282e-01 -9.901516e-02 7.876108e-03 -7.198046e-04
8.700000e+09 7.908722e-03 -7.756516e-04 9.867729e-01 -1.001206e-01 9.867733e-01 -1.001202e-01 7.913032e-03 -7.644420e-04
8.800000e+09 7.945241e-03 -8.211122e-04 9.866173e-01 -1.012248e-01 9.866177e-01 -1.012244e-01 7.949523e-03 -8.098148e-04
8.900000e+09 7.981314e-03 -8.672940e-04 9.864610e-01 -1.023281e-01 9.864614e-01 -1.023277e-01 7.985567e-03 -8.559094e-04
9.000000e+09 8.016927e-03 -9.141830e-04 9.863040e-01 -1.034305e-01 9.863044e-01 -1.034301e-01 8.021151e-03 -9.027116e-04
9.100000e+09 8.052068e-03 -9.617650e-04 9.861462e-01 -1.045321e-01 9.861467e-01 -1.045317e-01 8.056261e-03 -9.502072e-04
9.200000e+09 8.086723e-03 -1.010025e-03 9.859879e-01 -1.056329e-01 9.859883e-01 -1.056325e-01 8.090884e-03 -9.983815e-04
9.300000e+09 8.120881e-03 -1.058949e-03 9.858288e-01 -1.067329e-01 9.858292e-01 -1.067325e-01 8.125009e-03 -1.047220e-03
9.400000e+09 8.154529e-03 -1.108522e-03 9.856691e-01 -1.078321e-01 9.856695e-01 -1.078317e-01 8.158624e-03 -1.096707e-03
9.500000e+09 8.187657e-03 -1.158728e-03 9.855087e-01 -1.089305e-01 9.855091e-01 -1.089301e-01 8.191716e-03 -1.146828e-03
9.600000e+09 8.220253e-03 -1.209553e-03 9.853477e-01 -1.100282e-01 9.853481e-01 -1.100278e-01 8.224277e-03 -1.197568e-03
9.700000e+09 8.252307e-03 -1.260980e-03 9.851860e-01 -1.111252e-01 9.851864e-01 -1.111248e-01 8.256294e-03 -1.248910e-03
9.800000e+09 8.283810e-03 -1.312994e-03 9.850237e-01 -1.122214e-01 9.850242e-01 -1.122210e-01 8.287759e-03 -1.300839e-03
9.900000e+09 8.314751e-03 -1.365579e-03 9.848609e-01 -1.133170e-01 9.848613e-01 -1.133166e-01 8.318662e-03 -1.353340e-03
1.000000e+10 8.345123e-03 -1.418720e-03 9.846974e-01 -1.144119e-01 9.846978e-01 -1.144115e-01 8.348994e-03 -1.406397e-03
1.010000e+10 8.374916e-03 -1.472400e-03 9.845333e-01 -1.155062e-01 9.845337e-01 -1.155058e-01 8.378747e-03 -1.459993e-03
1.020000e+10 8.404123e-03 -1.526603e-03 9.843686e-01 -1.165999e-01 9.843690e-01 -1.165995e-01 8.407913e-03 -1.514112e-03
1.030000e+10 8.432736e-03 -1.581313e-03 9.842033e-01 -1.176929e-01 9.842037e-01 -1.176925e-01 8.436483e-03 -1.568738e-03
1.040000e+10 8.460748e-03 -1.636514e-03 9.840374e-01 -1.187854e-01 9.840378e-01 -1.187850e-01 8.464453e-03 -1.623855e-03
1.050000e+10 8.488153e-03 -1.692189e-03 9.838709e-01 -1.198773e-01 9.838713e-01 -1.198769e-01 8.491813e-03 -1.679446e-03
1.060000e+10 8.514945e-03 -1.748323e-03 9.837038e-01 -1.209687e-01 9.837043e-01 -1.209682e-01 8.518560e-03 -1.735495e-03
1.070000e+10 8.541117e-03 -1.804898e-03 9.835362e-01 -1.220595e-01 9.835366e-01 -1.220591e-01 8.544687e-03 -1.791986e-03
1.080000e+10 8.566666e-03 -1.861898e-03 9.833680e-01 -1.231499e-01 9.833684e-01 -1.231494e-01 8.570189e-03 -1.848902e-03
1.090000e+10 8.591585e-03 -1.919308e-03 9.831992e-01 -1.242397e-01 9.831996e-01 -1.242393e-01 8.595061e-03 -1.906227e-03
1.100000e+10 8.615872e-03 -1.977109e-03 9.830298e-01 -1.253291e-01 9.830302e-01 -1.253287e-01 8.619300e-03 -1.963944e-03
1.110000e+10 8.639521e-03 -2.035287e-03 9.828599e-01 -1.264180e-01 9.828603e-01 -1.264176e-01 8.642901e-03 -2.022037e-03
1.120000e+10 8.662531e-03 -2.093825e-03 9.826893e-01 -1.275066e-01 9.826897e-01 -1.275061e-01 8.665862e-03 -2.080490e-03
1.130000e+10 8.684898e-03 -2.152707e-03 9.825182e-01 -1.285947e-01 9.825186e-01 -1.285942e-01 8.688178e-03 -2.139286e-03
1.140000e+10 8.706619e-03 -2.211915e-03 9.823465e-01 -1.296824e-01 9.823469e-01 -1.296819e-01 8.709849e-03 -2.198409e-03
1.150000e+10 8.727693e-03 -2.271436e-03 9.821742e-01 -1.307697e-01 9.821746e-01 -1.307693e-01 8.730872e-03 -2.257843e-03
1.160000e+10 8.748119e-03 -2.331251e-03 9.820013e-01 -1.318567e-01 9.820018e-01 -1.318563e-01 8.751246e-03 -2.317572e-03
1.170000e+10 8.767894e-03 -2.391345e-03 9.818279e-01 -1.329434e-01 9.818283e-01 -1.329429e-01 8.770969e-03 -2.377581e-03
1.180000e+10 8.787019e-03 -2.451704e-03 9.816538e-01 -1.340297e-01 9.816542e-01 -1.340292e-01 8.790040e-03 -2.437852e-03
1.190000e+10 8.805492e-03 -2.512309e-03 9.814791e-01 -1.351157e-01 9.814795e-01 -1.351153e-01 8.808461e-03 -2.498370e-03
1.200000e+10 8.823315e-03 -2.573147e-03 9.813038e-01 -1.362015e-01 9.813043e-01 -1.362010e-01 8.826230e-03 -2.559121e-03
1.210000e+10 8.840488e-03 -2.634202e-03 9.811279e-01 -1.372869e-01 9.811284e-01 -1.372865e-01 8.843348e-03 -2.620087e-03
1.220000e+10 8.857011e-03 -2.695458e-03 9.809514e-01 -1.383721e-01 9.809519e-01 -1.383717e-01 8.859816e-03 -2.681255e-03
1.230000e+10 8.872886e-03 -2.756901e-03 9.807743e-01 -1.394571e-01 9.807747e-01 -1.394567e-01 8.875636e-03 -2.742609e-03
1.240000e+10 8.888114e-03 -2.818514e-03 9.805965e-01 -1.405419e-01 9.805969e-01 -1.405414e-01 8.890809e-03 -2.804133e-03
1.250000e+10 8.902698e-03 -2.880285e-03 9.804181e-01 -1.416264e-01 9.804185e-01 -1.416260e-01 8.905337e-03 -2.865813e-03
1.260000e+10 8.916640e-03 -2.942197e-03 9.802391e-01 -1.427108e-01 9.802395e-01 -1.427103e-01 8.919223e-03 -2.927635e-03
1.270000e+10 8.929942e-03 -3.004236e-03 9.800593e-01 -1.437949e-01 9.800598e-01 -1.437945e-01 8.932469e-03 -2.989584e-03
1.280000e+10 8.942609e-03 -3.066389e-03 9.798790e-01 -1.448789e-01 9.798794e-01 -1.448785e-01 8.945079e-03 -3.051645e-03
1.290000e+10 8.954643e-03 -3.128641e-03 9.796979e-01 -1.459628e-01 9.796983e-01 -1.459623e-01 8.957056e-03 -3.113806e-03
1.300000e+10 8.966047e-03 -3.190979e-03 9.795162e-01 -1.470465e-01 9.795166e-01 -1.470461e-01 8.968404e-03 -3.176051e-03
1.310000e+10 8.976827e-03 -3.253389e-03 9.793338e-01 -1.481301e-01 9.793342e-01 -1.481296e-01 8.979127e-03 -3.238368e-03
1.320000e+10 8.986987e-03 -3.315857e-03 9.791506e-01 -1.492135e-01 9.791510e-01 -1.492131e-01 8.989229e-03 -3.300743e-03
1.330000e+10 8.996530e-03 -3.378371e-03 9.789668e-01 -1.502969e-01 9.789672e-01 -1.502965e-01 8.998716e-03 -3.363163e-03
1.340000e+10 9.005463e-03 -3.440918e-03 9.787822e-01 -1.513802e-01 9.787826e-01 -1.513797e-01 9.007591e-03 -3.425615e-03
1.350000e+10 9.013790e-03 -3.503485e-03 9.785969e-01 -1.524634e-01 9.785974e-01 -1.524629e-01 9.015861e-03 -3.488086e-03
1.360000e+10 9.021518e-03 -3.566060e-03 9.784109e-01 -1.535465e-01 9.784113e-01 -1.535460e-01 9.023531e-03 -3.550565e-03
1.370000e+10 9.028651e-03 -3.628630e-03 9.782241e-01 -1.546295e-01 9.782245e-01 -1.546291e-01 9.030608e-03 -3.613039e-03
1.380000e+10 9.035196e-03 -3.691185e-03 9.780365e-01 -1.557125e-01 9.780370e-01 -1.557121e-01 9.037096e-03 -3.675497e-03
1.390000e+10 9.041159e-03 -3.753712e-03 9.778482e-01 -1.567955e-01 9.778486e-01 -1.567951e-01 9.043002e-03 -3.737926e-03
1.400000e+10 9.046547e-03 -3.816200e-03 9.776591e-01 -1.578784e-01 9.776595e-01 -1.578780e-01 9.048334e-03 -3.800316e-03
1.410000e+10 9.051366e-03 -3.878639e-03 9.774692e-01 -1.589613e-01 9.774696e-01 -1.589609e-01 9.053097e-03 -3.862656e-03
1.420000e+10 9.055625e-03 -3.941017e-03 9.772784e-01 -1.600442e-01 9.772788e-01 -1.600437e-01 9.057299e-03 -3.924935e-03
1.430000e+10 9.059328e-03 -4.003325e-03 9.770869e-01 -1.611270e-01 9.770873e-01 -1.611266e-01 9.060947e-03 -3.987143e-03
1.440000e+10 9.062485e-03 -4.065552e-03 9.768945e-01 -1.622099e-01 9.768949e-01 -1.622095e-01 9.064048e-03 -4.049269e-03
1.450000e+10 9.065103e-03 -4.127688e-03 9.767012e-01 -1.632927e-01 9.767016e-01 -1.632923e-01 9.066610e-03 -4.111304e-03
1.460000e+10 9.067189e-03 -4.189724e-03 9.765071e-01 -1.643756e-01 9.765075e-01 -1.643752e-01 9.068642e-03 -4.173238e-03
1.470000e+10 9.068752e-03 -4.251651e-03 9.763121e-01 -1.654584e-01 9.763125e-01 -1.654580e-01 9.070150e-03 -4.235062e-03
1.480000e+10 9.069799e-03 -4.313460e-03 9.761162e-01 -1.665413e-01 9.761166e-01 -1.665409e-01 9.071143e-03 -4.296768e-03
1.490000e+10 9.070339e-03 -4.375142e-03 9.759195e-01 -1.676242e-01 9.759199e-01 -1.676238e-01 9.071629e-03 -4.358346e-03
1.500000e+10 9.070380e-03 -4.436688e-03 9.757218e-01 -1.687071e-01 9.757222e-01 -1.687067e-01 9.071617e-03 -4.419789e-03
1.510000e+10 9.069930e-03 -4.498092e-03 9.755232e-01 -1.697901e-01 9.755236e-01 -1.697897e-01 9.071115e-03 -4.481088e-03
1.520000e+10 9.068999e-03 -4.559346e-03 9.753236e-01 -1.708730e-01 9.753240e-01 -1.708727e-01 9.070132e-03 -4.542236e-03
1.530000e+10 9.067595e-03 -4.620441e-03 9.751231e-01 -1.719560e-01 9.751235e-01 -1.719557e-01 9.068676e-03 -4.603225e-03
1.540000e+10 9.065726e-03 -4.681371e-03 9.749217e-01 -1.730391e-01 9.749221e-01 -1.730387e-01 9.066757e-03 -4.664049e-03
1.550000e+10 9.063403e-03 -4.742130e-03 9.747192e-01 -1.741222e-01 9.747196e-01 -1.741218e-01 9.064383e-03 -4.724700e-03
1.560000e+10 9.060633e-03 -4.802710e-03 9.745158e-01 -1.752053e-01 9.745162e-01 -1.752049e-01 9.061564e-03 -4.785173e-03
1.570000e+10 9.057425e-03 -4.863106e-03 9.743114e-01 -1.762884e-01 9.743118e-01 -1.762880e-01 9.058307e-03 -4.845461e-03
1.580000e+10 9.053790e-03 -4.923312e-03 9.741060e-01 -1.773716e-01 9.741064e-01 -1.773712e-01 9.054624e-03 -4.905558e-03
1.590000e+10 9.049735e-03 -4.983322e-03 9.738995e-01 -1.784548e-01 9.738999e-01 -1.784545e-01 9.050522e-03 -4.965460e-03
1.600000e+10 9.045271e-03 -5.043132e-03 9.736920e-01 -1.795381e-01 9.736924e-01 -1.795377e-01 9.046012e-03 -5.025160e-03
1.610000e+10 9.040406e-03 -5.102736e-03 9.734835e-01 -1.806214e-01 9.734839e-01 -1.806210e-01 9.041101e-03 -5.084654e-03
1.620000e+10 9.035151e-03 -5.162130e-03 9.732739e-01 -1.817047e-01 9.732743e-01 -1.817043e-01 9.035800e-03 -5.143937e-03
1.630000e+10 9.029513e-03 -5.221309e-03 9.730632e-01 -1.827881e-01 9.730636e-01 -1.827877e-01 9.030119e-03 -5.203005e-03
1.640000e+10 9.023503e-03 -5.280269e-03 9.728514e-01 -1.838714e-01 9.728518e-01 -1.838711e-01 9.024065e-03 -5.261855e-03
1.650000e+10 9.017129e-03 -5.339008e-03 9.726386e-01 -1.849549e-01 9.726390e-01 -1.849545e-01 9.017649e-03 -5.320481e-03
