#   Hz   S  RI   R   50
!
0.000000e+00 4.127322e-03 0.000000e+00 9.958799e-01 0.000000e+00 9.959204e-01 0.000000e+00 4.166904e-03 0.000000e+00
1.000000e+08 4.127519e-03 -6.335597e-05 9.958794e-01 -7.510867e-04 9.959199e-01 -7.523777e-04 4.166922e-03 -7.544801e-05
2.000000e+08 4.128111e-03 -1.267192e-04 9.958780e-01 -1.502164e-03 9.959184e-01 -1.504745e-03 4.166974e-03 -1.509014e-04
3.000000e+08 4.129097e-03 -1.900969e-04 9.958756e-01 -2.253225e-03 9.959159e-01 -2.257092e-03 4.167062e-03 -2.263655e-04
4.000000e+08 4.130477e-03 -2.534963e-04 9.958723e-01 -3.004258e-03 9.959125e-01 -3.009409e-03 4.167185e-03 -3.018458e-04
5.000000e+08 4.132251e-03 -3.169247e-04 9.958681e-01 -3.755256e-03 9.959080e-01 -3.761685e-03 4.167342e-03 -3.773474e-04
6.000000e+08 4.134416e-03 -3.803892e-04 9.958628e-01 -4.506209e-03 9.959026e-01 -4.513911e-03 4.167532e-03 -4.528759e-04
7.000000e+08 4.136974e-03 -4.438971e-04 9.958567e-01 -5.257110e-03 9.958962e-01 -5.266075e-03 4.167755e-03 -5.284365e-04
8.000000e+08 4.139922e-03 -5.074554e-04 9.958496e-01 -6.007948e-03 9.958888e-01 -6.018169e-03 4.168011e-03 -6.040345e-04
9.000000e+08 4.143259e-03 -5.710713e-04 9.958415e-01 -6.758716e-03 9.958804e-01 -6.770183e-03 4.168297e-03 -6.796752e-04
1.000000e+09 4.146985e-03 -6.347520e-04 9.958325e-01 -7.509405e-03 9.958710e-01 -7.522105e-03 4.168614e-03 -7.553639e-04
1.100000e+09 4.151097e-03 -6.985044e-04 9.958226e-01 -8.260005e-03 9.958607e-01 -8.273927e-03 4.168959e-03 -8.311058e-04
1.200000e+09 4.155593e-03 -7.623357e-04 9.958117e-01 -9.010509e-03 9.958494e-01 -9.025639e-03 4.169332e-03 -9.069060e-04
1.300000e+09 4.160473e-03 -8.262527e-04 9.957999e-01 -9.760908e-03 9.958371e-01 -9.777231e-03 4.169731e-03 -9.827698e-04
1.400000e+09 4.165733e-03 -8.902623e-04 9.957871e-01 -1.051119e-02 9.958238e-01 -1.052869e-02 4.170155e-03 -1.058702e-03
1.500000e+09 4.171372e-03 -9.543715e-04 9.957734e-01 -1.126136e-02 9.958096e-01 -1.128002e-02 4.170601e-03 -1.134709e-03
1.600000e+09 4.177387e-03 -1.018587e-03 9.957588e-01 -1.201139e-02 9.957944e-01 -1.203119e-02 4.171068e-03 -1.210794e-03
1.700000e+09 4.183776e-03 -1.082916e-03 9.957433e-01 -1.276128e-02 9.957783e-01 -1.278221e-02 4.171554e-03 -1.286962e-03
1.800000e+09 4.190537e-03 -1.147364e-03 9.957268e-01 -1.351103e-02 9.957612e-01 -1.353305e-02 4.172057e-03 -1.363220e-03
1.900000e+09 4.197666e-03 -1.211939e-03 9.957095e-01 -1.426062e-02 9.957431e-01 -1.428373e-02 4.172574e-03 -1.439571e-03
2.000000e+09 4.205160e-03 -1.276647e-03 9.956912e-01 -1.501005e-02 9.957241e-01 -1.503421e-02 4.173104e-03 -1.516021e-03
2.100000e+09 4.213017e-03 -1.341495e-03 9.956720e-01 -1.575931e-02 9.957042e-01 -1.578450e-02 4.173644e-03 -1.592574e-03
2.200000e+09 4.221234e-03 -1.406488e-03 9.956519e-01 -1.650839e-02 9.956833e-01 -1.653459e-02 4.174191e-03 -1.669235e-03
2.300000e+09 4.229806e-03 -1.471633e-03 9.956308e-01 -1.725728e-02 9.956615e-01 -1.728447e-02 4.174743e-03 -1.746008e-03
2.400000e+09 4.238731e-03 -1.536937e-03 9.956089e-01 -1.800598e-02 9.956388e-01 -1.803412e-02 4.175297e-03 -1.822899e-03
2.500000e+09 4.248004e-03 -1.602405e-03 9.955861e-01 -1.875448e-02 9.956151e-01 -1.878355e-02 4.175850e-03 -1.899912e-03
2.600000e+09 4.257623e-03 -1.668044e-03 9.955624e-01 -1.950277e-02 9.955905e-01 -1.953274e-02 4.176399e-03 -1.977051e-03
2.700000e+09 4.267583e-03 -1.733860e-03 9.955378e-01 -2.025084e-02 9.955650e-01 -2.028168e-02 4.176942e-03 -2.054320e-03
2.800000e+09 4.277881e-03 -1.799858e-03 9.955124e-01 -2.099869e-02 9.955386e-01 -2.103037e-02 4.177475e-03 -2.131724e-03
2.900000e+09 4.288511e-03 -1.866044e-03 9.954860e-01 -2.174631e-02 9.955113e-01 -2.177880e-02 4.177994e-03 -2.209268e-03
3.000000e+09 4.299470e-03 -1.932423e-03 9.954588e-01 -2.249370e-02 9.954831e-01 -2.252696e-02 4.178496e-03 -2.286955e-03
3.100000e+09 4.310754e-03 -1.999002e-03 9.954307e-01 -2.324084e-02 9.954540e-01 -2.327484e-02 4.178979e-03 -2.364789e-03
3.200000e+09 4.322358e-03 -2.065786e-03 9.954018e-01 -2.398772e-02 9.954241e-01 -2.402244e-02 4.179438e-03 -2.442774e-03
3.300000e+09 4.334278e-03 -2.132780e-03 9.953720e-01 -2.473436e-02 9.953932e-01 -2.476975e-02 4.179869e-03 -2.520915e-03
3.400000e+09 4.346508e-03 -2.199989e-03 9.953413e-01 -2.548072e-02 9.953615e-01 -2.551676e-02 4.180270e-03 -2.599214e-03
3.500000e+09 4.359044e-03 -2.267419e-03 9.953098e-01 -2.622682e-02 9.953289e-01 -2.626347e-02 4.180635e-03 -2.677677e-03
3.600000e+09 4.371882e-03 -2.335074e-03 9.952775e-01 -2.697265e-02 9.952955e-01 -2.700987e-02 4.180962e-03 -2.756306e-03
3.700000e+09 4.385015e-03 -2.402959e-03 9.952443e-01 -2.771819e-02 9.952612e-01 -2.775595e-02 4.181246e-03 -2.835105e-03
3.800000e+09 4.398440e-03 -2.471079e-03 9.952103e-01 -2.846344e-02 9.952261e-01 -2.850170e-02 4.181484e-03 -2.914077e-03
3.900000e+09 4.412150e-03 -2.539439e-03 9.951755e-01 -2.920841e-02 9.951901e-01 -2.924712e-02 4.181670e-03 -2.993226e-03
4.000000e+09 4.426141e-03 -2.608043e-03 9.951398e-01 -2.995307e-02 9.951533e-01 -2.999221e-02 4.181802e-03 -3.072555e-03
4.100000e+09 4.440407e-03 -2.676895e-03 9.951034e-01 -3.069743e-02 9.951157e-01 -3.073696e-02 4.181874e-03 -3.152066e-03
4.200000e+09 4.454943e-03 -2.745999e-03 9.950662e-01 -3.144148e-02 9.950773e-01 -3.148136e-02 4.181882e-03 -3.231765e-03
4.300000e+09 4.469744e-03 -2.815361e-03 9.950281e-01 -3.218522e-02 9.950381e-01 -3.222541e-02 4.181822e-03 -3.311652e-03
4.400000e+09 4.484802e-03 -2.884982e-03 9.949893e-01 -3.292865e-02 9.949981e-01 -3.296910e-02 4.181690e-03 -3.391731e-03
4.500000e+09 4.500114e-03 -2.954869e-03 9.949497e-01 -3.367175e-02 9.949573e-01 -3.371244e-02 4.181480e-03 -3.472005e-03
4.600000e+09 4.515674e-03 -3.025023e-03 9.949093e-01 -3.441452e-02 9.949157e-01 -3.445540e-02 4.181189e-03 -3.552476e-03
4.700000e+09 4.531474e-03 -3.095449e-03 9.948681e-01 -3.515696e-02 9.948733e-01 -3.519799e-02 4.180811e-03 -3.633146e-03
4.800000e+09 4.547511e-03 -3.166150e-03 9.948262e-01 -3.589907e-02 9.948302e-01 -3.594021e-02 4.180342e-03 -3.714019e-03
4.900000e+09 4.563777e-03 -3.237130e-03 9.947835e-01 -3.664083e-02 9.947863e-01 -3.668205e-02 4.179778e-03 -3.795097e-03
5.000000e+09 4.580267e-03 -3.308391e-03 9.947401e-01 -3.738226e-02 9.947417e-01 -3.742351e-02 4.179112e-03 -3.876381e-03
5.100000e+09 4.596975e-03 -3.379936e-03 9.946960e-01 -3.812333e-02 9.946963e-01 -3.816458e-02 4.178342e-03 -3.957874e-03
5.200000e+09 4.613895e-03 -3.451769e-03 9.946511e-01 -3.886406e-02 9.946502e-01 -3.890527e-02 4.177461e-03 -4.039578e-03
5.300000e+09 4.631020e-03 -3.523891e-03 9.946054e-01 -3.960444e-02 9.946034e-01 -3.964556e-02 4.176465e-03 -4.121494e-03
5.400000e+09 4.648345e-03 -3.596306e-03 9.945591e-01 -4.034446e-02 9.945559e-01 -4.038545e-02 4.175349e-03 -4.203625e-03
5.500000e+09 4.665863e-03 -3.669016e-03 9.945121e-01 -4.108412e-02 9.945076e-01 -4.112495e-02 4.174108e-03 -4.285972e-03
5.600000e+09 4.683569e-03 -3.742024e-03 9.944643e-01 -4.182342e-02 9.944587e-01 -4.186404e-02 4.172736e-03 -4.368536e-03
5.700000e+09 4.701456e-03 -3.815330e-03 9.944158e-01 -4.256235e-02 9.944091e-01 -4.260274e-02 4.171230e-03 -4.451319e-03
5.800000e+09 4.719517e-03 -3.888938e-03 9.943667e-01 -4.330092e-02 9.943588e-01 -4.334102e-02 4.169583e-03 -4.534322e-03
5.900000e+09 4.737747e-03 -3.962850e-03 9.943169e-01 -4.403913e-02 9.943078e-01 -4.407891e-02 4.167791e-03 -4.617547e-03
6.000000e+09 4.756140e-03 -4.037066e-03 9.942663e-01 -4.477696e-02 9.942561e-01 -4.481638e-02 4.165849e-03 -4.700994e-03
6.100000e+09 4.774688e-03 -4.111588e-03 9.942152e-01 -4.551442e-02 9.942038e-01 -4.555345e-02 4.163751e-03 -4.784665e-03
6.200000e+09 4.793386e-03 -4.186419e-03 9.941633e-01 -4.625150e-02 9.941509e-01 -4.629010e-02 4.161493e-03 -4.868560e-03
6.300000e+09 4.812228e-03 -4.261558e-03 9.941108e-01 -4.698821e-02 9.940973e-01 -4.702634e-02 4.159069e-03 -4.952680e-03
6.400000e+09 4.831206e-03 -4.337008e-03 9.940577e-01 -4.772455e-02 9.940431e-01 -4.776217e-02 4.156475e-03 -5.037025e-03
6.500000e+09 4.850316e-03 -4.412769e-03 9.940039e-01 -4.846051e-02 9.939882e-01 -4.849759e-02 4.153704e-03 -5.121597e-03
6.600000e+09 4.869551e-03 -4.488842e-03 9.939495e-01 -4.919609e-02 9.939328e-01 -4.923259e-02 4.150752e-03 -5.206395e-03
6.700000e+09 4.888903e-03 -4.565228e-03 9.938945e-01 -4.993129e-02 9.938767e-01 -4.996718e-02 4.147614e-03 -5.291420e-03
6.800000e+09 4.908368e-03 -4.641928e-03 9.938388e-01 -5.066611e-02 9.938201e-01 -5.070136e-02 4.144285e-03 -5.376672e-03
6.900000e+09 4.927939e-03 -4.718941e-03 9.937825e-01 -5.140055e-02 9.937628e-01 -5.143512e-02 4.140759e-03 -5.462151e-03
7.000000e+09 4.947609e-03 -4.796268e-03 9.937257e-01 -5.213462e-02 9.937050e-01 -5.216847e-02 4.137031e-03 -5.547856e-03
7.100000e+09 4.967373e-03 -4.873910e-03 9.936682e-01 -5.286830e-02 9.936466e-01 -5.290141e-02 4.133097e-03 -5.633789e-03
7.200000e+09 4.987225e-03 -4.951867e-03 9.936101e-01 -5.360160e-02 9.935876e-01 -5.363394e-02 4.128951e-03 -5.719948e-03
7.300000e+09 5.007157e-03 -5.030137e-03 9.935515e-01 -5.433453e-02 9.935281e-01 -5.436605e-02 4.124589e-03 -5.806334e-03
7.400000e+09 5.027165e-03 -5.108722e-03 9.934923e-01 -5.506707e-02 9.934680e-01 -5.509776e-02 4.120004e-03 -5.892945e-03
7.500000e+09 5.047241e-03 -5.187620e-03 9.934325e-01 -5.579924e-02 9.934074e-01 -5.582906e-02 4.115192e-03 -5.979781e-03
7.600000e+09 5.067381e-03 -5.266832e-03 9.933721e-01 -5.653103e-02 9.933462e-01 -5.655995e-02 4.110149e-03 -6.066842e-03
7.700000e+09 5.087578e-03 -5.346356e-03 9.933112e-01 -5.726244e-02 9.932845e-01 -5.729044e-02 4.104868e-03 -6.154126e-03
7.800000e+09 5.107825e-03 -5.426192e-03 9.932498e-01 -5.799347e-02 9.932223e-01 -5.802053e-02 4.099346e-03 -6.241633e-03
7.900000e+09 5.128118e-03 -5.506340e-03 9.931878e-01 -5.872413e-02 9.931596e-01 -5.875022e-02 4.093577e-03 -6.329362e-03
8.000000e+09 5.148451e-03 -5.586797e-03 9.931253e-01 -5.945442e-02 9.930964e-01 -5.947951e-02 4.087556e-03 -6.417311e-03
8.100000e+09 5.168816e-03 -5.667563e-03 9.930622e-01 -6.018434e-02 9.930327e-01 -6.020840e-02 4.081279e-03 -6.505480e-03
8.200000e+09 5.189210e-03 -5.748638e-03 9.929986e-01 -6.091388e-02 9.929685e-01 -6.093690e-02 4.074740e-03 -6.593867e-03
8.300000e+09 5.209626e-03 -5.830019e-03 9.929345e-01 -6.164306e-02 9.929038e-01 -6.166501e-02 4.067936e-03 -6.682471e-03
8.400000e+09 5.230058e-03 -5.911704e-03 9.928699e-01 -6.237187e-02 9.928387e-01 -6.239273e-02 4.060860e-03 -6.771290e-03
8.500000e+09 5.250502e-03 -5.993694e-03 9.928048e-01 -6.310032e-02 9.927730e-01 -6.312007e-02 4.053509e-03 -6.860323e-03
8.600000e+09 5.270951e-03 -6.075985e-03 9.927392e-01 -6.382841e-02 9.927069e-01 -6.384703e-02 4.045877e-03 -6.949568e-03
8.700000e+09 5.291400e-03 -6.158576e-03 9.926731e-01 -6.455613e-02 9.926404e-01 -6.457360e-02 4.037961e-03 -7.039023e-03
8.800000e+09 5.311844e-03 -6.241466e-03 9.926065e-01 -6.528350e-02 9.925734e-01 -6.529981e-02 4.029756e-03 -7.128686e-03
8.900000e+09 5.332277e-03 -6.324652e-03 9.925394e-01 -6.601051e-02 9.925059e-01 -6.602564e-02 4.021257e-03 -7.218556e-03
9.000000e+09 5.352694e-03 -6.408132e-03 9.924719e-01 -6.673717e-02 9.924380e-01 -6.675111e-02 4.012459e-03 -7.308631e-03
9.100000e+09 5.373091e-03 -6.491905e-03 9.924039e-01 -6.746349e-02 9.923697e-01 -6.747621e-02 4.003359e-03 -7.398908e-03
9.200000e+09 5.393462e-03 -6.575967e-03 9.923354e-01 -6.818945e-02 9.923010e-01 -6.820095e-02 3.993952e-03 -7.489385e-03
9.300000e+09 5.413801e-03 -6.660316e-03 9.922664e-01 -6.891507e-02 9.922318e-01 -6.892534e-02 3.984233e-03 -7.580060e-03
9.400000e+09 5.434105e-03 -6.744951e-03 9.921970e-01 -6.964035e-02 9.921622e-01 -6.964937e-02 3.974199e-03 -7.670931e-03
9.500000e+09 5.454369e-03 -6.829868e-03 9.921272e-01 -7.036530e-02 9.920922e-01 -7.037306e-02 3.963845e-03 -7.761995e-03
9.600000e+09 5.474587e-03 -6.915066e-03 9.920569e-01 -7.108991e-02 9.920218e-01 -7.109641e-02 3.953168e-03 -7.853250e-03
9.700000e+09 5.494755e-03 -7.000540e-03 9.919862e-01 -7.181418e-02 9.919510e-01 -7.181942e-02 3.942163e-03 -7.944693e-03
9.800000e+09 5.514868e-03 -7.086289e-03 9.919151e-01 -7.253814e-02 9.918799e-01 -7.254209e-02 3.930826e-03 -8.036321e-03
9.900000e+09 5.534923e-03 -7.172310e-03 9.918435e-01 -7.326176e-02 9.918083e-01 -7.326444e-02 3.919153e-03 -8.128132e-03
1.000000e+10 5.554914e-03 -7.258599e-03 9.917715e-01 -7.398507e-02 9.917363e-01 -7.398646e-02 3.907141e-03 -8.220123e-03
1.010000e+10 5.574838e-03 -7.345154e-03 9.916991e-01 -7.470806e-02 9.916640e-01 -7.470816e-02 3.894786e-03 -8.312291e-03
1.020000e+10 5.594689e-03 -7.431972e-03 9.916262e-01 -7.543074e-02 9.915913e-01 -7.542955e-02 3.882083e-03 -8.404634e-03
1.030000e+10 5.614465e-03 -7.519049e-03 9.915530e-01 -7.615312e-02 9.915182e-01 -7.615062e-02 3.869030e-03 -8.497148e-03
1.040000e+10 5.634161e-03 -7.606383e-03 9.914793e-01 -7.687518e-02 9.914447e-01 -7.687140e-02 3.855623e-03 -8.589830e-03
1.050000e+10 5.653773e-03 -7.693969e-03 9.914053e-01 -7.759695e-02 9.913709e-01 -7.759187e-02 3.841858e-03 -8.682677e-03
1.060000e+10 5.673297e-03 -7.781806e-03 9.913308e-01 -7.831842e-02 9.912967e-01 -7.831205e-02 3.827732e-03 -8.775686e-03
1.070000e+10 5.692730e-03 -7.869889e-03 9.912560e-01 -7.903960e-02 9.912222e-01 -7.903194e-02 3.813242e-03 -8.868854e-03
1.080000e+10 5.712067e-03 -7.958215e-03 9.911807e-01 -7.976048e-02 9.911473e-01 -7.975155e-02 3.798384e-03 -8.962178e-03
1.090000e+10 5.731307e-03 -8.046780e-03 9.911051e-01 -8.048109e-02 9.910720e-01 -8.047088e-02 3.783155e-03 -9.055654e-03
1.100000e+10 5.750444e-03 -8.135582e-03 9.910291e-01 -8.120142e-02 9.909964e-01 -8.118994e-02 3.767553e-03 -9.149279e-03
1.110000e+10 5.769476e-03 -8.224616e-03 9.909527e-01 -8.192147e-02 9.909205e-01 -8.190872e-02 3.751573e-03 -9.243050e-03
1.120000e+10 5.788399e-03 -8.313879e-03 9.908759e-01 -8.264125e-02 9.908442e-01 -8.262725e-02 3.735213e-03 -9.336963e-03
1.130000e+10 5.807211e-03 -8.403366e-03 9.907987e-01 -8.336076e-02 9.907676e-01 -8.334552e-02 3.718470e-03 -9.431014e-03
1.140000e+10 5.825908e-03 -8.493076e-03 9.907212e-01 -8.408001e-02 9.906907e-01 -8.406353e-02 3.701342e-03 -9.525201e-03
1.150000e+10 5.844487e-03 -8.583003e-03 9.906433e-01 -8.479901e-02 9.906134e-01 -8.478131e-02 3.683825e-03 -9.619519e-03
1.160000e+10 5.862946e-03 -8.673144e-03 9.905651e-01 -8.551775e-02 9.905358e-01 -8.549884e-02 3.665917e-03 -9.713965e-03
1.170000e+10 5.881282e-03 -8.763495e-03 9.904865e-01 -8.623624e-02 9.904578e-01 -8.621613e-02 3.647616e-03 -9.808536e-03
1.180000e+10 5.899492e-03 -8.854053e-03 9.904075e-01 -8.695449e-02 9.903796e-01 -8.693320e-02 3.628918e-03 -9.903227e-03
1.190000e+10 5.917574e-03 -8.944813e-03 9.903281e-01 -8.767250e-02 9.903010e-01 -8.765004e-02 3.609822e-03 -9.998035e-03
1.200000e+10 5.935525e-03 -9.035772e-03 9.902484e-01 -8.839028e-02 9.902220e-01 -8.836667e-02 3.590325e-03 -1.009296e-02
1.210000e+10 5.953343e-03 -9.126926e-03 9.901684e-01 -8.910782e-02 9.901428e-01 -8.908308e-02 3.570425e-03 -1.018799e-02
1.220000e+10 5.971025e-03 -9.218271e-03 9.900879e-01 -8.982514e-02 9.900632e-01 -8.979928e-02 3.550120e-03 -1.028312e-02
1.230000e+10 5.988570e-03 -9.309802e-03 9.900072e-01 -9.054224e-02 9.899833e-01 -9.051528e-02 3.529407e-03 -1.037836e-02
1.240000e+10 6.005976e-03 -9.401516e-03 9.899261e-01 -9.125913e-02 9.899031e-01 -9.123109e-02 3.508285e-03 -1.047370e-02
1.250000e+10 6.023240e-03 -9.493410e-03 9.898446e-01 -9.197580e-02 9.898226e-01 -9.194670e-02 3.486751e-03 -1.056913e-02
1.260000e+10 6.040361e-03 -9.585479e-03 9.897628e-01 -9.269226e-02 9.897418e-01 -9.266213e-02 3.464805e-03 -1.066465e-02
1.270000e+10 6.057337e-03 -9.677718e-03 9.896806e-01 -9.340853e-02 9.896606e-01 -9.337738e-02 3.442443e-03 -1.076026e-02
1.280000e+10 6.074167e-03 -9.770125e-03 9.895981e-01 -9.412460e-02 9.895791e-01 -9.409245e-02 3.419665e-03 -1.085595e-02
1.290000e+10 6.090848e-03 -9.862695e-03 9.895152e-01 -9.484047e-02 9.894973e-01 -9.480736e-02 3.396468e-03 -1.095172e-02
1.300000e+10 6.107380e-03 -9.955425e-03 9.894320e-01 -9.555616e-02 9.894152e-01 -9.552209e-02 3.372851e-03 -1.104756e-02
1.310000e+10 6.123760e-03 -1.004831e-02 9.893485e-01 -9.627166e-02 9.893328e-01 -9.623668e-02 3.348814e-03 -1.114348e-02
1.320000e+10 6.139989e-03 -1.014135e-02 9.892646e-01 -9.698698e-02 9.892501e-01 -9.695110e-02 3.324353e-03 -1.123946e-02
1.330000e+10 6.156064e-03 -1.023453e-02 9.891804e-01 -9.770213e-02 9.891670e-01 -9.766538e-02 3.299469e-03 -1.133551e-02
1.340000e+10 6.171985e-03 -1.032785e-02 9.890958e-01 -9.841711e-02 9.890836e-01 -9.837951e-02 3.274159e-03 -1.143161e-02
1.350000e+10 6.187751e-03 -1.042132e-02 9.890109e-01 -9.913192e-02 9.889999e-01 -9.909351e-02 3.248423e-03 -1.152777e-02
1.360000e+10 6.203360e-03 -1.051492e-02 9.889257e-01 -9.984657e-02 9.889159e-01 -9.980737e-02 3.222260e-03 -1.162398e-02
1.370000e+10 6.218812e-03 -1.060866e-02 9.888401e-01 -1.005611e-01 9.888316e-01 -1.005211e-01 3.195668e-03 -1.172024e-02
1.380000e+10 6.234107e-03 -1.070252e-02 9.887541e-01 -1.012754e-01 9.887469e-01 -1.012347e-01 3.168647e-03 -1.181654e-02
1.390000e+10 6.249243e-03 -1.079650e-02 9.886679e-01 -1.019896e-01 9.886619e-01 -1.019482e-01 3.141195e-03 -1.191288e-02
1.400000e+10 6.264220e-03 -1.089060e-02 9.885812e-01 -1.027037e-01 9.885766e-01 -1.026616e-01 3.113313e-03 -1.200926e-02
1.410000e+10 6.279038e-03 -1.098483e-02 9.884943e-01 -1.034176e-01 9.884910e-01 -1.033749e-01 3.084999e-03 -1.210566e-02
1.420000e+10 6.293696e-03 -1.107916e-02 9.884070e-01 -1.041314e-01 9.884051e-01 -1.040880e-01 3.056253e-03 -1.220210e-02
1.430000e+10 6.308194e-03 -1.117360e-02 9.883193e-01 -1.048450e-01 9.883188e-01 -1.048011e-01 3.027074e-03 -1.229856e-02
1.440000e+10 6.322533e-03 -1.126815e-02 9.882314e-01 -1.055585e-01 9.882322e-01 -1.055141e-01 2.997462e-03 -1.239504e-02
1.450000e+10 6.336711e-03 -1.136279e-02 9.881430e-01 -1.062719e-01 9.881453e-01 -1.062269e-01 2.967415e-03 -1.249153e-02
1.460000e+10 6.350728e-03 -1.145754e-02 9.880544e-01 -1.069852e-01 9.880580e-01 -1.069397e-01 2.936935e-03 -1.258804e-02
1.470000e+10 6.364586e-03 -1.155237e-02 9.879653e-01 -1.076984e-01 9.879704e-01 -1.076524e-01 2.906021e-03 -1.268455e-02
1.480000e+10 6.378283e-03 -1.164730e-02 9.878760e-01 -1.084114e-01 9.878825e-01 -1.083651e-01 2.874672e-03 -1.278107e-02
1.490000e+10 6.391821e-03 -1.174232e-02 9.877862e-01 -1.091244e-01 9.877942e-01 -1.090776e-01 2.842888e-03 -1.287759e-02
1.500000e+10 6.405199e-03 -1.183741e-02 9.876962e-01 -1.098372e-01 9.877056e-01 -1.097901e-01 2.810670e-03 -1.297411e-02
1.510000e+10 6.418417e-03 -1.193259e-02 9.876058e-01 -1.105500e-01 9.876167e-01 -1.105025e-01 2.778017e-03 -1.307062e-02
1.520000e+10 6.431477e-03 -1.202784e-02 9.875150e-01 -1.112626e-01 9.875274e-01 -1.112149e-01 2.744929e-03 -1.316712e-02
1.530000e+10 6.444379e-03 -1.212317e-02 9.874239e-01 -1.119752e-01 9.874377e-01 -1.119272e-01 2.711407e-03 -1.326360e-02
1.540000e+10 6.457123e-03 -1.221856e-02 9.873324e-01 -1.126877e-01 9.873477e-01 -1.126394e-01 2.677450e-03 -1.336007e-02
1.550000e+10 6.469710e-03 -1.231402e-02 9.872406e-01 -1.134000e-01 9.872574e-01 -1.133516e-01 2.643060e-03 -1.345652e-02
1.560000e+10 6.482140e-03 -1.240954e-02 9.871484e-01 -1.141124e-01 9.871667e-01 -1.140637e-01 2.608235e-03 -1.355293e-02
1.570000e+10 6.494415e-03 -1.250512e-02 9.870558e-01 -1.148246e-01 9.870757e-01 -1.147758e-01 2.572977e-03 -1.364932e-02
1.580000e+10 6.506535e-03 -1.260076e-02 9.869629e-01 -1.155367e-01 9.869843e-01 -1.154879e-01 2.537287e-03 -1.374568e-02
1.590000e+10 6.518501e-03 -1.269644e-02 9.868696e-01 -1.162488e-01 9.868925e-01 -1.161999e-01 2.501163e-03 -1.384200e-02
1.600000e+10 6.530315e-03 -1.279218e-02 9.867760e-01 -1.169608e-01 9.868004e-01 -1.169119e-01 2.464608e-03 -1.393828e-02
1.610000e+10 6.541976e-03 -1.288797e-02 9.866820e-01 -1.176728e-01 9.867079e-01 -1.176238e-01 2.427622e-03 -1.403452e-02
1.620000e+10 6.553487e-03 -1.298379e-02 9.865876e-01 -1.183847e-01 9.866150e-01 -1.183357e-01 2.390205e-03 -1.413071e-02
1.630000e+10 6.564848e-03 -1.307966e-02 9.864929e-01 -1.190965e-01 9.865218e-01 -1.190476e-01 2.352358e-03 -1.422685e-02
1.640000e+10 6.576060e-03 -1.317557e-02 9.863977e-01 -1.198083e-01 9.864281e-01 -1.197595e-01 2.314081e-03 -1.432294e-02
