#   Hz   S  RI   R   50
!
0.000000e+00 4.144075e-03 0.000000e+00 9.959449e-01 0.000000e+00 9.959431e-01 0.000000e+00 4.129148e-03 0.000000e+00
1.000000e+08 4.144425e-03 -1.642087e-04 9.959438e-01 -1.061960e-03 9.959421e-01 -1.062820e-03 4.129232e-03 -1.732035e-04
2.000000e+08 4.145474e-03 -3.284390e-04 9.959407e-01 -2.123890e-03 9.959389e-01 -2.125612e-03 4.129485e-03 -3.464260e-04
3.000000e+08 4.147221e-03 -4.927123e-04 9.959354e-01 -3.185762e-03 9.959337e-01 -3.188344e-03 4.129904e-03 -5.196861e-04
4.000000e+08 4.149665e-03 -6.570500e-04 9.959280e-01 -4.247546e-03 9.959263e-01 -4.250989e-03 4.130490e-03 -6.930029e-04
5.000000e+08 4.152803e-03 -8.214737e-04 9.959185e-01 -5.309213e-03 9.959168e-01 -5.313517e-03 4.131239e-03 -8.663950e-04
6.000000e+08 4.156633e-03 -9.860044e-04 9.959069e-01 -6.370734e-03 9.959053e-01 -6.375899e-03 4.132149e-03 -1.039881e-03
7.000000e+08 4.161150e-03 -1.150663e-03 9.958933e-01 -7.432080e-03 9.958916e-01 -7.438107e-03 4.133216e-03 -1.213480e-03
8.000000e+08 4.166351e-03 -1.315472e-03 9.958775e-01 -8.493222e-03 9.958759e-01 -8.500111e-03 4.134437e-03 -1.387209e-03
9.000000e+08 4.172230e-03 -1.480451e-03 9.958596e-01 -9.554132e-03 9.958581e-01 -9.561884e-03 4.135807e-03 -1.561088e-03
1.000000e+09 4.178783e-03 -1.645620e-03 9.958397e-01 -1.061478e-02 9.958382e-01 -1.062340e-02 4.137320e-03 -1.735135e-03
1.100000e+09 4.186002e-03 -1.811001e-03 9.958177e-01 -1.167514e-02 9.958162e-01 -1.168462e-02 4.138970e-03 -1.909366e-03
1.200000e+09 4.193882e-03 -1.976614e-03 9.957937e-01 -1.273519e-02 9.957923e-01 -1.274553e-02 4.140753e-03 -2.083801e-03
1.300000e+09 4.202415e-03 -2.142479e-03 9.957676e-01 -1.379490e-02 9.957662e-01 -1.380610e-02 4.142659e-03 -2.258456e-03
1.400000e+09 4.211592e-03 -2.308615e-03 9.957394e-01 -1.485423e-02 9.957381e-01 -1.486630e-02 4.144683e-03 -2.433349e-03
1.500000e+09 4.221406e-03 -2.475043e-03 9.957093e-01 -1.591317e-02 9.957080e-01 -1.592611e-02 4.146815e-03 -2.608497e-03
1.600000e+09 4.231847e-03 -2.641780e-03 9.956771e-01 -1.697169e-02 9.956759e-01 -1.698549e-02 4.149048e-03 -2.783916e-03
1.700000e+09 4.242906e-03 -2.808847e-03 9.956430e-01 -1.802976e-02 9.956418e-01 -1.804443e-02 4.151372e-03 -2.959623e-03
1.800000e+09 4.254572e-03 -2.976261e-03 9.956068e-01 -1.908736e-02 9.956058e-01 -1.910289e-02 4.153778e-03 -3.135634e-03
1.900000e+09 4.266835e-03 -3.144042e-03 9.955687e-01 -2.014446e-02 9.955677e-01 -2.016086e-02 4.156255e-03 -3.311964e-03
2.000000e+09 4.279684e-03 -3.312205e-03 9.955286e-01 -2.120104e-02 9.955277e-01 -2.121831e-02 4.158792e-03 -3.488629e-03
2.100000e+09 4.293106e-03 -3.480770e-03 9.954866e-01 -2.225708e-02 9.954858e-01 -2.227522e-02 4.161379e-03 -3.665645e-03
2.200000e+09 4.307089e-03 -3.649753e-03 9.954426e-01 -2.331255e-02 9.954419e-01 -2.333157e-02 4.164005e-03 -3.843025e-03
2.300000e+09 4.321621e-03 -3.819171e-03 9.953968e-01 -2.436743e-02 9.953962e-01 -2.438732e-02 4.166656e-03 -4.020783e-03
2.400000e+09 4.336688e-03 -3.989040e-03 9.953491e-01 -2.542171e-02 9.953485e-01 -2.544247e-02 4.169321e-03 -4.198935e-03
2.500000e+09 4.352277e-03 -4.159375e-03 9.952994e-01 -2.647535e-02 9.952990e-01 -2.649698e-02 4.171986e-03 -4.377492e-03
2.600000e+09 4.368374e-03 -4.330192e-03 9.952480e-01 -2.752834e-02 9.952477e-01 -2.755085e-02 4.174639e-03 -4.556469e-03
2.700000e+09 4.384963e-03 -4.501505e-03 9.951947e-01 -2.858066e-02 9.951945e-01 -2.860405e-02 4.177266e-03 -4.735876e-03
2.800000e+09 4.402032e-03 -4.673330e-03 9.951396e-01 -2.963230e-02 9.951395e-01 -2.965656e-02 4.179852e-03 -4.915728e-03
2.900000e+09 4.419563e-03 -4.845679e-03 9.950827e-01 -3.068322e-02 9.950828e-01 -3.070837e-02 4.182384e-03 -5.096034e-03
3.000000e+09 4.437542e-03 -5.018565e-03 9.950241e-01 -3.173343e-02 9.950242e-01 -3.175945e-02 4.184846e-03 -5.276806e-03
3.100000e+09 4.455953e-03 -5.192003e-03 9.949636e-01 -3.278289e-02 9.949639e-01 -3.280979e-02 4.187224e-03 -5.458056e-03
3.200000e+09 4.474779e-03 -5.366003e-03 9.949015e-01 -3.383160e-02 9.949019e-01 -3.385938e-02 4.189502e-03 -5.639792e-03
3.300000e+09 4.494005e-03 -5.540578e-03 9.948377e-01 -3.487953e-02 9.948382e-01 -3.490819e-02 4.191665e-03 -5.822024e-03
3.400000e+09 4.513612e-03 -5.715739e-03 9.947721e-01 -3.592668e-02 9.947728e-01 -3.595623e-02 4.193697e-03 -6.004762e-03
3.500000e+09 4.533585e-03 -5.891497e-03 9.947050e-01 -3.697303e-02 9.947058e-01 -3.700346e-02 4.195582e-03 -6.188015e-03
3.600000e+09 4.553905e-03 -6.067860e-03 9.946361e-01 -3.801857e-02 9.946371e-01 -3.804989e-02 4.197304e-03 -6.371789e-03
3.700000e+09 4.574556e-03 -6.244840e-03 9.945657e-01 -3.906329e-02 9.945668e-01 -3.909549e-02 4.198845e-03 -6.556093e-03
3.800000e+09 4.595520e-03 -6.422445e-03 9.944937e-01 -4.010717e-02 9.944949e-01 -4.014026e-02 4.200190e-03 -6.740934e-03
3.900000e+09 4.616779e-03 -6.600684e-03 9.944201e-01 -4.115021e-02 9.944214e-01 -4.118419e-02 4.201322e-03 -6.926318e-03
4.000000e+09 4.638315e-03 -6.779563e-03 9.943449e-01 -4.219239e-02 9.943464e-01 -4.222726e-02 4.202223e-03 -7.112251e-03
4.100000e+09 4.660109e-03 -6.959091e-03 9.942682e-01 -4.323371e-02 9.942699e-01 -4.326947e-02 4.202877e-03 -7.298739e-03
4.200000e+09 4.682145e-03 -7.139275e-03 9.941901e-01 -4.427416e-02 9.941919e-01 -4.431081e-02 4.203266e-03 -7.485786e-03
4.300000e+09 4.704402e-03 -7.320120e-03 9.941104e-01 -4.531373e-02 9.941124e-01 -4.535128e-02 4.203373e-03 -7.673397e-03
4.400000e+09 4.726864e-03 -7.501632e-03 9.940293e-01 -4.635242e-02 9.940315e-01 -4.639086e-02 4.203180e-03 -7.861575e-03
4.500000e+09 4.749511e-03 -7.683816e-03 9.939468e-01 -4.739022e-02 9.939491e-01 -4.742956e-02 4.202671e-03 -8.050324e-03
4.600000e+09 4.772325e-03 -7.866676e-03 9.938629e-01 -4.842713e-02 9.938654e-01 -4.846736e-02 4.201828e-03 -8.239647e-03
4.700000e+09 4.795287e-03 -8.050217e-03 9.937776e-01 -4.946314e-02 9.937802e-01 -4.950427e-02 4.200633e-03 -8.429545e-03
4.800000e+09 4.818379e-03 -8.234442e-03 9.936909e-01 -5.049824e-02 9.936937e-01 -5.054027e-02 4.199070e-03 -8.620021e-03
4.900000e+09 4.841583e-03 -8.419353e-03 9.936029e-01 -5.153245e-02 9.936059e-01 -5.157538e-02 4.197119e-03 -8.811076e-03
5.000000e+09 4.864880e-03 -8.604953e-03 9.935136e-01 -5.256575e-02 9.935168e-01 -5.260958e-02 4.194765e-03 -9.002710e-03
5.100000e+09 4.888252e-03 -8.791244e-03 9.934231e-01 -5.359814e-02 9.934264e-01 -5.364287e-02 4.191989e-03 -9.194923e-03
5.200000e+09 4.911680e-03 -8.978227e-03 9.933312e-01 -5.462963e-02 9.933347e-01 -5.467526e-02 4.188776e-03 -9.387715e-03
5.300000e+09 4.935146e-03 -9.165903e-03 9.932381e-01 -5.566021e-02 9.932418e-01 -5.570674e-02 4.185106e-03 -9.581085e-03
5.400000e+09 4.958632e-03 -9.354271e-03 9.931438e-01 -5.668989e-02 9.931477e-01 -5.673733e-02 4.180964e-03 -9.775032e-03
5.500000e+09 4.982121e-03 -9.543331e-03 9.930483e-01 -5.771867e-02 9.930524e-01 -5.776701e-02 4.176332e-03 -9.969554e-03
5.600000e+09 5.005593e-03 -9.733083e-03 9.929516e-01 -5.874654e-02 9.929559e-01 -5.879579e-02 4.171193e-03 -1.016465e-02
5.700000e+09 5.029032e-03 -9.923525e-03 9.928538e-01 -5.977352e-02 9.928582e-01 -5.982367e-02 4.165532e-03 -1.036031e-02
5.800000e+09 5.052420e-03 -1.011466e-02 9.927548e-01 -6.079961e-02 9.927594e-01 -6.085067e-02 4.159330e-03 -1.055654e-02
5.900000e+09 5.075740e-03 -1.030647e-02 9.926547e-01 -6.182481e-02 9.926596e-01 -6.187677e-02 4.152573e-03 -1.075334e-02
6.000000e+09 5.098974e-03 -1.049897e-02 9.925536e-01 -6.284912e-02 9.925586e-01 -6.290200e-02 4.145244e-03 -1.095069e-02
6.100000e+09 5.122106e-03 -1.069215e-02 9.924513e-01 -6.387256e-02 9.924565e-01 -6.392635e-02 4.137326e-03 -1.114860e-02
6.200000e+09 5.145118e-03 -1.088601e-02 9.923481e-01 -6.489513e-02 9.923535e-01 -6.494982e-02 4.128805e-03 -1.134705e-02
6.300000e+09 5.167995e-03 -1.108054e-02 9.922438e-01 -6.591683e-02 9.922493e-01 -6.597244e-02 4.119664e-03 -1.154605e-02
6.400000e+09 5.190720e-03 -1.127573e-02 9.921384e-01 -6.693768e-02 9.921442e-01 -6.699419e-02 4.109889e-03 -1.174559e-02
6.500000e+09 5.213277e-03 -1.147159e-02 9.920321e-01 -6.795768e-02 9.920381e-01 -6.801510e-02 4.099464e-03 -1.194566e-02
6.600000e+09 5.235650e-03 -1.166811e-02 9.919248e-01 -6.897683e-02 9.919310e-01 -6.903517e-02 4.088374e-03 -1.214626e-02
6.700000e+09 5.257825e-03 -1.186528e-02 9.918166e-01 -6.999516e-02 9.918230e-01 -7.005441e-02 4.076606e-03 -1.234737e-02
6.800000e+09 5.279785e-03 -1.206309e-02 9.917074e-01 -7.101266e-02 9.917140e-01 -7.107282e-02 4.064144e-03 -1.254899e-02
6.900000e+09 5.301516e-03 -1.226154e-02 9.915973e-01 -7.202935e-02 9.916041e-01 -7.209043e-02 4.050976e-03 -1.275112e-02
7.000000e+09 5.323003e-03 -1.246063e-02 9.914863e-01 -7.304524e-02 9.914933e-01 -7.310723e-02 4.037086e-03 -1.295374e-02
7.100000e+09 5.344233e-03 -1.266034e-02 9.913743e-01 -7.406033e-02 9.913816e-01 -7.412323e-02 4.022463e-03 -1.315685e-02
7.200000e+09 5.365190e-03 -1.286067e-02 9.912616e-01 -7.507464e-02 9.912690e-01 -7.513846e-02 4.007092e-03 -1.336044e-02
7.300000e+09 5.385863e-03 -1.306161e-02 9.911479e-01 -7.608818e-02 9.911556e-01 -7.615292e-02 3.990962e-03 -1.356449e-02
7.400000e+09 5.406236e-03 -1.326315e-02 9.910334e-01 -7.710097e-02 9.910413e-01 -7.716661e-02 3.974059e-03 -1.376901e-02
7.500000e+09 5.426298e-03 -1.346529e-02 9.909181e-01 -7.811300e-02 9.909262e-01 -7.817956e-02 3.956371e-03 -1.397398e-02
7.600000e+09 5.446036e-03 -1.366801e-02 9.908020e-01 -7.912431e-02 9.908103e-01 -7.919178e-02 3.937888e-03 -1.417939e-02
7.700000e+09 5.465438e-03 -1.387130e-02 9.906850e-01 -8.013488e-02 9.906935e-01 -8.020327e-02 3.918597e-03 -1.438523e-02
7.800000e+09 5.484491e-03 -1.407517e-02 9.905673e-01 -8.114475e-02 9.905760e-01 -8.121406e-02 3.898487e-03 -1.459149e-02
7.900000e+09 5.503184e-03 -1.427959e-02 9.904487e-01 -8.215392e-02 9.904577e-01 -8.222414e-02 3.877548e-03 -1.479816e-02
8.000000e+09 5.521506e-03 -1.448456e-02 9.903294e-01 -8.316241e-02 9.903386e-01 -8.323354e-02 3.855768e-03 -1.500523e-02
8.100000e+09 5.539447e-03 -1.469007e-02 9.902093e-01 -8.417023e-02 9.902188e-01 -8.424227e-02 3.833139e-03 -1.521269e-02
8.200000e+09 5.556995e-03 -1.489611e-02 9.900885e-01 -8.517739e-02 9.900982e-01 -8.525035e-02 3.809651e-03 -1.542053e-02
8.300000e+09 5.574141e-03 -1.510266e-02 9.899670e-01 -8.618390e-02 9.899768e-01 -8.625778e-02 3.785293e-03 -1.562874e-02
8.400000e+09 5.590874e-03 -1.530973e-02 9.898447e-01 -8.718978e-02 9.898548e-01 -8.726457e-02 3.760057e-03 -1.583730e-02
8.500000e+09 5.607187e-03 -1.551729e-02 9.897216e-01 -8.819505e-02 9.897320e-01 -8.827075e-02 3.733935e-03 -1.604620e-02
8.600000e+09 5.623069e-03 -1.572534e-02 9.895979e-01 -8.919971e-02 9.896085e-01 -8.927633e-02 3.706918e-03 -1.625544e-02
8.700000e+09 5.638512e-03 -1.593387e-02 9.894734e-01 -9.020379e-02 9.894842e-01 -9.028132e-02 3.678998e-03 -1.646499e-02
8.800000e+09 5.653508e-03 -1.614286e-02 9.893483e-01 -9.120729e-02 9.893593e-01 -9.128573e-02 3.650168e-03 -1.667486e-02
8.900000e+09 5.668049e-03 -1.635231e-02 9.892224e-01 -9.221022e-02 9.892337e-01 -9.228958e-02 3.620420e-03 -1.688502e-02
9.000000e+09 5.682127e-03 -1.656220e-02 9.890959e-01 -9.321261e-02 9.891074e-01 -9.329289e-02 3.589748e-03 -1.709547e-02
9.100000e+09 5.695736e-03 -1.677252e-02 9.889686e-01 -9.421447e-02 9.889804e-01 -9.429565e-02 3.558145e-03 -1.730619e-02
9.200000e+09 5.708868e-03 -1.698326e-02 9.888407e-01 -9.521580e-02 9.888527e-01 -9.529790e-02 3.525604e-03 -1.751717e-02
9.300000e+09 5.721517e-03 -1.719442e-02 9.887121e-01 -9.621663e-02 9.887243e-01 -9.629965e-02 3.492121e-03 -1.772840e-02
9.400000e+09 5.733678e-03 -1.740597e-02 9.885828e-01 -9.721697e-02 9.885953e-01 -9.730089e-02 3.457690e-03 -1.793987e-02
9.500000e+09 5.745344e-03 -1.761792e-02 9.884529e-01 -9.821683e-02 9.884656e-01 -9.830166e-02 3.422305e-03 -1.815155e-02
9.600000e+09 5.756510e-03 -1.783024e-02 9.883222e-01 -9.921622e-02 9.883352e-01 -9.930197e-02 3.385962e-03 -1.836345e-02
9.700000e+09 5.767171e-03 -1.804292e-02 9.881909e-01 -1.002152e-01 9.882042e-01 -1.003018e-01 3.348656e-03 -1.857555e-02
9.800000e+09 5.777323e-03 -1.825596e-02 9.880590e-01 -1.012137e-01 9.880725e-01 -1.013012e-01 3.310384e-03 -1.878784e-02
9.900000e+09 5.786960e-03 -1.846934e-02 9.879264e-01 -1.022117e-01 9.879401e-01 -1.023002e-01 3.271141e-03 -1.900029e-02
1.000000e+10 5.796081e-03 -1.868305e-02 9.877931e-01 -1.032094e-01 9.878071e-01 -1.032988e-01 3.230925e-03 -1.921291e-02
1.010000e+10 5.804679e-03 -1.889708e-02 9.876591e-01 -1.042067e-01 9.876734e-01 -1.042970e-01 3.189731e-03 -1.942568e-02
1.020000e+10 5.812753e-03 -1.911142e-02 9.875245e-01 -1.052036e-01 9.875390e-01 -1.052948e-01 3.147558e-03 -1.963859e-02
1.030000e+10 5.820300e-03 -1.932606e-02 9.873892e-01 -1.062001e-01 9.874040e-01 -1.062922e-01 3.104403e-03 -1.985162e-02
1.040000e+10 5.827316e-03 -1.954098e-02 9.872533e-01 -1.071962e-01 9.872683e-01 -1.072892e-01 3.060263e-03 -2.006477e-02
1.050000e+10 5.833800e-03 -1.975618e-02 9.871167e-01 -1.081920e-01 9.871320e-01 -1.082859e-01 3.015138e-03 -2.027801e-02
1.060000e+10 5.839749e-03 -1.997164e-02 9.869794e-01 -1.091875e-01 9.869950e-01 -1.092823e-01 2.969024e-03 -2.049135e-02
1.070000e+10 5.845162e-03 -2.018736e-02 9.868415e-01 -1.101826e-01 9.868573e-01 -1.102784e-01 2.921922e-03 -2.070476e-02
1.080000e+10 5.850037e-03 -2.040332e-02 9.867028e-01 -1.111774e-01 9.867190e-01 -1.112741e-01 2.873830e-03 -2.091823e-02
1.090000e+10 5.854373e-03 -2.061951e-02 9.865635e-01 -1.121719e-01 9.865799e-01 -1.122695e-01 2.824747e-03 -2.113176e-02
1.100000e+10 5.858169e-03 -2.083592e-02 9.864236e-01 -1.131662e-01 9.864403e-01 -1.132646e-01 2.774673e-03 -2.134533e-02
1.110000e+10 5.861425e-03 -2.105255e-02 9.862829e-01 -1.141601e-01 9.862999e-01 -1.142595e-01 2.723609e-03 -2.155892e-02
1.120000e+10 5.864141e-03 -2.126937e-02 9.861416e-01 -1.151538e-01 9.861588e-01 -1.152541e-01 2.671554e-03 -2.177254e-02
1.130000e+10 5.866316e-03 -2.148638e-02 9.859996e-01 -1.161472e-01 9.860171e-01 -1.162484e-01 2.618508e-03 -2.198616e-02
1.140000e+10 5.867951e-03 -2.170357e-02 9.858569e-01 -1.171404e-01 9.858747e-01 -1.172425e-01 2.564472e-03 -2.219978e-02
1.150000e+10 5.869045e-03 -2.192093e-02 9.857134e-01 -1.181333e-01 9.857315e-01 -1.182363e-01 2.509448e-03 -2.241338e-02
1.160000e+10 5.869601e-03 -2.213846e-02 9.855693e-01 -1.191260e-01 9.855877e-01 -1.192299e-01 2.453436e-03 -2.262695e-02
1.170000e+10 5.869619e-03 -2.235613e-02 9.854245e-01 -1.201184e-01 9.854432e-01 -1.202233e-01 2.396438e-03 -2.284048e-02
1.180000e+10 5.869099e-03 -2.257394e-02 9.852790e-01 -1.211107e-01 9.852980e-01 -1.212164e-01 2.338456e-03 -2.305397e-02
1.190000e+10 5.868044e-03 -2.279188e-02 9.851327e-01 -1.221027e-01 9.851520e-01 -1.222094e-01 2.279490e-03 -2.326740e-02
1.200000e+10 5.866455e-03 -2.300994e-02 9.849858e-01 -1.230946e-01 9.850054e-01 -1.232021e-01 2.219544e-03 -2.348076e-02
1.210000e+10 5.864334e-03 -2.322812e-02 9.848381e-01 -1.240863e-01 9.848580e-01 -1.241947e-01 2.158620e-03 -2.369403e-02
1.220000e+10 5.861683e-03 -2.344640e-02 9.846897e-01 -1.250777e-01 9.847098e-01 -1.251871e-01 2.096720e-03 -2.390722e-02
1.230000e+10 5.858504e-03 -2.366477e-02 9.845405e-01 -1.260690e-01 9.845610e-01 -1.261793e-01 2.033846e-03 -2.412030e-02
1.240000e+10 5.854800e-03 -2.388323e-02 9.843906e-01 -1.270602e-01 9.844114e-01 -1.271713e-01 1.970002e-03 -2.433328e-02
1.250000e+10 5.850574e-03 -2.410177e-02 9.842399e-01 -1.280512e-01 9.842610e-01 -1.281632e-01 1.905191e-03 -2.454614e-02
1.260000e+10 5.845827e-03 -2.432037e-02 9.840885e-01 -1.290420e-01 9.841099e-01 -1.291549e-01 1.839417e-03 -2.475886e-02
1.270000e+10 5.840564e-03 -2.453904e-02 9.839363e-01 -1.300327e-01 9.839581e-01 -1.301465e-01 1.772681e-03 -2.497145e-02
1.280000e+10 5.834787e-03 -2.475776e-02 9.837834e-01 -1.310232e-01 9.838054e-01 -1.311379e-01 1.704988e-03 -2.518389e-02
1.290000e+10 5.828499e-03 -2.497652e-02 9.836296e-01 -1.320136e-01 9.836520e-01 -1.321292e-01 1.636342e-03 -2.539617e-02
1.300000e+10 5.821705e-03 -2.519533e-02 9.834751e-01 -1.330038e-01 9.834978e-01 -1.331204e-01 1.566747e-03 -2.560829e-02
1.310000e+10 5.814407e-03 -2.541416e-02 9.833198e-01 -1.339940e-01 9.833428e-01 -1.341114e-01 1.496206e-03 -2.582023e-02
1.320000e+10 5.806609e-03 -2.563301e-02 9.831637e-01 -1.349840e-01 9.831871e-01 -1.351024e-01 1.424724e-03 -2.603199e-02
1.330000e+10 5.798315e-03 -2.585188e-02 9.830068e-01 -1.359739e-01 9.830305e-01 -1.360932e-01 1.352305e-03 -2.624356e-02
1.340000e+10 5.789529e-03 -2.607076e-02 9.828490e-01 -1.369636e-01 9.828731e-01 -1.370838e-01 1.278953e-03 -2.645493e-02
1.350000e+10 5.780256e-03 -2.628964e-02 9.826905e-01 -1.379533e-01 9.827149e-01 -1.380744e-01 1.204673e-03 -2.666610e-02
1.360000e+10 5.770498e-03 -2.650852e-02 9.825311e-01 -1.389428e-01 9.825559e-01 -1.390649e-01 1.129470e-03 -2.687705e-02
1.370000e+10 5.760261e-03 -2.672739e-02 9.823709e-01 -1.399323e-01 9.823960e-01 -1.400552e-01 1.053348e-03 -2.708778e-02
1.380000e+10 5.749549e-03 -2.694624e-02 9.822098e-01 -1.409216e-01 9.822353e-01 -1.410455e-01 9.763122e-04 -2.729827e-02
1.390000e+10 5.738367e-03 -2.716507e-02 9.820479e-01 -1.419109e-01 9.820738e-01 -1.420356e-01 8.983672e-04 -2.750853e-02
1.400000e+10 5.726718e-03 -2.738387e-02 9.818852e-01 -1.429000e-01 9.819114e-01 -1.430257e-01 8.195183e-04 -2.771855e-02
1.410000e+10 5.714608e-03 -2.760264e-02 9.817215e-01 -1.438891e-01 9.817481e-01 -1.440156e-01 7.397704e-04 -2.792832e-02
1.420000e+10 5.702041e-03 -2.782137e-02 9.815571e-01 -1.448780e-01 9.815840e-01 -1.450055e-01 6.591287e-04 -2.813783e-02
1.430000e+10 5.689021e-03 -2.804005e-02 9.813917e-01 -1.458669e-01 9.814190e-01 -1.459953e-01 5.775984e-04 -2.834708e-02
1.440000e+10 5.675555e-03 -2.825869e-02 9.812254e-01 -1.468556e-01 9.812531e-01 -1.469849e-01 4.951849e-04 -2.855606e-02
1.450000e+10 5.661646e-03 -2.847727e-02 9.810583e-01 -1.478443e-01 9.810863e-01 -1.479745e-01 4.118934e-04 -2.876476e-02
1.460000e+10 5.647299e-03 -2.869579e-02 9.808903e-01 -1.488329e-01 9.809187e-01 -1.489640e-01 3.277294e-04 -2.897318e-02
1.470000e+10 5.632519e-03 -2.891426e-02 9.807213e-01 -1.498213e-01 9.807501e-01 -1.499534e-01 2.426981e-04 -2.918132e-02
1.480000e+10 5.617312e-03 -2.913265e-02 9.805515e-01 -1.508097e-01 9.805806e-01 -1.509427e-01 1.568052e-04 -2.938916e-02
1.490000e+10 5.601682e-03 -2.935098e-02 9.803807e-01 -1.517980e-01 9.804103e-01 -1.519319e-01 7.005611e-05 -2.959671e-02
1.500000e+10 5.585634e-03 -2.956923e-02 9.802090e-01 -1.527862e-01 9.802390e-01 -1.529210e-01 -1.754369e-05 -2.980395e-02
1.510000e+10 5.569173e-03 -2.978740e-02 9.800364e-01 -1.537743e-01 9.800667e-01 -1.539101e-01 -1.059886e-04 -3.001088e-02
1.520000e+10 5.552305e-03 -3.000549e-02 9.798628e-01 -1.547623e-01 9.798936e-01 -1.548990e-01 -1.952732e-04 -3.021751e-02
1.530000e+10 5.535034e-03 -3.022350e-02 9.796883e-01 -1.557503e-01 9.797195e-01 -1.558878e-01 -2.853917e-04 -3.042381e-02
1.540000e+10 5.517365e-03 -3.044141e-02 9.795129e-01 -1.567381e-01 9.795444e-01 -1.568766e-01 -3.763387e-04 -3.062980e-02
1.550000e+10 5.499304e-03 -3.065924e-02 9.793364e-01 -1.577258e-01 9.793684e-01 -1.578652e-01 -4.681085e-04 -3.083545e-02
1.560000e+10 5.480854e-03 -3.087697e-02 9.791591e-01 -1.587134e-01 9.791915e-01 -1.588538e-01 -5.606956e-04 -3.104078e-02
1.570000e+10 5.462023e-03 -3.109461e-02 9.789808e-01 -1.597009e-01 9.790136e-01 -1.598422e-01 -6.540944e-04 -3.124578e-02
1.580000e+10 5.442813e-03 -3.131215e-02 9.788014e-01 -1.606883e-01 9.788347e-01 -1.608306e-01 -7.482994e-04 -3.145044e-02
1.590000e+10 5.423231e-03 -3.152959e-02 9.786212e-01 -1.616756e-01 9.786548e-01 -1.618188e-01 -8.433050e-04 -3.165476e-02
1.600000e+10 5.403281e-03 -3.174692e-02 9.784399e-01 -1.626628e-01 9.784740e-01 -1.628069e-01 -9.391056e-04 -3.185873e-02
1.610000e+10 5.382968e-03 -3.196415e-02 9.782577e-01 -1.636499e-01 9.782922e-01 -1.637950e-01 -1.035696e-03 -3.206236e-02
1.620000e+10 5.362298e-03 -3.218127e-02 9.780744e-01 -1.646369e-01 9.781094e-01 -1.647829e-01 -1.133070e-03 -3.226563e-02
