#   Hz   S  RI   R   50
!
0.000000e+00 6.104474e-03 0.000000e+00 9.937068e-01 0.000000e+00 9.937068e-01 0.000000e+00 6.104474e-03 0.000000e+00
2.750000e+08 6.106077e-03 7.971420e-06 9.937010e-01 -2.940758e-03 9.937010e-01 -2.940758e-03 6.106077e-03 7.971420e-06
5.500000e+08 6.110881e-03 1.577595e-05 9.936837e-01 -5.881336e-03 9.936837e-01 -5.881336e-03 6.110881e-03 1.577595e-05
8.250000e+08 6.118871e-03 2.324742e-05 9.936549e-01 -8.821552e-03 9.936549e-01 -8.821552e-03 6.118871e-03 2.324742e-05
1.100000e+09 6.130024e-03 3.022106e-05 9.936147e-01 -1.176123e-02 9.936147e-01 -1.176123e-02 6.130024e-03 3.022106e-05
1.375000e+09 6.144305e-03 3.653424e-05 9.935629e-01 -1.470018e-02 9.935629e-01 -1.470018e-02 6.144305e-03 3.653424e-05
1.650000e+09 6.161671e-03 4.202708e-05 9.934998e-01 -1.763825e-02 9.934998e-01 -1.763825e-02 6.161671e-03 4.202708e-05
1.925000e+09 6.182071e-03 4.654316e-05 9.934252e-01 -2.057525e-02 9.934252e-01 -2.057525e-02 6.182071e-03 4.654316e-05
2.200000e+09 6.205442e-03 4.993013e-05 9.933394e-01 -2.351102e-02 9.933394e-01 -2.351102e-02 6.205442e-03 4.993013e-05
2.475000e+09 6.231716e-03 5.204028e-05 9.932423e-01 -2.644539e-02 9.932423e-01 -2.644539e-02 6.231716e-03 5.204028e-05
2.750000e+09 6.260816e-03 5.273111e-05 9.931339e-01 -2.937821e-02 9.931339e-01 -2.937821e-02 6.260816e-03 5.273111e-05
3.025000e+09 6.292656e-03 5.186582e-05 9.930145e-01 -3.230933e-02 9.930145e-01 -3.230933e-02 6.292656e-03 5.186582e-05
3.300000e+09 6.327146e-03 4.931380e-05 9.928840e-01 -3.523858e-02 9.928840e-01 -3.523858e-02 6.327146e-03 4.931380e-05
3.575000e+09 6.364186e-03 4.495105e-05 9.927426e-01 -3.816584e-02 9.927426e-01 -3.816584e-02 6.364186e-03 4.495105e-05
3.850000e+09 6.403673e-03 3.866050e-05 9.925903e-01 -4.109097e-02 9.925903e-01 -4.109097e-02 6.403673e-03 3.866050e-05
4.125000e+09 6.445497e-03 3.033240e-05 9.924272e-01 -4.401384e-02 9.924272e-01 -4.401384e-02 6.445497e-03 3.033240e-05
4.400000e+09 6.489543e-03 1.986450e-05 9.922534e-01 -4.693432e-02 9.922534e-01 -4.693432e-02 6.489543e-03 1.986450e-05
4.675000e+09 6.535692e-03 7.162352e-06 9.920691e-01 -4.985230e-02 9.920691e-01 -4.985230e-02 6.535692e-03 7.162352e-06
4.950000e+09 6.583823e-03 -7.860617e-06 9.918743e-01 -5.276768e-02 9.918743e-01 -5.276768e-02 6.583823e-03 -7.860617e-06
5.225000e+09 6.633809e-03 -2.528294e-05 9.916692e-01 -5.568035e-02 9.916692e-01 -5.568035e-02 6.633809e-03 -2.528294e-05
5.500000e+09 6.685523e-03 -4.517506e-05 9.914538e-01 -5.859022e-02 9.914538e-01 -5.859022e-02 6.685523e-03 -4.517506e-05
5.775000e+09 6.738835e-03 -6.759935e-05 9.912283e-01 -6.149720e-02 9.912283e-01 -6.149720e-02 6.738835e-03 -6.759935e-05
6.050000e+09 6.793613e-03 -9.261011e-05 9.909928e-01 -6.440122e-02 9.909928e-01 -6.440122e-02 6.793613e-03 -9.261011e-05
6.325000e+09 6.849726e-03 -1.202537e-04 9.907474e-01 -6.730221e-02 9.907474e-01 -6.730221e-02 6.849726e-03 -1.202537e-04
6.600000e+09 6.907041e-03 -1.505685e-04 9.904922e-01 -7.020010e-02 9.904922e-01 -7.020010e-02 6.907041e-03 -1.505685e-04
6.875000e+09 6.965427e-03 -1.835854e-04 9.902273e-01 -7.309484e-02 9.902273e-01 -7.309484e-02 6.965427e-03 -1.835854e-04
7.150000e+09 7.024751e-03 -2.193277e-04 9.899529e-01 -7.598637e-02 9.899529e-01 -7.598637e-02 7.024751e-03 -2.193277e-04
7.425000e+09 7.084885e-03 -2.578112e-04 9.896690e-01 -7.887465e-02 9.896690e-01 -7.887465e-02 7.084885e-03 -2.578112e-04
7.700000e+09 7.145698e-03 -2.990450e-04 9.893758e-01 -8.175965e-02 9.893758e-01 -8.175965e-02 7.145698e-03 -2.990450e-04
7.975000e+09 7.207066e-03 -3.430312e-04 9.890734e-01 -8.464134e-02 9.890734e-01 -8.464134e-02 7.207066e-03 -3.430312e-04
8.250000e+09 7.268863e-03 -3.897656e-04 9.887620e-01 -8.751969e-02 9.887620e-01 -8.751969e-02 7.268863e-03 -3.897656e-04
8.525000e+09 7.330967e-03 -4.392376e-04 9.884415e-01 -9.039468e-02 9.884415e-01 -9.039468e-02 7.330967e-03 -4.392376e-04
8.800000e+09 7.393262e-03 -4.914311e-04 9.881121e-01 -9.326630e-02 9.881121e-01 -9.326630e-02 7.393262e-03 -4.914311e-04
9.075000e+09 7.455629e-03 -5.463242e-04 9.877740e-01 -9.613454e-02 9.877740e-01 -9.613454e-02 7.455629e-03 -5.463242e-04
9.350000e+09 7.517959e-03 -6.038899e-04 9.874271e-01 -9.899940e-02 9.874271e-01 -9.899940e-02 7.517959e-03 -6.038899e-04
9.625000e+09 7.580142e-03 -6.640965e-04 9.870717e-01 -1.018609e-01 9.870717e-01 -1.018609e-01 7.580142e-03 -6.640965e-04
9.900000e+09 7.642075e-03 -7.269078e-04 9.867078e-01 -1.047190e-01 9.867078e-01 -1.047190e-01 7.642075e-03 -7.269078e-04
1.017500e+10 7.703656e-03 -7.922834e-04 9.863355e-01 -1.075737e-01 9.863355e-01 -1.075737e-01 7.703656e-03 -7.922834e-04
1.045000e+10 7.764789e-03 -8.601791e-04 9.859549e-01 -1.104251e-01 9.859549e-01 -1.104251e-01 7.764789e-03 -8.601791e-04
1.072500e+10 7.825382e-03 -9.305474e-04 9.855660e-01 -1.132731e-01 9.855660e-01 -1.132731e-01 7.825382e-03 -9.305474e-04
1.100000e+10 7.885346e-03 -1.003338e-03 9.851691e-01 -1.161178e-01 9.851691e-01 -1.161178e-01 7.885346e-03 -1.003338e-03
1.127500e+10 7.944599e-03 -1.078496e-03 9.847640e-01 -1.189593e-01 9.847640e-01 -1.189593e-01 7.944599e-03 -1.078496e-03
1.155000e+10 8.003059e-03 -1.155967e-03 9.843510e-01 -1.217974e-01 9.843510e-01 -1.217974e-01 8.003059e-03 -1.155967e-03
1.182500e+10 8.060653e-03 -1.235693e-03 9.839300e-01 -1.246323e-01 9.839300e-01 -1.246323e-01 8.060653e-03 -1.235693e-03
1.210000e+10 8.117309e-03 -1.317613e-03 9.835012e-01 -1.274640e-01 9.835012e-01 -1.274640e-01 8.117309e-03 -1.317613e-03
1.237500e+10 8.172960e-03 -1.401666e-03 9.830646e-01 -1.302924e-01 9.830646e-01 -1.302924e-01 8.172960e-03 -1.401666e-03
1.265000e+10 8.227543e-03 -1.487789e-03 9.826203e-01 -1.331177e-01 9.826203e-01 -1.331177e-01 8.227543e-03 -1.487789e-03
1.292500e+10 8.281000e-03 -1.575918e-03 9.821683e-01 -1.359399e-01 9.821683e-01 -1.359399e-01 8.281000e-03 -1.575918e-03
1.320000e+10 8.333277e-03 -1.665989e-03 9.817087e-01 -1.387590e-01 9.817087e-01 -1.387590e-01 8.333277e-03 -1.665989e-03
1.347500e+10 8.384322e-03 -1.757935e-03 9.812415e-01 -1.415750e-01 9.812415e-01 -1.415750e-01 8.384322e-03 -1.757935e-03
1.375000e+10 8.434088e-03 -1.851691e-03 9.807668e-01 -1.443879e-01 9.807668e-01 -1.443879e-01 8.434088e-03 -1.851691e-03
1.402500e+10 8.482534e-03 -1.947191e-03 9.802846e-01 -1.471979e-01 9.802846e-01 -1.471979e-01 8.482534e-03 -1.947191e-03
1.430000e+10 8.529618e-03 -2.044370e-03 9.797950e-01 -1.500049e-01 9.797950e-01 -1.500049e-01 8.529618e-03 -2.044370e-03
1.457500e+10 8.575306e-03 -2.143160e-03 9.792980e-01 -1.528089e-01 9.792980e-01 -1.528089e-01 8.575306e-03 -2.143160e-03
1.485000e+10 8.619564e-03 -2.243498e-03 9.787937e-01 -1.556101e-01 9.787937e-01 -1.556101e-01 8.619564e-03 -2.243498e-03
1.512500e+10 8.662362e-03 -2.345316e-03 9.782820e-01 -1.584083e-01 9.782820e-01 -1.584083e-01 8.662362e-03 -2.345316e-03
1.540000e+10 8.703675e-03 -2.448552e-03 9.777630e-01 -1.612038e-01 9.777630e-01 -1.612038e-01 8.703675e-03 -2.448552e-03
1.567500e+10 8.743479e-03 -2.553141e-03 9.772368e-01 -1.639964e-01 9.772368e-01 -1.639964e-01 8.743479e-03 -2.553141e-03
1.595000e+10 8.781754e-03 -2.659019e-03 9.767034e-01 -1.667862e-01 9.767034e-01 -1.667862e-01 8.781754e-03 -2.659019e-03
1.622500e+10 8.818481e-03 -2.766126e-03 9.761627e-01 -1.695733e-01 9.761627e-01 -1.695733e-01 8.818481e-03 -2.766126e-03
1.650000e+10 8.853646e-03 -2.874399e-03 9.756149e-01 -1.723577e-01 9.756149e-01 -1.723577e-01 8.853646e-03 -2.874399e-03
1.677500e+10 8.887235e-03 -2.983778e-03 9.750598e-01 -1.751394e-01 9.750598e-01 -1.751394e-01 8.887235e-03 -2.983778e-03
1.705000e+10 8.919239e-03 -3.094206e-03 9.744977e-01 -1.779185e-01 9.744977e-01 -1.779185e-01 8.919239e-03 -3.094206e-03
1.732500e+10 8.949649e-03 -3.205622e-03 9.739284e-01 -1.806949e-01 9.739284e-01 -1.806949e-01 8.949649e-03 -3.205622e-03
1.760000e+10 8.978458e-03 -3.317972e-03 9.733519e-01 -1.834687e-01 9.733519e-01 -1.834687e-01 8.978458e-03 -3.317972e-03
1.787500e+10 9.005663e-03 -3.431200e-03 9.727684e-01 -1.862399e-01 9.727684e-01 -1.862399e-01 9.005663e-03 -3.431200e-03
1.815000e+10 9.031261e-03 -3.545251e-03 9.721778e-01 -1.890085e-01 9.721778e-01 -1.890085e-01 9.031261e-03 -3.545251e-03
1.842500e+10 9.055252e-03 -3.660074e-03 9.715801e-01 -1.917746e-01 9.715801e-01 -1.917746e-01 9.055252e-03 -3.660074e-03
1.870000e+10 9.077636e-03 -3.775615e-03 9.709753e-01 -1.945382e-01 9.709753e-01 -1.945382e-01 9.077636e-03 -3.775615e-03
1.897500e+10 9.098416e-03 -3.891827e-03 9.703635e-01 -1.972993e-01 9.703635e-01 -1.972993e-01 9.098416e-03 -3.891827e-03
1.925000e+10 9.117597e-03 -4.008660e-03 9.697446e-01 -2.000580e-01 9.697446e-01 -2.000580e-01 9.117597e-03 -4.008660e-03
1.952500e+10 9.135183e-03 -4.126066e-03 9.691186e-01 -2.028141e-01 9.691186e-01 -2.028141e-01 9.135183e-03 -4.126066e-03
1.980000e+10 9.151182e-03 -4.244000e-03 9.684856e-01 -2.055679e-01 9.684856e-01 -2.055679e-01 9.151182e-03 -4.244000e-03
2.007500e+10 9.165599e-03 -4.362418e-03 9.678455e-01 -2.083192e-01 9.678455e-01 -2.083192e-01 9.165599e-03 -4.362418e-03
2.035000e+10 9.178446e-03 -4.481276e-03 9.671984e-01 -2.110680e-01 9.671984e-01 -2.110680e-01 9.178446e-03 -4.481276e-03
2.062500e+10 9.189730e-03 -4.600532e-03 9.665443e-01 -2.138145e-01 9.665443e-01 -2.138145e-01 9.189730e-03 -4.600532e-03
2.090000e+10 9.199464e-03 -4.720147e-03 9.658831e-01 -2.165586e-01 9.658831e-01 -2.165586e-01 9.199464e-03 -4.720147e-03
2.117500e+10 9.207657e-03 -4.840081e-03 9.652148e-01 -2.193003e-01 9.652148e-01 -2.193003e-01 9.207657e-03 -4.840081e-03
2.145000e+10 9.214323e-03 -4.960296e-03 9.645395e-01 -2.220397e-01 9.645395e-01 -2.220397e-01 9.214323e-03 -4.960296e-03
2.172500e+10 9.219474e-03 -5.080756e-03 9.638572e-01 -2.247767e-01 9.638572e-01 -2.247767e-01 9.219474e-03 -5.080756e-03
2.200000e+10 9.223124e-03 -5.201426e-03 9.631679e-01 -2.275113e-01 9.631679e-01 -2.275113e-01 9.223124e-03 -5.201426e-03
2.227500e+10 9.225287e-03 -5.322271e-03 9.624715e-01 -2.302436e-01 9.624715e-01 -2.302436e-01 9.225287e-03 -5.322271e-03
2.255000e+10 9.225977e-03 -5.443259e-03 9.617680e-01 -2.329736e-01 9.617680e-01 -2.329736e-01 9.225977e-03 -5.443259e-03
2.282500e+10 9.225209e-03 -5.564359e-03 9.610575e-01 -2.357012e-01 9.610575e-01 -2.357012e-01 9.225209e-03 -5.564359e-03
2.310000e+10 9.223000e-03 -5.685540e-03 9.603399e-01 -2.384264e-01 9.603399e-01 -2.384264e-01 9.223000e-03 -5.685540e-03
2.337500e+10 9.219363e-03 -5.806774e-03 9.596153e-01 -2.411494e-01 9.596153e-01 -2.411494e-01 9.219363e-03 -5.806774e-03
2.365000e+10 9.214317e-03 -5.928031e-03 9.588837e-01 -2.438700e-01 9.588837e-01 -2.438700e-01 9.214317e-03 -5.928031e-03
2.392500e+10 9.207876e-03 -6.049285e-03 9.581449e-01 -2.465883e-01 9.581449e-01 -2.465883e-01 9.207876e-03 -6.049285e-03
2.420000e+10 9.200058e-03 -6.170510e-03 9.573991e-01 -2.493043e-01 9.573991e-01 -2.493043e-01 9.200058e-03 -6.170510e-03
2.447500e+10 9.190879e-03 -6.291681e-03 9.566462e-01 -2.520179e-01 9.566462e-01 -2.520179e-01 9.190879e-03 -6.291681e-03
2.475000e+10 9.180356e-03 -6.412775e-03 9.558863e-01 -2.547292e-01 9.558863e-01 -2.547292e-01 9.180356e-03 -6.412775e-03
2.502500e+10 9.168506e-03 -6.533769e-03 9.551193e-01 -2.574381e-01 9.551193e-01 -2.574381e-01 9.168506e-03 -6.533769e-03
2.530000e+10 9.155346e-03 -6.654640e-03 9.543452e-01 -2.601448e-01 9.543452e-01 -2.601448e-01 9.155346e-03 -6.654640e-03
2.557500e+10 9.140893e-03 -6.775367e-03 9.535640e-01 -2.628490e-01 9.535640e-01 -2.628490e-01 9.140893e-03 -6.775367e-03
2.585000e+10 9.125165e-03 -6.895931e-03 9.527757e-01 -2.655509e-01 9.527757e-01 -2.655509e-01 9.125165e-03 -6.895931e-03
2.612500e+10 9.108178e-03 -7.016313e-03 9.519803e-01 -2.682505e-01 9.519803e-01 -2.682505e-01 9.108178e-03 -7.016313e-03
2.640000e+10 9.089951e-03 -7.136493e-03 9.511778e-01 -2.709477e-01 9.511778e-01 -2.709477e-01 9.089951e-03 -7.136493e-03
2.667500e+10 9.070499e-03 -7.256455e-03 9.503682e-01 -2.736425e-01 9.503682e-01 -2.736425e-01 9.070499e-03 -7.256455e-03
2.695000e+10 9.049840e-03 -7.376181e-03 9.495516e-01 -2.763350e-01 9.495516e-01 -2.763350e-01 9.049840e-03 -7.376181e-03
2.722500e+10 9.027991e-03 -7.495656e-03 9.487277e-01 -2.790250e-01 9.487277e-01 -2.790250e-01 9.027991e-03 -7.495656e-03
2.750000e+10 9.004969e-03 -7.614864e-03 9.478968e-01 -2.817127e-01 9.478968e-01 -2.817127e-01 9.004969e-03 -7.614864e-03
2.777500e+10 8.980791e-03 -7.733790e-03 9.470588e-01 -2.843979e-01 9.470588e-01 -2.843979e-01 8.980791e-03 -7.733790e-03
2.805000e+10 8.955473e-03 -7.852422e-03 9.462136e-01 -2.870808e-01 9.462136e-01 -2.870808e-01 8.955473e-03 -7.852422e-03
2.832500e+10 8.929032e-03 -7.970745e-03 9.453613e-01 -2.897612e-01 9.453613e-01 -2.897612e-01 8.929032e-03 -7.970745e-03
2.860000e+10 8.901484e-03 -8.088747e-03 9.445019e-01 -2.924391e-01 9.445019e-01 -2.924391e-01 8.901484e-03 -8.088747e-03
2.887500e+10 8.872846e-03 -8.206416e-03 9.436354e-01 -2.951146e-01 9.436354e-01 -2.951146e-01 8.872846e-03 -8.206416e-03
2.915000e+10 8.843133e-03 -8.323740e-03 9.427617e-01 -2.977877e-01 9.427617e-01 -2.977877e-01 8.843133e-03 -8.323740e-03
2.942500e+10 8.812362e-03 -8.440709e-03 9.418808e-01 -3.004582e-01 9.418808e-01 -3.004582e-01 8.812362e-03 -8.440709e-03
2.970000e+10 8.780548e-03 -8.557313e-03 9.409928e-01 -3.031263e-01 9.409928e-01 -3.031263e-01 8.780548e-03 -8.557313e-03
2.997500e+10 8.747707e-03 -8.673541e-03 9.400977e-01 -3.057918e-01 9.400977e-01 -3.057918e-01 8.747707e-03 -8.673541e-03
3.025000e+10 8.713854e-03 -8.789385e-03 9.391954e-01 -3.084548e-01 9.391954e-01 -3.084548e-01 8.713854e-03 -8.789385e-03
3.052500e+10 8.679005e-03 -8.904835e-03 9.382860e-01 -3.111153e-01 9.382860e-01 -3.111153e-01 8.679005e-03 -8.904835e-03
3.080000e+10 8.643174e-03 -9.019884e-03 9.373694e-01 -3.137732e-01 9.373694e-01 -3.137732e-01 8.643174e-03 -9.019884e-03
3.107500e+10 8.606376e-03 -9.134524e-03 9.364457e-01 -3.164286e-01 9.364457e-01 -3.164286e-01 8.606376e-03 -9.134524e-03
3.135000e+10 8.568625e-03 -9.248747e-03 9.355148e-01 -3.190814e-01 9.355148e-01 -3.190814e-01 8.568625e-03 -9.248747e-03
3.162500e+10 8.529936e-03 -9.362546e-03 9.345767e-01 -3.217315e-01 9.345767e-01 -3.217315e-01 8.529936e-03 -9.362546e-03
3.190000e+10 8.490323e-03 -9.475915e-03 9.336315e-01 -3.243791e-01 9.336315e-01 -3.243791e-01 8.490323e-03 -9.475915e-03
3.217500e+10 8.449800e-03 -9.588847e-03 9.326791e-01 -3.270240e-01 9.326791e-01 -3.270240e-01 8.449800e-03 -9.588847e-03
3.245000e+10 8.408380e-03 -9.701337e-03 9.317195e-01 -3.296663e-01 9.317195e-01 -3.296663e-01 8.408380e-03 -9.701337e-03
3.272500e+10 8.366077e-03 -9.813379e-03 9.307528e-01 -3.323058e-01 9.307528e-01 -3.323058e-01 8.366077e-03 -9.813379e-03
3.300000e+10 8.322903e-03 -9.924968e-03 9.297789e-01 -3.349427e-01 9.297789e-01 -3.349427e-01 8.322903e-03 -9.924968e-03
3.327500e+10 8.278873e-03 -1.003610e-02 9.287978e-01 -3.375769e-01 9.287978e-01 -3.375769e-01 8.278873e-03 -1.003610e-02
3.355000e+10 8.233999e-03 -1.014677e-02 9.278096e-01 -3.402084e-01 9.278096e-01 -3.402084e-01 8.233999e-03 -1.014677e-02
3.382500e+10 8.188293e-03 -1.025697e-02 9.268142e-01 -3.428371e-01 9.268142e-01 -3.428371e-01 8.188293e-03 -1.025697e-02
3.410000e+10 8.141767e-03 -1.036670e-02 9.258116e-01 -3.454631e-01 9.258116e-01 -3.454631e-01 8.141767e-03 -1.036670e-02
3.437500e+10 8.094434e-03 -1.047596e-02 9.248019e-01 -3.480862e-01 9.248019e-01 -3.480862e-01 8.094434e-03 -1.047596e-02
3.465000e+10 8.046306e-03 -1.058474e-02 9.237850e-01 -3.507066e-01 9.237850e-01 -3.507066e-01 8.046306e-03 -1.058474e-02
3.492500e+10 7.997393e-03 -1.069304e-02 9.227609e-01 -3.533241e-01 9.227609e-01 -3.533241e-01 7.997393e-03 -1.069304e-02
3.520000e+10 7.947708e-03 -1.080085e-02 9.217296e-01 -3.559388e-01 9.217296e-01 -3.559388e-01 7.947708e-03 -1.080085e-02
3.547500e+10 7.897262e-03 -1.090818e-02 9.206912e-01 -3.585507e-01 9.206912e-01 -3.585507e-01 7.897262e-03 -1.090818e-02
3.575000e+10 7.846066e-03 -1.101502e-02 9.196456e-01 -3.611596e-01 9.196456e-01 -3.611596e-01 7.846066e-03 -1.101502e-02
3.602500e+10 7.794129e-03 -1.112136e-02 9.185928e-01 -3.637657e-01 9.185928e-01 -3.637657e-01 7.794129e-03 -1.112136e-02
3.630000e+10 7.741464e-03 -1.122722e-02 9.175329e-01 -3.663688e-01 9.175329e-01 -3.663688e-01 7.741464e-03 -1.122722e-02
3.657500e+10 7.688080e-03 -1.133258e-02 9.164658e-01 -3.689690e-01 9.164658e-01 -3.689690e-01 7.688080e-03 -1.133258e-02
3.685000e+10 7.633988e-03 -1.143744e-02 9.153916e-01 -3.715662e-01 9.153916e-01 -3.715662e-01 7.633988e-03 -1.143744e-02
3.712500e+10 7.579197e-03 -1.154180e-02 9.143102e-01 -3.741604e-01 9.143102e-01 -3.741604e-01 7.579197e-03 -1.154180e-02
3.740000e+10 7.523716e-03 -1.164566e-02 9.132216e-01 -3.767516e-01 9.132216e-01 -3.767516e-01 7.523716e-03 -1.164566e-02
3.767500e+10 7.467557e-03 -1.174902e-02 9.121258e-01 -3.793398e-01 9.121258e-01 -3.793398e-01 7.467557e-03 -1.174902e-02
3.795000e+10 7.410727e-03 -1.185188e-02 9.110230e-01 -3.819250e-01 9.110230e-01 -3.819250e-01 7.410727e-03 -1.185188e-02
3.822500e+10 7.353236e-03 -1.195423e-02 9.099129e-01 -3.845071e-01 9.099129e-01 -3.845071e-01 7.353236e-03 -1.195423e-02
3.850000e+10 7.295093e-03 -1.205608e-02 9.087957e-01 -3.870861e-01 9.087957e-01 -3.870861e-01 7.295093e-03 -1.205608e-02
3.877500e+10 7.236307e-03 -1.215743e-02 9.076714e-01 -3.896619e-01 9.076714e-01 -3.896619e-01 7.236307e-03 -1.215743e-02
3.905000e+10 7.176886e-03 -1.225826e-02 9.065399e-01 -3.922347e-01 9.065399e-01 -3.922347e-01 7.176886e-03 -1.225826e-02
3.932500e+10 7.116838e-03 -1.235859e-02 9.054013e-01 -3.948042e-01 9.054013e-01 -3.948042e-01 7.116838e-03 -1.235859e-02
3.960000e+10 7.056172e-03 -1.245842e-02 9.042555e-01 -3.973706e-01 9.042555e-01 -3.973706e-01 7.056172e-03 -1.245842e-02
3.987500e+10 6.994896e-03 -1.255773e-02 9.031026e-01 -3.999339e-01 9.031026e-01 -3.999339e-01 6.994896e-03 -1.255773e-02
4.015000e+10 6.933017e-03 -1.265654e-02 9.019426e-01 -4.024938e-01 9.019426e-01 -4.024938e-01 6.933017e-03 -1.265654e-02
4.042500e+10 6.870543e-03 -1.275484e-02 9.007755e-01 -4.050506e-01 9.007755e-01 -4.050506e-01 6.870543e-03 -1.275484e-02
4.070000e+10 6.807482e-03 -1.285263e-02 8.996012e-01 -4.076040e-01 8.996012e-01 -4.076040e-01 6.807482e-03 -1.285263e-02
4.097500e+10 6.743840e-03 -1.294991e-02 8.984198e-01 -4.101542e-01 8.984198e-01 -4.101542e-01 6.743840e-03 -1.294991e-02
4.125000e+10 6.679626e-03 -1.304668e-02 8.972313e-01 -4.127011e-01 8.972313e-01 -4.127011e-01 6.679626e-03 -1.304668e-02
4.152500e+10 6.614846e-03 -1.314295e-02 8.960357e-01 -4.152446e-01 8.960357e-01 -4.152446e-01 6.614846e-03 -1.314295e-02
4.180000e+10 6.549506e-03 -1.323870e-02 8.948330e-01 -4.177848e-01 8.948330e-01 -4.177848e-01 6.549506e-03 -1.323870e-02
4.207500e+10 6.483614e-03 -1.333395e-02 8.936232e-01 -4.203216e-01 8.936232e-01 -4.203216e-01 6.483614e-03 -1.333395e-02
4.235000e+10 6.417176e-03 -1.342869e-02 8.924063e-01 -4.228550e-01 8.924063e-01 -4.228550e-01 6.417176e-03 -1.342869e-02
4.262500e+10 6.350198e-03 -1.352292e-02 8.911823e-01 -4.253850e-01 8.911823e-01 -4.253850e-01 6.350198e-03 -1.352292e-02
4.290000e+10 6.282687e-03 -1.361665e-02 8.899512e-01 -4.279116e-01 8.899512e-01 -4.279116e-01 6.282687e-03 -1.361665e-02
4.317500e+10 6.214648e-03 -1.370986e-02 8.887130e-01 -4.304347e-01 8.887130e-01 -4.304347e-01 6.214648e-03 -1.370986e-02
4.345000e+10 6.146088e-03 -1.380257e-02 8.874678e-01 -4.329543e-01 8.874678e-01 -4.329543e-01 6.146088e-03 -1.380257e-02
4.372500e+10 6.077012e-03 -1.389478e-02 8.862155e-01 -4.354704e-01 8.862155e-01 -4.354704e-01 6.077012e-03 -1.389478e-02
4.400000e+10 6.007427e-03 -1.398647e-02 8.849562e-01 -4.379829e-01 8.849562e-01 -4.379829e-01 6.007427e-03 -1.398647e-02
4.427500e+10 5.937336e-03 -1.407767e-02 8.836898e-01 -4.404919e-01 8.836898e-01 -4.404919e-01 5.937336e-03 -1.407767e-02
4.455000e+10 5.866746e-03 -1.416835e-02 8.824163e-01 -4.429973e-01 8.824163e-01 -4.429973e-01 5.866746e-03 -1.416835e-02
4.482500e+10 5.795663e-03 -1.425853e-02 8.811358e-01 -4.454992e-01 8.811358e-01 -4.454992e-01 5.795663e-03 -1.425853e-02
4.510000e+10 5.724091e-03 -1.434821e-02 8.798483e-01 -4.479974e-01 8.798483e-01 -4.479974e-01 5.724091e-03 -1.434821e-02
