#   Hz   S  RI   R   50
!
0.000000e+00 5.074163e-03 0.000000e+00 9.950610e-01 0.000000e+00 9.950645e-01 0.000000e+00 5.090547e-03 0.000000e+00
1.000000e+08 5.074688e-03 2.596759e-05 9.950598e-01 -1.116580e-03 9.950633e-01 -1.116598e-03 5.091046e-03 2.616116e-05
2.000000e+08 5.076264e-03 5.190986e-05 9.950562e-01 -2.233127e-03 9.950597e-01 -2.233163e-03 5.092541e-03 5.229730e-05
3.000000e+08 5.078888e-03 7.780149e-05 9.950502e-01 -3.349606e-03 9.950537e-01 -3.349660e-03 5.095031e-03 7.838344e-05
4.000000e+08 5.082560e-03 1.036172e-04 9.950418e-01 -4.465985e-03 9.950453e-01 -4.466057e-03 5.098516e-03 1.043946e-04
5.000000e+08 5.087277e-03 1.293318e-04 9.950310e-01 -5.582230e-03 9.950345e-01 -5.582320e-03 5.102992e-03 1.303059e-04
6.000000e+08 5.093035e-03 1.549203e-04 9.950178e-01 -6.698307e-03 9.950213e-01 -6.698415e-03 5.108456e-03 1.560926e-04
7.000000e+08 5.099832e-03 1.803574e-04 9.950022e-01 -7.814185e-03 9.950057e-01 -7.814310e-03 5.114905e-03 1.817299e-04
8.000000e+08 5.107662e-03 2.056185e-04 9.949843e-01 -8.929829e-03 9.949878e-01 -8.929972e-03 5.122335e-03 2.071933e-04
9.000000e+08 5.116521e-03 2.306787e-04 9.949639e-01 -1.004521e-02 9.949674e-01 -1.004537e-02 5.130739e-03 2.324583e-04
1.000000e+09 5.126403e-03 2.555135e-04 9.949412e-01 -1.116029e-02 9.949447e-01 -1.116046e-02 5.140113e-03 2.575007e-04
1.100000e+09 5.137300e-03 2.800985e-04 9.949162e-01 -1.227504e-02 9.949197e-01 -1.227523e-02 5.150449e-03 2.822964e-04
1.200000e+09 5.149207e-03 3.044095e-04 9.948888e-01 -1.338942e-02 9.948922e-01 -1.338963e-02 5.161742e-03 3.068215e-04
1.300000e+09 5.162115e-03 3.284226e-04 9.948591e-01 -1.450342e-02 9.948625e-01 -1.450364e-02 5.173983e-03 3.310524e-04
1.400000e+09 5.176015e-03 3.521141e-04 9.948270e-01 -1.561698e-02 9.948304e-01 -1.561723e-02 5.187163e-03 3.549656e-04
1.500000e+09 5.190900e-03 3.754604e-04 9.947926e-01 -1.673010e-02 9.947960e-01 -1.673035e-02 5.201275e-03 3.785381e-04
1.600000e+09 5.206758e-03 3.984386e-04 9.947560e-01 -1.784272e-02 9.947594e-01 -1.784299e-02 5.216307e-03 4.017470e-04
1.700000e+09 5.223581e-03 4.210256e-04 9.947170e-01 -1.895483e-02 9.947204e-01 -1.895512e-02 5.232251e-03 4.245696e-04
1.800000e+09 5.241356e-03 4.431991e-04 9.946758e-01 -2.006639e-02 9.946792e-01 -2.006669e-02 5.249095e-03 4.469839e-04
1.900000e+09 5.260073e-03 4.649368e-04 9.946323e-01 -2.117738e-02 9.946357e-01 -2.117770e-02 5.266827e-03 4.689678e-04
2.000000e+09 5.279719e-03 4.862168e-04 9.945866e-01 -2.228776e-02 9.945899e-01 -2.228809e-02 5.285437e-03 4.904999e-04
2.100000e+09 5.300282e-03 5.070177e-04 9.945387e-01 -2.339752e-02 9.945420e-01 -2.339786e-02 5.304911e-03 5.115589e-04
2.200000e+09 5.321748e-03 5.273185e-04 9.944885e-01 -2.450661e-02 9.944918e-01 -2.450697e-02 5.325236e-03 5.321240e-04
2.300000e+09 5.344104e-03 5.470985e-04 9.944362e-01 -2.561502e-02 9.944395e-01 -2.561539e-02 5.346399e-03 5.521749e-04
2.400000e+09 5.367335e-03 5.663373e-04 9.943817e-01 -2.672272e-02 9.943850e-01 -2.672310e-02 5.368385e-03 5.716916e-04
2.500000e+09 5.391428e-03 5.850153e-04 9.943251e-01 -2.782968e-02 9.943283e-01 -2.783007e-02 5.391180e-03 5.906545e-04
2.600000e+09 5.416365e-03 6.031130e-04 9.942663e-01 -2.893587e-02 9.942695e-01 -2.893627e-02 5.414769e-03 6.090446e-04
2.700000e+09 5.442133e-03 6.206116e-04 9.942055e-01 -3.004128e-02 9.942086e-01 -3.004169e-02 5.439137e-03 6.268432e-04
2.800000e+09 5.468714e-03 6.374926e-04 9.941425e-01 -3.114588e-02 9.941457e-01 -3.114630e-02 5.464266e-03 6.440322e-04
2.900000e+09 5.496091e-03 6.537381e-04 9.940775e-01 -3.224965e-02 9.940806e-01 -3.225008e-02 5.490140e-03 6.605938e-04
3.000000e+09 5.524248e-03 6.693307e-04 9.940105e-01 -3.335256e-02 9.940136e-01 -3.335300e-02 5.516743e-03 6.765109e-04
3.100000e+09 5.553167e-03 6.842534e-04 9.939414e-01 -3.445460e-02 9.939445e-01 -3.445504e-02 5.544057e-03 6.917669e-04
3.200000e+09 5.582831e-03 6.984899e-04 9.938704e-01 -3.555574e-02 9.938734e-01 -3.555618e-02 5.572065e-03 7.063455e-04
3.300000e+09 5.613220e-03 7.120243e-04 9.937974e-01 -3.665596e-02 9.938004e-01 -3.665641e-02 5.600747e-03 7.202312e-04
3.400000e+09 5.644316e-03 7.248413e-04 9.937225e-01 -3.775524e-02 9.937254e-01 -3.775570e-02 5.630086e-03 7.334088e-04
3.500000e+09 5.676100e-03 7.369262e-04 9.936456e-01 -3.885357e-02 9.936485e-01 -3.885403e-02 5.660063e-03 7.458639e-04
3.600000e+09 5.708553e-03 7.482647e-04 9.935669e-01 -3.995093e-02 9.935697e-01 -3.995139e-02 5.690658e-03 7.575825e-04
3.700000e+09 5.741654e-03 7.588432e-04 9.934863e-01 -4.104729e-02 9.934891e-01 -4.104776e-02 5.721852e-03 7.685512e-04
3.800000e+09 5.775385e-03 7.686487e-04 9.934038e-01 -4.214266e-02 9.934066e-01 -4.214313e-02 5.753625e-03 7.787572e-04
3.900000e+09 5.809723e-03 7.776687e-04 9.933196e-01 -4.323700e-02 9.933224e-01 -4.323747e-02 5.785956e-03 7.881881e-04
4.000000e+09 5.844650e-03 7.858914e-04 9.932335e-01 -4.433031e-02 9.932363e-01 -4.433078e-02 5.818827e-03 7.968324e-04
4.100000e+09 5.880145e-03 7.933054e-04 9.931458e-01 -4.542257e-02 9.931485e-01 -4.542304e-02 5.852215e-03 8.046790e-04
4.200000e+09 5.916185e-03 7.999002e-04 9.930563e-01 -4.651377e-02 9.930589e-01 -4.651424e-02 5.886101e-03 8.117173e-04
4.300000e+09 5.952750e-03 8.056656e-04 9.929650e-01 -4.760389e-02 9.929677e-01 -4.760437e-02 5.920462e-03 8.179376e-04
4.400000e+09 5.989819e-03 8.105921e-04 9.928722e-01 -4.869294e-02 9.928748e-01 -4.869341e-02 5.955279e-03 8.233305e-04
4.500000e+09 6.027370e-03 8.146710e-04 9.927777e-01 -4.978089e-02 9.927802e-01 -4.978136e-02 5.990529e-03 8.278875e-04
4.600000e+09 6.065380e-03 8.178940e-04 9.926815e-01 -5.086774e-02 9.926841e-01 -5.086820e-02 6.026190e-03 8.316003e-04
4.700000e+09 6.103830e-03 8.202535e-04 9.925838e-01 -5.195348e-02 9.925863e-01 -5.195394e-02 6.062242e-03 8.344617e-04
4.800000e+09 6.142696e-03 8.217424e-04 9.924845e-01 -5.303810e-02 9.924870e-01 -5.303855e-02 6.098663e-03 8.364647e-04
4.900000e+09 6.181956e-03 8.223544e-04 9.923837e-01 -5.412159e-02 9.923862e-01 -5.412204e-02 6.135430e-03 8.376031e-04
5.000000e+09 6.221588e-03 8.220838e-04 9.922815e-01 -5.520396e-02 9.922838e-01 -5.520440e-02 6.172522e-03 8.378714e-04
5.100000e+09 6.261571e-03 8.209253e-04 9.921777e-01 -5.628518e-02 9.921800e-01 -5.628562e-02 6.209917e-03 8.372645e-04
5.200000e+09 6.301881e-03 8.188744e-04 9.920725e-01 -5.736527e-02 9.920748e-01 -5.736570e-02 6.247592e-03 8.357781e-04
5.300000e+09 6.342497e-03 8.159273e-04 9.919659e-01 -5.844422e-02 9.919681e-01 -5.844464e-02 6.285526e-03 8.334083e-04
5.400000e+09 6.383396e-03 8.120805e-04 9.918578e-01 -5.952202e-02 9.918601e-01 -5.952243e-02 6.323697e-03 8.301520e-04
5.500000e+09 6.424556e-03 8.073314e-04 9.917485e-01 -6.059868e-02 9.917507e-01 -6.059908e-02 6.362082e-03 8.260066e-04
5.600000e+09 6.465956e-03 8.016778e-04 9.916378e-01 -6.167418e-02 9.916399e-01 -6.167458e-02 6.400660e-03 8.209702e-04
5.700000e+09 6.507572e-03 7.951183e-04 9.915258e-01 -6.274854e-02 9.915279e-01 -6.274892e-02 6.439408e-03 8.150413e-04
5.800000e+09 6.549383e-03 7.876520e-04 9.914125e-01 -6.382176e-02 9.914146e-01 -6.382212e-02 6.478306e-03 8.082192e-04
5.900000e+09 6.591367e-03 7.792785e-04 9.912980e-01 -6.489382e-02 9.913001e-01 -6.489418e-02 6.517330e-03 8.005037e-04
6.000000e+09 6.633501e-03 7.699980e-04 9.911823e-01 -6.596475e-02 9.911843e-01 -6.596509e-02 6.556460e-03 7.918951e-04
6.100000e+09 6.675765e-03 7.598115e-04 9.910654e-01 -6.703453e-02 9.910673e-01 -6.703486e-02 6.595674e-03 7.823945e-04
6.200000e+09 6.718137e-03 7.487202e-04 9.909473e-01 -6.810318e-02 9.909492e-01 -6.810350e-02 6.634950e-03 7.720032e-04
6.300000e+09 6.760595e-03 7.367263e-04 9.908281e-01 -6.917070e-02 9.908300e-01 -6.917100e-02 6.674267e-03 7.607234e-04
6.400000e+09 6.803118e-03 7.238321e-04 9.907077e-01 -7.023710e-02 9.907096e-01 -7.023738e-02 6.713605e-03 7.485576e-04
6.500000e+09 6.845684e-03 7.100408e-04 9.905863e-01 -7.130237e-02 9.905881e-01 -7.130263e-02 6.752942e-03 7.355092e-04
6.600000e+09 6.888274e-03 6.953560e-04 9.904639e-01 -7.236653e-02 9.904656e-01 -7.236678e-02 6.792257e-03 7.215817e-04
6.700000e+09 6.930865e-03 6.797818e-04 9.903403e-01 -7.342959e-02 9.903421e-01 -7.342981e-02 6.831530e-03 7.067793e-04
6.800000e+09 6.973439e-03 6.633229e-04 9.902158e-01 -7.449154e-02 9.902175e-01 -7.449175e-02 6.870741e-03 6.911070e-04
6.900000e+09 7.015974e-03 6.459844e-04 9.900903e-01 -7.555241e-02 9.900920e-01 -7.555261e-02 6.909870e-03 6.745697e-04
7.000000e+09 7.058451e-03 6.277720e-04 9.899638e-01 -7.661221e-02 9.899655e-01 -7.661238e-02 6.948897e-03 6.571734e-04
7.100000e+09 7.100849e-03 6.086918e-04 9.898364e-01 -7.767093e-02 9.898380e-01 -7.767108e-02 6.987802e-03 6.389243e-04
7.200000e+09 7.143150e-03 5.887506e-04 9.897081e-01 -7.872859e-02 9.897097e-01 -7.872872e-02 7.026567e-03 6.198290e-04
7.300000e+09 7.185335e-03 5.679554e-04 9.895789e-01 -7.978521e-02 9.895804e-01 -7.978532e-02 7.065172e-03 5.998948e-04
7.400000e+09 7.227384e-03 5.463137e-04 9.894488e-01 -8.084079e-02 9.894503e-01 -8.084088e-02 7.103598e-03 5.791292e-04
7.500000e+09 7.269279e-03 5.238336e-04 9.893179e-01 -8.189535e-02 9.893193e-01 -8.189541e-02 7.141828e-03 5.575404e-04
7.600000e+09 7.311003e-03 5.005236e-04 9.891861e-01 -8.294889e-02 9.891875e-01 -8.294894e-02 7.179843e-03 5.351369e-04
7.700000e+09 7.352536e-03 4.763924e-04 9.890536e-01 -8.400144e-02 9.890549e-01 -8.400146e-02 7.217625e-03 5.119275e-04
7.800000e+09 7.393862e-03 4.514494e-04 9.889202e-01 -8.505301e-02 9.889215e-01 -8.505301e-02 7.255158e-03 4.879215e-04
7.900000e+09 7.434963e-03 4.257042e-04 9.887861e-01 -8.610361e-02 9.887874e-01 -8.610358e-02 7.292425e-03 4.631289e-04
8.000000e+09 7.475823e-03 3.991669e-04 9.886512e-01 -8.715325e-02 9.886525e-01 -8.715320e-02 7.329408e-03 4.375595e-04
8.100000e+09 7.516426e-03 3.718479e-04 9.885156e-01 -8.820196e-02 9.885168e-01 -8.820188e-02 7.366091e-03 4.112239e-04
8.200000e+09 7.556754e-03 3.437580e-04 9.883792e-01 -8.924974e-02 9.883804e-01 -8.924964e-02 7.402459e-03 3.841329e-04
8.300000e+09 7.596794e-03 3.149083e-04 9.882422e-01 -9.029661e-02 9.882434e-01 -9.029649e-02 7.438497e-03 3.562978e-04
8.400000e+09 7.636528e-03 2.853103e-04 9.881045e-01 -9.134260e-02 9.881056e-01 -9.134244e-02 7.474188e-03 3.277299e-04
8.500000e+09 7.675944e-03 2.549758e-04 9.879661e-01 -9.238770e-02 9.879672e-01 -9.238753e-02 7.509519e-03 2.984412e-04
8.600000e+09 7.715025e-03 2.239167e-04 9.878271e-01 -9.343195e-02 9.878282e-01 -9.343175e-02 7.544475e-03 2.684436e-04
8.700000e+09 7.753759e-03 1.921456e-04 9.876874e-01 -9.447536e-02 9.876885e-01 -9.447513e-02 7.579042e-03 2.377497e-04
8.800000e+09 7.792132e-03 1.596751e-04 9.875471e-01 -9.551795e-02 9.875482e-01 -9.551769e-02 7.613207e-03 2.063721e-04
8.900000e+09 7.830129e-03 1.265180e-04 9.874062e-01 -9.655972e-02 9.874072e-01 -9.655944e-02 7.646957e-03 1.743238e-04
9.000000e+09 7.867740e-03 9.268754e-05 9.872647e-01 -9.760072e-02 9.872657e-01 -9.760040e-02 7.680279e-03 1.416180e-04
9.100000e+09 7.904951e-03 5.819710e-05 9.871226e-01 -9.864094e-02 9.871236e-01 -9.864060e-02 7.713161e-03 1.082680e-04
9.200000e+09 7.941751e-03 2.306030e-05 9.869800e-01 -9.968041e-02 9.869809e-01 -9.968004e-02 7.745591e-03 7.428754e-05
9.300000e+09 7.978128e-03 -1.270904e-05 9.868368e-01 -1.007191e-01 9.868377e-01 -1.007188e-01 7.777559e-03 3.969047e-05
9.400000e+09 8.014071e-03 -4.909690e-05 9.866930e-01 -1.017572e-01 9.866938e-01 -1.017567e-01 7.809052e-03 4.490827e-06
9.500000e+09 8.049569e-03 -8.608908e-05 9.865487e-01 -1.027945e-01 9.865495e-01 -1.027940e-01 7.840061e-03 -3.129717e-05
9.600000e+09 8.084614e-03 -1.236712e-04 9.864038e-01 -1.038311e-01 9.864046e-01 -1.038307e-01 7.870576e-03 -6.765913e-05
9.700000e+09 8.119194e-03 -1.618288e-04 9.862584e-01 -1.048671e-01 9.862592e-01 -1.048666e-01 7.900588e-03 -1.045805e-04
9.800000e+09 8.153301e-03 -2.005472e-04 9.861125e-01 -1.059025e-01 9.861133e-01 -1.059020e-01 7.930086e-03 -1.420466e-04
9.900000e+09 8.186927e-03 -2.398116e-04 9.859661e-01 -1.069372e-01 9.859668e-01 -1.069367e-01 7.959063e-03 -1.800427e-04
1.000000e+10 8.220062e-03 -2.796071e-04 9.858191e-01 -1.079714e-01 9.858198e-01 -1.079708e-01 7.987511e-03 -2.185538e-04
1.010000e+10 8.252699e-03 -3.199188e-04 9.856717e-01 -1.090049e-01 9.856724e-01 -1.090043e-01 8.015421e-03 -2.575649e-04
1.020000e+10 8.284830e-03 -3.607315e-04 9.855237e-01 -1.100379e-01 9.855244e-01 -1.100372e-01 8.042787e-03 -2.970609e-04
1.030000e+10 8.316450e-03 -4.020302e-04 9.853753e-01 -1.110703e-01 9.853760e-01 -1.110697e-01 8.069601e-03 -3.370267e-04
1.040000e+10 8.347551e-03 -4.437996e-04 9.852264e-01 -1.121023e-01 9.852270e-01 -1.121016e-01 8.095857e-03 -3.774470e-04
1.050000e+10 8.378126e-03 -4.860244e-04 9.850770e-01 -1.131337e-01 9.850776e-01 -1.131329e-01 8.121550e-03 -4.183065e-04
1.060000e+10 8.408172e-03 -5.286895e-04 9.849271e-01 -1.141646e-01 9.849277e-01 -1.141638e-01 8.146673e-03 -4.595900e-04
1.070000e+10 8.437682e-03 -5.717795e-04 9.847767e-01 -1.151950e-01 9.847773e-01 -1.151943e-01 8.171222e-03 -5.012822e-04
1.080000e+10 8.466652e-03 -6.152791e-04 9.846258e-01 -1.162250e-01 9.846264e-01 -1.162242e-01 8.195191e-03 -5.433676e-04
1.090000e+10 8.495077e-03 -6.591731e-04 9.844745e-01 -1.172546e-01 9.844750e-01 -1.172538e-01 8.218578e-03 -5.858311e-04
1.100000e+10 8.522954e-03 -7.034460e-04 9.843226e-01 -1.182838e-01 9.843232e-01 -1.182829e-01 8.241378e-03 -6.286572e-04
1.110000e+10 8.550279e-03 -7.480828e-04 9.841703e-01 -1.193125e-01 9.841708e-01 -1.193117e-01 8.263587e-03 -6.718307e-04
1.120000e+10 8.577049e-03 -7.930681e-04 9.840175e-01 -1.203409e-01 9.840180e-01 -1.203400e-01 8.285204e-03 -7.153364e-04
1.130000e+10 8.603263e-03 -8.383869e-04 9.838642e-01 -1.213690e-01 9.838647e-01 -1.213680e-01 8.306224e-03 -7.591590e-04
1.140000e+10 8.628916e-03 -8.840239e-04 9.837105e-01 -1.223966e-01 9.837110e-01 -1.223957e-01 8.326647e-03 -8.032835e-04
1.150000e+10 8.654009e-03 -9.299643e-04 9.835562e-01 -1.234240e-01 9.835567e-01 -1.234230e-01 8.346470e-03 -8.476948e-04
1.160000e+10 8.678539e-03 -9.761931e-04 9.834014e-01 -1.244510e-01 9.834019e-01 -1.244500e-01 8.365692e-03 -8.923779e-04
1.170000e+10 8.702505e-03 -1.022695e-03 9.832462e-01 -1.254778e-01 9.832466e-01 -1.254768e-01 8.384313e-03 -9.373180e-04
1.180000e+10 8.725908e-03 -1.069456e-03 9.830904e-01 -1.265043e-01 9.830909e-01 -1.265032e-01 8.402332e-03 -9.825002e-04
1.190000e+10 8.748746e-03 -1.116462e-03 9.829342e-01 -1.275305e-01 9.829346e-01 -1.275294e-01 8.419748e-03 -1.027910e-03
1.200000e+10 8.771021e-03 -1.163697e-03 9.827774e-01 -1.285565e-01 9.827778e-01 -1.285554e-01 8.436563e-03 -1.073533e-03
1.210000e+10 8.792732e-03 -1.211147e-03 9.826201e-01 -1.295822e-01 9.826205e-01 -1.295811e-01 8.452776e-03 -1.119354e-03
1.220000e+10 8.813881e-03 -1.258799e-03 9.824623e-01 -1.306077e-01 9.824627e-01 -1.306066e-01 8.468388e-03 -1.165360e-03
1.230000e+10 8.834469e-03 -1.306637e-03 9.823040e-01 -1.316331e-01 9.823044e-01 -1.316319e-01 8.483402e-03 -1.211536e-03
1.240000e+10 8.854498e-03 -1.354649e-03 9.821451e-01 -1.326582e-01 9.821455e-01 -1.326570e-01 8.497819e-03 -1.257869e-03
1.250000e+10 8.873969e-03 -1.402821e-03 9.819857e-01 -1.336832e-01 9.819860e-01 -1.336820e-01 8.511640e-03 -1.304344e-03
1.260000e+10 8.892886e-03 -1.451138e-03 9.818257e-01 -1.347080e-01 9.818261e-01 -1.347068e-01 8.524868e-03 -1.350948e-03
1.270000e+10 8.911250e-03 -1.499588e-03 9.816652e-01 -1.357327e-01 9.816655e-01 -1.357314e-01 8.537507e-03 -1.397668e-03
1.280000e+10 8.929065e-03 -1.548158e-03 9.815041e-01 -1.367572e-01 9.815044e-01 -1.367560e-01 8.549558e-03 -1.444490e-03
1.290000e+10 8.946334e-03 -1.596834e-03 9.813424e-01 -1.377817e-01 9.813428e-01 -1.377804e-01 8.561026e-03 -1.491402e-03
1.300000e+10 8.963061e-03 -1.645604e-03 9.811802e-01 -1.388060e-01 9.811805e-01 -1.388047e-01 8.571914e-03 -1.538390e-03
1.310000e+10 8.979250e-03 -1.694455e-03 9.810173e-01 -1.398302e-01 9.810177e-01 -1.398289e-01 8.582225e-03 -1.585443e-03
1.320000e+10 8.994904e-03 -1.743376e-03 9.808539e-01 -1.408544e-01 9.808542e-01 -1.408530e-01 8.591965e-03 -1.632547e-03
1.330000e+10 9.010030e-03 -1.792353e-03 9.806898e-01 -1.418784e-01 9.806901e-01 -1.418770e-01 8.601138e-03 -1.679691e-03
1.340000e+10 9.024630e-03 -1.841375e-03 9.805251e-01 -1.429024e-01 9.805255e-01 -1.429010e-01 8.609749e-03 -1.726862e-03
1.350000e+10 9.038711e-03 -1.890431e-03 9.803598e-01 -1.439264e-01 9.803601e-01 -1.439250e-01 8.617802e-03 -1.774050e-03
1.360000e+10 9.052277e-03 -1.939509e-03 9.801939e-01 -1.449503e-01 9.801942e-01 -1.449489e-01 8.625303e-03 -1.821242e-03
1.370000e+10 9.065335e-03 -1.988598e-03 9.800273e-01 -1.459742e-01 9.800276e-01 -1.459728e-01 8.632257e-03 -1.868428e-03
1.380000e+10 9.077890e-03 -2.037688e-03 9.798600e-01 -1.469981e-01 9.798603e-01 -1.469966e-01 8.638671e-03 -1.915596e-03
1.390000e+10 9.089947e-03 -2.086767e-03 9.796921e-01 -1.480219e-01 9.796924e-01 -1.480204e-01 8.644550e-03 -1.962736e-03
1.400000e+10 9.101514e-03 -2.135826e-03 9.795234e-01 -1.490457e-01 9.795237e-01 -1.490442e-01 8.649901e-03 -2.009838e-03
1.410000e+10 9.112597e-03 -2.184854e-03 9.793541e-01 -1.500696e-01 9.793544e-01 -1.500681e-01 8.654730e-03 -2.056892e-03
1.420000e+10 9.123201e-03 -2.233842e-03 9.791841e-01 -1.510934e-01 9.791843e-01 -1.510919e-01 8.659043e-03 -2.103887e-03
1.430000e+10 9.133335e-03 -2.282780e-03 9.790133e-01 -1.521173e-01 9.790136e-01 -1.521157e-01 8.662848e-03 -2.150814e-03
1.440000e+10 9.143005e-03 -2.331658e-03 9.788418e-01 -1.531412e-01 9.788421e-01 -1.531396e-01 8.666152e-03 -2.197664e-03
1.450000e+10 9.152219e-03 -2.380469e-03 9.786696e-01 -1.541651e-01 9.786699e-01 -1.541635e-01 8.668961e-03 -2.244427e-03
1.460000e+10 9.160983e-03 -2.429203e-03 9.784966e-01 -1.551890e-01 9.784969e-01 -1.551874e-01 8.671283e-03 -2.291096e-03
1.470000e+10 9.169305e-03 -2.477853e-03 9.783228e-01 -1.562130e-01 9.783231e-01 -1.562114e-01 8.673126e-03 -2.337662e-03
1.480000e+10 9.177193e-03 -2.526409e-03 9.781483e-01 -1.572370e-01 9.781486e-01 -1.572354e-01 8.674498e-03 -2.384115e-03
1.490000e+10 9.184655e-03 -2.574864e-03 9.779730e-01 -1.582610e-01 9.779733e-01 -1.582594e-01 8.675405e-03 -2.430450e-03
1.500000e+10 9.191698e-03 -2.623211e-03 9.777968e-01 -1.592851e-01 9.777971e-01 -1.592835e-01 8.675856e-03 -2.476657e-03
1.510000e+10 9.198331e-03 -2.671443e-03 9.776199e-01 -1.603093e-01 9.776202e-01 -1.603077e-01 8.675859e-03 -2.522730e-03
1.520000e+10 9.204562e-03 -2.719552e-03 9.774421e-01 -1.613335e-01 9.774424e-01 -1.613318e-01 8.675422e-03 -2.568662e-03
1.530000e+10 9.210398e-03 -2.767532e-03 9.772635e-01 -1.623577e-01 9.772638e-01 -1.623561e-01 8.674554e-03 -2.614446e-03
1.540000e+10 9.215848e-03 -2.815377e-03 9.770841e-01 -1.633820e-01 9.770843e-01 -1.633804e-01 8.673262e-03 -2.660075e-03
1.550000e+10 9.220921e-03 -2.863080e-03 9.769037e-01 -1.644064e-01 9.769040e-01 -1.644048e-01 8.671555e-03 -2.705544e-03
1.560000e+10 9.225625e-03 -2.910637e-03 9.767225e-01 -1.654309e-01 9.767228e-01 -1.654292e-01 8.669441e-03 -2.750847e-03
1.570000e+10 9.229969e-03 -2.958041e-03 9.765405e-01 -1.664554e-01 9.765407e-01 -1.664537e-01 8.666930e-03 -2.795977e-03
1.580000e+10 9.233960e-03 -3.005287e-03 9.763575e-01 -1.674799e-01 9.763578e-01 -1.674783e-01 8.664029e-03 -2.840931e-03
1.590000e+10 9.237609e-03 -3.052371e-03 9.761736e-01 -1.685045e-01 9.761739e-01 -1.685029e-01 8.660747e-03 -2.885702e-03
1.600000e+10 9.240922e-03 -3.099287e-03 9.759888e-01 -1.695292e-01 9.759891e-01 -1.695275e-01 8.657093e-03 -2.930286e-03
1.610000e+10 9.243910e-03 -3.146032e-03 9.758030e-01 -1.705539e-01 9.758033e-01 -1.705523e-01 8.653076e-03 -2.974679e-03
1.620000e+10 9.246580e-03 -3.192602e-03 9.756164e-01 -1.715787e-01 9.756166e-01 -1.715771e-01 8.648703e-03 -3.018877e-03
1.630000e+10 9.248942e-03 -3.238993e-03 9.754287e-01 -1.726036e-01 9.754290e-01 -1.726019e-01 8.643985e-03 -3.062876e-03
1.640000e+10 9.251004e-03 -3.285201e-03 9.752401e-01 -1.736285e-01 9.752404e-01 -1.736268e-01 8.638929e-03 -3.106672e-03
1.650000e+10 9.252775e-03 -3.331224e-03 9.750505e-01 -1.746535e-01 9.750508e-01 -1.746518e-01 8.633545e-03 -3.150261e-03
