#   Hz   S  RI   R   50
!
0.000000e+00 8.197027e-03 0.000000e+00 9.920051e-01 0.000000e+00 9.919644e-01 0.000000e+00 8.140862e-03 0.000000e+00
1.000000e+08 8.197281e-03 3.056406e-05 9.920038e-01 -1.312928e-03 9.919631e-01 -1.335151e-03 8.141381e-03 1.811095e-05
2.000000e+08 8.198045e-03 6.111240e-05 9.919998e-01 -2.625832e-03 9.919591e-01 -2.670277e-03 8.142937e-03 3.620355e-05
3.000000e+08 8.199317e-03 9.162932e-05 9.919932e-01 -3.938686e-03 9.919523e-01 -4.005353e-03 8.145531e-03 5.425948e-05
4.000000e+08 8.201096e-03 1.220991e-04 9.919840e-01 -5.251465e-03 9.919429e-01 -5.340357e-03 8.149160e-03 7.226042e-05
5.000000e+08 8.203381e-03 1.525062e-04 9.919722e-01 -6.564147e-03 9.919309e-01 -6.675262e-03 8.153825e-03 9.018810e-05
6.000000e+08 8.206171e-03 1.828349e-04 9.919578e-01 -7.876705e-03 9.919161e-01 -8.010045e-03 8.159521e-03 1.080243e-04
7.000000e+08 8.209462e-03 2.130696e-04 9.919407e-01 -9.189115e-03 9.918986e-01 -9.344682e-03 8.166248e-03 1.257508e-04
8.000000e+08 8.213253e-03 2.431949e-04 9.919210e-01 -1.050135e-02 9.918785e-01 -1.067915e-02 8.174003e-03 1.433496e-04
9.000000e+08 8.217541e-03 2.731954e-04 9.918987e-01 -1.181340e-02 9.918557e-01 -1.201342e-02 8.182781e-03 1.608026e-04
1.000000e+09 8.222322e-03 3.030556e-04 9.918738e-01 -1.312522e-02 9.918303e-01 -1.334747e-02 8.192581e-03 1.780918e-04
1.100000e+09 8.227593e-03 3.327605e-04 9.918464e-01 -1.443679e-02 9.918022e-01 -1.468128e-02 8.203397e-03 1.951995e-04
1.200000e+09 8.233349e-03 3.622947e-04 9.918163e-01 -1.574810e-02 9.917714e-01 -1.601482e-02 8.215225e-03 2.121078e-04
1.300000e+09 8.239586e-03 3.916434e-04 9.917836e-01 -1.705912e-02 9.917380e-01 -1.734807e-02 8.228061e-03 2.287993e-04
1.400000e+09 8.246300e-03 4.207916e-04 9.917483e-01 -1.836982e-02 9.917019e-01 -1.868101e-02 8.241900e-03 2.452564e-04
1.500000e+09 8.253484e-03 4.497244e-04 9.917105e-01 -1.968018e-02 9.916632e-01 -2.001362e-02 8.256735e-03 2.614618e-04
1.600000e+09 8.261134e-03 4.784274e-04 9.916701e-01 -2.099019e-02 9.916219e-01 -2.134586e-02 8.272561e-03 2.773984e-04
1.700000e+09 8.269244e-03 5.068860e-04 9.916271e-01 -2.229980e-02 9.915780e-01 -2.267772e-02 8.289371e-03 2.930491e-04
1.800000e+09 8.277807e-03 5.350859e-04 9.915816e-01 -2.360901e-02 9.915314e-01 -2.400918e-02 8.307158e-03 3.083971e-04
1.900000e+09 8.286816e-03 5.630130e-04 9.915336e-01 -2.491779e-02 9.914823e-01 -2.534021e-02 8.325916e-03 3.234258e-04
2.000000e+09 8.296266e-03 5.906533e-04 9.914830e-01 -2.622613e-02 9.914306e-01 -2.667080e-02 8.345637e-03 3.381187e-04
2.100000e+09 8.306148e-03 6.179930e-04 9.914299e-01 -2.753398e-02 9.913762e-01 -2.800091e-02 8.366313e-03 3.524595e-04
2.200000e+09 8.316455e-03 6.450186e-04 9.913743e-01 -2.884135e-02 9.913194e-01 -2.933053e-02 8.387936e-03 3.664322e-04
2.300000e+09 8.327178e-03 6.717167e-04 9.913163e-01 -3.014819e-02 9.912599e-01 -3.065964e-02 8.410497e-03 3.800210e-04
2.400000e+09 8.338311e-03 6.980741e-04 9.912557e-01 -3.145451e-02 9.911980e-01 -3.198822e-02 8.433987e-03 3.932103e-04
2.500000e+09 8.349843e-03 7.240780e-04 9.911926e-01 -3.276026e-02 9.911334e-01 -3.331624e-02 8.458396e-03 4.059848e-04
2.600000e+09 8.361766e-03 7.497156e-04 9.911272e-01 -3.406544e-02 9.910664e-01 -3.464369e-02 8.483716e-03 4.183294e-04
2.700000e+09 8.374072e-03 7.749745e-04 9.910592e-01 -3.537003e-02 9.909969e-01 -3.597054e-02 8.509937e-03 4.302291e-04
2.800000e+09 8.386749e-03 7.998424e-04 9.909888e-01 -3.667399e-02 9.909248e-01 -3.729679e-02 8.537047e-03 4.416695e-04
2.900000e+09 8.399790e-03 8.243074e-04 9.909161e-01 -3.797733e-02 9.908503e-01 -3.862240e-02 8.565037e-03 4.526363e-04
3.000000e+09 8.413182e-03 8.483578e-04 9.908409e-01 -3.928001e-02 9.907734e-01 -3.994736e-02 8.593896e-03 4.631153e-04
3.100000e+09 8.426917e-03 8.719822e-04 9.907633e-01 -4.058202e-02 9.906939e-01 -4.127166e-02 8.623612e-03 4.730929e-04
3.200000e+09 8.440984e-03 8.951694e-04 9.906834e-01 -4.188335e-02 9.906121e-01 -4.259527e-02 8.654174e-03 4.825556e-04
3.300000e+09 8.455371e-03 9.179085e-04 9.906011e-01 -4.318396e-02 9.905278e-01 -4.391817e-02 8.685570e-03 4.914903e-04
3.400000e+09 8.470068e-03 9.401890e-04 9.905164e-01 -4.448386e-02 9.904411e-01 -4.524036e-02 8.717788e-03 4.998841e-04
3.500000e+09 8.485063e-03 9.620005e-04 9.904295e-01 -4.578302e-02 9.903520e-01 -4.656181e-02 8.750816e-03 5.077245e-04
3.600000e+09 8.500345e-03 9.833330e-04 9.903402e-01 -4.708142e-02 9.902606e-01 -4.788251e-02 8.784642e-03 5.149993e-04
3.700000e+09 8.515901e-03 1.004177e-03 9.902487e-01 -4.837905e-02 9.901668e-01 -4.920243e-02 8.819252e-03 5.216966e-04
3.800000e+09 8.531721e-03 1.024523e-03 9.901549e-01 -4.967590e-02 9.900706e-01 -5.052158e-02 8.854634e-03 5.278048e-04
3.900000e+09 8.547791e-03 1.044361e-03 9.900588e-01 -5.097195e-02 9.899721e-01 -5.183993e-02 8.890775e-03 5.333128e-04
4.000000e+09 8.564099e-03 1.063684e-03 9.899605e-01 -5.226718e-02 9.898714e-01 -5.315747e-02 8.927661e-03 5.382095e-04
4.100000e+09 8.580632e-03 1.082483e-03 9.898599e-01 -5.356159e-02 9.897683e-01 -5.447418e-02 8.965278e-03 5.424846e-04
4.200000e+09 8.597378e-03 1.100749e-03 9.897572e-01 -5.485516e-02 9.896630e-01 -5.579005e-02 9.003613e-03 5.461277e-04
4.300000e+09 8.614324e-03 1.118474e-03 9.896523e-01 -5.614788e-02 9.895554e-01 -5.710507e-02 9.042651e-03 5.491292e-04
4.400000e+09 8.631457e-03 1.135653e-03 9.895452e-01 -5.743973e-02 9.894456e-01 -5.841922e-02 9.082379e-03 5.514793e-04
4.500000e+09 8.648762e-03 1.152276e-03 9.894360e-01 -5.873071e-02 9.893336e-01 -5.973250e-02 9.122782e-03 5.531692e-04
4.600000e+09 8.666228e-03 1.168338e-03 9.893246e-01 -6.002080e-02 9.892193e-01 -6.104490e-02 9.163845e-03 5.541898e-04
4.700000e+09 8.683840e-03 1.183831e-03 9.892112e-01 -6.130999e-02 9.891029e-01 -6.235639e-02 9.205555e-03 5.545330e-04
4.800000e+09 8.701584e-03 1.198751e-03 9.890957e-01 -6.259828e-02 9.889844e-01 -6.366698e-02 9.247895e-03 5.541905e-04
4.900000e+09 8.719448e-03 1.213091e-03 9.889781e-01 -6.388565e-02 9.888637e-01 -6.497665e-02 9.290852e-03 5.531549e-04
5.000000e+09 8.737416e-03 1.226845e-03 9.888584e-01 -6.517209e-02 9.887409e-01 -6.628539e-02 9.334411e-03 5.514186e-04
5.100000e+09 8.755475e-03 1.240009e-03 9.887367e-01 -6.645760e-02 9.886159e-01 -6.759319e-02 9.378555e-03 5.489749e-04
5.200000e+09 8.773610e-03 1.252578e-03 9.886130e-01 -6.774217e-02 9.884889e-01 -6.890005e-02 9.423271e-03 5.458171e-04
5.300000e+09 8.791808e-03 1.264548e-03 9.884874e-01 -6.902579e-02 9.883599e-01 -7.020596e-02 9.468542e-03 5.419391e-04
5.400000e+09 8.810055e-03 1.275915e-03 9.883597e-01 -7.030845e-02 9.882288e-01 -7.151091e-02 9.514353e-03 5.373351e-04
5.500000e+09 8.828335e-03 1.286674e-03 9.882301e-01 -7.159015e-02 9.880957e-01 -7.281489e-02 9.560690e-03 5.319996e-04
5.600000e+09 8.846635e-03 1.296823e-03 9.880986e-01 -7.287088e-02 9.879605e-01 -7.411790e-02 9.607536e-03 5.259275e-04
5.700000e+09 8.864940e-03 1.306359e-03 9.879652e-01 -7.415064e-02 9.878234e-01 -7.541993e-02 9.654876e-03 5.191141e-04
5.800000e+09 8.883236e-03 1.315279e-03 9.878299e-01 -7.542942e-02 9.876843e-01 -7.672098e-02 9.702694e-03 5.115552e-04
5.900000e+09 8.901508e-03 1.323580e-03 9.876927e-01 -7.670722e-02 9.875433e-01 -7.802103e-02 9.750975e-03 5.032467e-04
6.000000e+09 8.919742e-03 1.331262e-03 9.875536e-01 -7.798403e-02 9.874004e-01 -7.932010e-02 9.799703e-03 4.941851e-04
6.100000e+09 8.937924e-03 1.338322e-03 9.874128e-01 -7.925985e-02 9.872555e-01 -8.061817e-02 9.848863e-03 4.843673e-04
6.200000e+09 8.956038e-03 1.344760e-03 9.872701e-01 -8.053468e-02 9.871088e-01 -8.191524e-02 9.898439e-03 4.737902e-04
6.300000e+09 8.974071e-03 1.350574e-03 9.871256e-01 -8.180851e-02 9.869602e-01 -8.321130e-02 9.948415e-03 4.624515e-04
6.400000e+09 8.992008e-03 1.355763e-03 9.869794e-01 -8.308135e-02 9.868097e-01 -8.450636e-02 9.998776e-03 4.503490e-04
6.500000e+09 9.009834e-03 1.360329e-03 9.868314e-01 -8.435319e-02 9.866575e-01 -8.580041e-02 1.004951e-02 4.374810e-04
6.600000e+09 9.027536e-03 1.364270e-03 9.866817e-01 -8.562403e-02 9.865034e-01 -8.709346e-02 1.010059e-02 4.238461e-04
6.700000e+09 9.045098e-03 1.367588e-03 9.865303e-01 -8.689388e-02 9.863475e-01 -8.838549e-02 1.015201e-02 4.094432e-04
6.800000e+09 9.062507e-03 1.370283e-03 9.863772e-01 -8.816272e-02 9.861899e-01 -8.967652e-02 1.020376e-02 3.942717e-04
6.900000e+09 9.079748e-03 1.372356e-03 9.862224e-01 -8.943056e-02 9.860305e-01 -9.096653e-02 1.025581e-02 3.783312e-04
7.000000e+09 9.096808e-03 1.373810e-03 9.860659e-01 -9.069741e-02 9.858694e-01 -9.225554e-02 1.030816e-02 3.616216e-04
7.100000e+09 9.113671e-03 1.374645e-03 9.859078e-01 -9.196326e-02 9.857065e-01 -9.354353e-02 1.036079e-02 3.441434e-04
7.200000e+09 9.130325e-03 1.374864e-03 9.857481e-01 -9.322812e-02 9.855420e-01 -9.483052e-02 1.041367e-02 3.258972e-04
7.300000e+09 9.146756e-03 1.374469e-03 9.855868e-01 -9.449199e-02 9.853758e-01 -9.611650e-02 1.046681e-02 3.068840e-04
7.400000e+09 9.162948e-03 1.373464e-03 9.854239e-01 -9.575487e-02 9.852079e-01 -9.740148e-02 1.052017e-02 2.871052e-04
7.500000e+09 9.178890e-03 1.371850e-03 9.852595e-01 -9.701676e-02 9.850384e-01 -9.868546e-02 1.057376e-02 2.665624e-04
7.600000e+09 9.194567e-03 1.369633e-03 9.850935e-01 -9.827767e-02 9.848673e-01 -9.996844e-02 1.062755e-02 2.452576e-04
7.700000e+09 9.209966e-03 1.366815e-03 9.849260e-01 -9.953761e-02 9.846945e-01 -1.012504e-01 1.068152e-02 2.231931e-04
7.800000e+09 9.225074e-03 1.363400e-03 9.847569e-01 -1.007966e-01 9.845202e-01 -1.025314e-01 1.073567e-02 2.003715e-04
7.900000e+09 9.239877e-03 1.359392e-03 9.845864e-01 -1.020546e-01 9.843443e-01 -1.038114e-01 1.078999e-02 1.767956e-04
8.000000e+09 9.254362e-03 1.354797e-03 9.844144e-01 -1.033116e-01 9.841668e-01 -1.050905e-01 1.084445e-02 1.524688e-04
8.100000e+09 9.268517e-03 1.349619e-03 9.842409e-01 -1.045677e-01 9.839878e-01 -1.063685e-01 1.089904e-02 1.273945e-04
8.200000e+09 9.282329e-03 1.343863e-03 9.840660e-01 -1.058228e-01 9.838073e-01 -1.076456e-01 1.095375e-02 1.015764e-04
8.300000e+09 9.295786e-03 1.337534e-03 9.838896e-01 -1.070769e-01 9.836252e-01 -1.089217e-01 1.100856e-02 7.501867e-05
8.400000e+09 9.308874e-03 1.330639e-03 9.837119e-01 -1.083302e-01 9.834417e-01 -1.101968e-01 1.106347e-02 4.772560e-05
8.500000e+09 9.321582e-03 1.323182e-03 9.835327e-01 -1.095825e-01 9.832567e-01 -1.114710e-01 1.111846e-02 1.970178e-05
8.600000e+09 9.333897e-03 1.315171e-03 9.833522e-01 -1.108339e-01 9.830702e-01 -1.127443e-01 1.117351e-02 -9.047905e-06
8.700000e+09 9.345809e-03 1.306612e-03 9.831702e-01 -1.120843e-01 9.828823e-01 -1.140166e-01 1.122862e-02 -3.851835e-05
8.800000e+09 9.357304e-03 1.297511e-03 9.829870e-01 -1.133339e-01 9.826930e-01 -1.152879e-01 1.128376e-02 -6.870417e-05
8.900000e+09 9.368373e-03 1.287875e-03 9.828024e-01 -1.145825e-01 9.825022e-01 -1.165584e-01 1.133894e-02 -9.959978e-05
9.000000e+09 9.379002e-03 1.277712e-03 9.826164e-01 -1.158303e-01 9.823100e-01 -1.178279e-01 1.139413e-02 -1.311993e-04
9.100000e+09 9.389183e-03 1.267029e-03 9.824291e-01 -1.170771e-01 9.821165e-01 -1.190965e-01 1.144933e-02 -1.634967e-04
9.200000e+09 9.398902e-03 1.255832e-03 9.822406e-01 -1.183231e-01 9.819215e-01 -1.203642e-01 1.150451e-02 -1.964857e-04
9.300000e+09 9.408151e-03 1.244131e-03 9.820507e-01 -1.195683e-01 9.817252e-01 -1.216311e-01 1.155968e-02 -2.301597e-04
9.400000e+09 9.416918e-03 1.231933e-03 9.818596e-01 -1.208125e-01 9.815275e-01 -1.228970e-01 1.161482e-02 -2.645120e-04
9.500000e+09 9.425193e-03 1.219246e-03 9.816672e-01 -1.220560e-01 9.813285e-01 -1.241620e-01 1.166992e-02 -2.995357e-04
9.600000e+09 9.432967e-03 1.206079e-03 9.814735e-01 -1.232985e-01 9.811282e-01 -1.254262e-01 1.172496e-02 -3.352237e-04
9.700000e+09 9.440229e-03 1.192440e-03 9.812786e-01 -1.245403e-01 9.809266e-01 -1.266896e-01 1.177995e-02 -3.715687e-04
9.800000e+09 9.446969e-03 1.178338e-03 9.810825e-01 -1.257812e-01 9.807236e-01 -1.279520e-01 1.183486e-02 -4.085633e-04
9.900000e+09 9.453180e-03 1.163782e-03 9.808851e-01 -1.270214e-01 9.805193e-01 -1.292137e-01 1.188968e-02 -4.461996e-04
1.000000e+10 9.458851e-03 1.148781e-03 9.806866e-01 -1.282607e-01 9.803138e-01 -1.304745e-01 1.194442e-02 -4.844700e-04
1.010000e+10 9.463974e-03 1.133344e-03 9.804868e-01 -1.294993e-01 9.801070e-01 -1.317345e-01 1.199905e-02 -5.233664e-04
1.020000e+10 9.468539e-03 1.117480e-03 9.802858e-01 -1.307370e-01 9.798989e-01 -1.329937e-01 1.205357e-02 -5.628808e-04
1.030000e+10 9.472540e-03 1.101200e-03 9.800837e-01 -1.319740e-01 9.796895e-01 -1.342521e-01 1.210797e-02 -6.030048e-04
1.040000e+10 9.475967e-03 1.084512e-03 9.798804e-01 -1.332103e-01 9.794789e-01 -1.355097e-01 1.216224e-02 -6.437300e-04
1.050000e+10 9.478813e-03 1.067427e-03 9.796759e-01 -1.344458e-01 9.792671e-01 -1.367665e-01 1.221637e-02 -6.850479e-04
1.060000e+10 9.481070e-03 1.049955e-03 9.794702e-01 -1.356806e-01 9.790540e-01 -1.380226e-01 1.227035e-02 -7.269498e-04
1.070000e+10 9.482731e-03 1.032105e-03 9.792634e-01 -1.369147e-01 9.788397e-01 -1.392779e-01 1.232418e-02 -7.694269e-04
1.080000e+10 9.483789e-03 1.013888e-03 9.790554e-01 -1.381480e-01 9.786242e-01 -1.405324e-01 1.237785e-02 -8.124704e-04
1.090000e+10 9.484236e-03 9.953136e-04 9.788463e-01 -1.393807e-01 9.784075e-01 -1.417863e-01 1.243135e-02 -8.560712e-04
1.100000e+10 9.484066e-03 9.763928e-04 9.786361e-01 -1.406127e-01 9.781896e-01 -1.430394e-01 1.248467e-02 -9.002203e-04
1.110000e+10 9.483273e-03 9.571359e-04 9.784247e-01 -1.418440e-01 9.779705e-01 -1.442917e-01 1.253780e-02 -9.449085e-04
1.120000e+10 9.481851e-03 9.375533e-04 9.782122e-01 -1.430746e-01 9.777502e-01 -1.455434e-01 1.259075e-02 -9.901265e-04
1.130000e+10 9.479794e-03 9.176557e-04 9.779986e-01 -1.443046e-01 9.775287e-01 -1.467944e-01 1.264350e-02 -1.035865e-03
1.140000e+10 9.477095e-03 8.974539e-04 9.777839e-01 -1.455339e-01 9.773060e-01 -1.480448e-01 1.269604e-02 -1.082115e-03
1.150000e+10 9.473751e-03 8.769585e-04 9.775681e-01 -1.467627e-01 9.770821e-01 -1.492944e-01 1.274837e-02 -1.128866e-03
1.160000e+10 9.469755e-03 8.561804e-04 9.773511e-01 -1.479908e-01 9.768571e-01 -1.505434e-01 1.280049e-02 -1.176109e-03
1.170000e+10 9.465102e-03 8.351305e-04 9.771331e-01 -1.492183e-01 9.766309e-01 -1.517918e-01 1.285239e-02 -1.223836e-03
1.180000e+10 9.459789e-03 8.138198e-04 9.769139e-01 -1.504452e-01 9.764036e-01 -1.530395e-01 1.290406e-02 -1.272035e-03
1.190000e+10 9.453811e-03 7.922591e-04 9.766937e-01 -1.516715e-01 9.761751e-01 -1.542866e-01 1.295551e-02 -1.320697e-03
1.200000e+10 9.447164e-03 7.704595e-04 9.764724e-01 -1.528973e-01 9.759454e-01 -1.555331e-01 1.300671e-02 -1.369813e-03
1.210000e+10 9.439843e-03 7.484320e-04 9.762500e-01 -1.541225e-01 9.757146e-01 -1.567790e-01 1.305768e-02 -1.419374e-03
1.220000e+10 9.431845e-03 7.261877e-04 9.760265e-01 -1.553472e-01 9.754826e-01 -1.580243e-01 1.310840e-02 -1.469368e-03
1.230000e+10 9.423168e-03 7.037376e-04 9.758019e-01 -1.565713e-01 9.752495e-01 -1.592691e-01 1.315887e-02 -1.519788e-03
1.240000e+10 9.413807e-03 6.810929e-04 9.755762e-01 -1.577949e-01 9.750152e-01 -1.605132e-01 1.320909e-02 -1.570622e-03
1.250000e+10 9.403760e-03 6.582646e-04 9.753494e-01 -1.590180e-01 9.747798e-01 -1.617568e-01 1.325906e-02 -1.621862e-03
1.260000e+10 9.393024e-03 6.352638e-04 9.751216e-01 -1.602406e-01 9.745433e-01 -1.629999e-01 1.330877e-02 -1.673497e-03
1.270000e+10 9.381597e-03 6.121016e-04 9.748926e-01 -1.614627e-01 9.743056e-01 -1.642424e-01 1.335822e-02 -1.725518e-03
1.280000e+10 9.369476e-03 5.887891e-04 9.746626e-01 -1.626843e-01 9.740667e-01 -1.654845e-01 1.340740e-02 -1.777915e-03
1.290000e+10 9.356661e-03 5.653373e-04 9.744315e-01 -1.639054e-01 9.738267e-01 -1.667260e-01 1.345632e-02 -1.830680e-03
1.300000e+10 9.343148e-03 5.417572e-04 9.741993e-01 -1.651261e-01 9.735856e-01 -1.679670e-01 1.350497e-02 -1.883801e-03
1.310000e+10 9.328938e-03 5.180599e-04 9.739660e-01 -1.663464e-01 9.733433e-01 -1.692075e-01 1.355334e-02 -1.937270e-03
1.320000e+10 9.314027e-03 4.942564e-04 9.737317e-01 -1.675662e-01 9.730999e-01 -1.704475e-01 1.360145e-02 -1.991077e-03
1.330000e+10 9.298416e-03 4.703574e-04 9.734962e-01 -1.687855e-01 9.728553e-01 -1.716871e-01 1.364928e-02 -2.045213e-03
1.340000e+10 9.282104e-03 4.463741e-04 9.732596e-01 -1.700045e-01 9.726096e-01 -1.729262e-01 1.369684e-02 -2.099668e-03
1.350000e+10 9.265089e-03 4.223171e-04 9.730220e-01 -1.712231e-01 9.723628e-01 -1.741648e-01 1.374412e-02 -2.154432e-03
1.360000e+10 9.247373e-03 3.981973e-04 9.727832e-01 -1.724412e-01 9.721148e-01 -1.754030e-01 1.379113e-02 -2.209498e-03
1.370000e+10 9.228954e-03 3.740254e-04 9.725434e-01 -1.736590e-01 9.718656e-01 -1.766408e-01 1.383786e-02 -2.264855e-03
1.380000e+10 9.209833e-03 3.498121e-04 9.723024e-01 -1.748764e-01 9.716153e-01 -1.778781e-01 1.388431e-02 -2.320494e-03
1.390000e+10 9.190011e-03 3.255679e-04 9.720604e-01 -1.760934e-01 9.713638e-01 -1.791151e-01 1.393048e-02 -2.376406e-03
1.400000e+10 9.169486e-03 3.013035e-04 9.718172e-01 -1.773100e-01 9.711112e-01 -1.803516e-01 1.397637e-02 -2.432583e-03
1.410000e+10 9.148262e-03 2.770293e-04 9.715730e-01 -1.785263e-01 9.708574e-01 -1.815877e-01 1.402199e-02 -2.489015e-03
1.420000e+10 9.126337e-03 2.527556e-04 9.713276e-01 -1.797423e-01 9.706025e-01 -1.828235e-01 1.406733e-02 -2.545694e-03
1.430000e+10 9.103714e-03 2.284928e-04 9.710810e-01 -1.809579e-01 9.703463e-01 -1.840588e-01 1.411239e-02 -2.602611e-03
1.440000e+10 9.080394e-03 2.042510e-04 9.708334e-01 -1.821732e-01 9.700890e-01 -1.852938e-01 1.415718e-02 -2.659757e-03
1.450000e+10 9.056378e-03 1.800405e-04 9.705846e-01 -1.833882e-01 9.698306e-01 -1.865285e-01 1.420169e-02 -2.717123e-03
1.460000e+10 9.031668e-03 1.558711e-04 9.703347e-01 -1.846029e-01 9.695709e-01 -1.877628e-01 1.424593e-02 -2.774703e-03
1.470000e+10 9.006267e-03 1.317528e-04 9.700837e-01 -1.858173e-01 9.693101e-01 -1.889967e-01 1.428990e-02 -2.832486e-03
1.480000e+10 8.980175e-03 1.076955e-04 9.698315e-01 -1.870313e-01 9.690481e-01 -1.902303e-01 1.433359e-02 -2.890466e-03
1.490000e+10 8.953395e-03 8.370886e-05 9.695782e-01 -1.882451e-01 9.687848e-01 -1.914636e-01 1.437702e-02 -2.948633e-03
1.500000e+10 8.925930e-03 5.980249e-05 9.693237e-01 -1.894586e-01 9.685204e-01 -1.926965e-01 1.442018e-02 -3.006981e-03
1.510000e+10 8.897783e-03 3.598589e-05 9.690680e-01 -1.906719e-01 9.682548e-01 -1.939292e-01 1.446307e-02 -3.065500e-03
1.520000e+10 8.868955e-03 1.226846e-05 9.688112e-01 -1.918848e-01 9.679879e-01 -1.951615e-01 1.450571e-02 -3.124185e-03
1.530000e+10 8.839451e-03 -1.134055e-05 9.685532e-01 -1.930975e-01 9.677199e-01 -1.963935e-01 1.454808e-02 -3.183026e-03
1.540000e+10 8.809272e-03 -3.483198e-05 9.682940e-01 -1.943099e-01 9.674506e-01 -1.976252e-01 1.459019e-02 -3.242017e-03
1.550000e+10 8.778423e-03 -5.819682e-05 9.680337e-01 -1.955221e-01 9.671801e-01 -1.988566e-01 1.463205e-02 -3.301150e-03
1.560000e+10 8.746906e-03 -8.142615e-05 9.677721e-01 -1.967341e-01 9.669084e-01 -2.000878e-01 1.467366e-02 -3.360418e-03
1.570000e+10 8.714726e-03 -1.045112e-04 9.675094e-01 -1.979458e-01 9.666354e-01 -2.013186e-01 1.471501e-02 -3.419815e-03
1.580000e+10 8.681886e-03 -1.274434e-04 9.672454e-01 -1.991572e-01 9.663612e-01 -2.025492e-01 1.475612e-02 -3.479333e-03
1.590000e+10 8.648389e-03 -1.502141e-04 9.669802e-01 -2.003685e-01 9.660858e-01 -2.037795e-01 1.479699e-02 -3.538965e-03
1.600000e+10 8.614240e-03 -1.728151e-04 9.667139e-01 -2.015795e-01 9.658091e-01 -2.050095e-01 1.483762e-02 -3.598705e-03
1.610000e+10 8.579443e-03 -1.952380e-04 9.664462e-01 -2.027903e-01 9.655311e-01 -2.062393e-01 1.487801e-02 -3.658547e-03
1.620000e+10 8.544002e-03 -2.174747e-04 9.661774e-01 -2.040008e-01 9.652518e-01 -2.074688e-01 1.491817e-02 -3.718483e-03
1.630000e+10 8.507921e-03 -2.395174e-04 9.659073e-01 -2.052112e-01 9.649713e-01 -2.086981e-01 1.495810e-02 -3.778509e-03
1.640000e+10 8.471204e-03 -2.613581e-04 9.656360e-01 -2.064213e-01 9.646895e-01 -2.099271e-01 1.499780e-02 -3.838618e-03
1.650000e+10 8.433857e-03 -2.829893e-04 9.653634e-01 -2.076313e-01 9.644064e-01 -2.111559e-01 1.503728e-02 -3.898804e-03
1.660000e+10 8.395884e-03 -3.044033e-04 9.650896e-01 -2.088410e-01 9.641220e-01 -2.123845e-01 1.507655e-02 -3.959062e-03
