#   Hz   S  RI   R   50
!
0.000000e+00 7.346065e-03 0.000000e+00 9.926988e-01 0.000000e+00 9.927961e-01 0.000000e+00 7.439620e-03 0.000000e+00
1.000000e+08 7.346555e-03 -1.285666e-05 9.926974e-01 -1.313989e-03 9.927947e-01 -1.317291e-03 7.439897e-03 -2.448663e-05
2.000000e+08 7.348023e-03 -2.573515e-05 9.926934e-01 -2.627951e-03 9.927905e-01 -2.634550e-03 7.440727e-03 -4.899058e-05
3.000000e+08 7.350469e-03 -3.865730e-05 9.926867e-01 -3.941860e-03 9.927835e-01 -3.951748e-03 7.442109e-03 -7.352916e-05
4.000000e+08 7.353891e-03 -5.164489e-05 9.926773e-01 -5.255689e-03 9.927737e-01 -5.268852e-03 7.444042e-03 -9.811965e-05
5.000000e+08 7.358288e-03 -6.471965e-05 9.926652e-01 -6.569411e-03 9.927611e-01 -6.585833e-03 7.446525e-03 -1.227793e-04
6.000000e+08 7.363656e-03 -7.790325e-05 9.926505e-01 -7.882999e-03 9.927457e-01 -7.902659e-03 7.449556e-03 -1.475253e-04
7.000000e+08 7.369994e-03 -9.121729e-05 9.926331e-01 -9.196428e-03 9.927275e-01 -9.219299e-03 7.453132e-03 -1.723749e-04
8.000000e+08 7.377296e-03 -1.046833e-04 9.926130e-01 -1.050967e-02 9.927066e-01 -1.053572e-02 7.457250e-03 -1.973449e-04
9.000000e+08 7.385559e-03 -1.183225e-04 9.925903e-01 -1.182270e-02 9.926828e-01 -1.185190e-02 7.461908e-03 -2.224526e-04
1.000000e+09 7.394779e-03 -1.321564e-04 9.925648e-01 -1.313549e-02 9.926563e-01 -1.316781e-02 7.467100e-03 -2.477146e-04
1.100000e+09 7.404949e-03 -1.462059e-04 9.925368e-01 -1.444802e-02 9.926271e-01 -1.448340e-02 7.472824e-03 -2.731478e-04
1.200000e+09 7.416064e-03 -1.604920e-04 9.925061e-01 -1.576026e-02 9.925950e-01 -1.579866e-02 7.479073e-03 -2.987688e-04
1.300000e+09 7.428119e-03 -1.750355e-04 9.924727e-01 -1.707218e-02 9.925603e-01 -1.711356e-02 7.485845e-03 -3.245942e-04
1.400000e+09 7.441104e-03 -1.898569e-04 9.924368e-01 -1.838376e-02 9.925227e-01 -1.842806e-02 7.493131e-03 -3.506403e-04
1.500000e+09 7.455015e-03 -2.049767e-04 9.923982e-01 -1.969497e-02 9.924825e-01 -1.974214e-02 7.500928e-03 -3.769232e-04
1.600000e+09 7.469841e-03 -2.204150e-04 9.923570e-01 -2.100579e-02 9.924396e-01 -2.105576e-02 7.509229e-03 -4.034592e-04
1.700000e+09 7.485576e-03 -2.361917e-04 9.923132e-01 -2.231620e-02 9.923939e-01 -2.236891e-02 7.518026e-03 -4.302639e-04
1.800000e+09 7.502209e-03 -2.523264e-04 9.922668e-01 -2.362617e-02 9.923456e-01 -2.368155e-02 7.527313e-03 -4.573531e-04
1.900000e+09 7.519733e-03 -2.688387e-04 9.922178e-01 -2.493568e-02 9.922946e-01 -2.499365e-02 7.537082e-03 -4.847423e-04
2.000000e+09 7.538135e-03 -2.857475e-04 9.921662e-01 -2.624470e-02 9.922409e-01 -2.630520e-02 7.547325e-03 -5.124466e-04
2.100000e+09 7.557408e-03 -3.030718e-04 9.921121e-01 -2.755320e-02 9.921846e-01 -2.761615e-02 7.558034e-03 -5.404812e-04
2.200000e+09 7.577538e-03 -3.208301e-04 9.920555e-01 -2.886118e-02 9.921256e-01 -2.892649e-02 7.569201e-03 -5.688609e-04
2.300000e+09 7.598516e-03 -3.390406e-04 9.919963e-01 -3.016860e-02 9.920640e-01 -3.023619e-02 7.580815e-03 -5.976001e-04
2.400000e+09 7.620329e-03 -3.577213e-04 9.919346e-01 -3.147544e-02 9.919999e-01 -3.154523e-02 7.592869e-03 -6.267133e-04
2.500000e+09 7.642966e-03 -3.768896e-04 9.918704e-01 -3.278168e-02 9.919331e-01 -3.285358e-02 7.605351e-03 -6.562144e-04
2.600000e+09 7.666412e-03 -3.965627e-04 9.918037e-01 -3.408730e-02 9.918638e-01 -3.416121e-02 7.618253e-03 -6.861172e-04
2.700000e+09 7.690657e-03 -4.167576e-04 9.917345e-01 -3.539228e-02 9.917919e-01 -3.546811e-02 7.631563e-03 -7.164353e-04
2.800000e+09 7.715686e-03 -4.374907e-04 9.916628e-01 -3.669660e-02 9.917175e-01 -3.677425e-02 7.645270e-03 -7.471819e-04
2.900000e+09 7.741484e-03 -4.587780e-04 9.915888e-01 -3.800023e-02 9.916406e-01 -3.807960e-02 7.659365e-03 -7.783698e-04
3.000000e+09 7.768039e-03 -4.806353e-04 9.915122e-01 -3.930317e-02 9.915613e-01 -3.938415e-02 7.673834e-03 -8.100117e-04
3.100000e+09 7.795336e-03 -5.030779e-04 9.914333e-01 -4.060538e-02 9.914794e-01 -4.068788e-02 7.688667e-03 -8.421198e-04
3.200000e+09 7.823359e-03 -5.261206e-04 9.913520e-01 -4.190685e-02 9.913951e-01 -4.199077e-02 7.703851e-03 -8.747063e-04
3.300000e+09 7.852094e-03 -5.497779e-04 9.912683e-01 -4.320756e-02 9.913084e-01 -4.329279e-02 7.719375e-03 -9.077826e-04
3.400000e+09 7.881524e-03 -5.740638e-04 9.911822e-01 -4.450750e-02 9.912193e-01 -4.459392e-02 7.735225e-03 -9.413602e-04
3.500000e+09 7.911634e-03 -5.989918e-04 9.910938e-01 -4.580665e-02 9.911278e-01 -4.589415e-02 7.751389e-03 -9.754499e-04
3.600000e+09 7.942408e-03 -6.245753e-04 9.910031e-01 -4.710499e-02 9.910339e-01 -4.719346e-02 7.767854e-03 -1.010063e-03
3.700000e+09 7.973830e-03 -6.508268e-04 9.909101e-01 -4.840250e-02 9.909377e-01 -4.849184e-02 7.784606e-03 -1.045208e-03
3.800000e+09 8.005881e-03 -6.777585e-04 9.908148e-01 -4.969917e-02 9.908392e-01 -4.978926e-02 7.801632e-03 -1.080897e-03
3.900000e+09 8.038547e-03 -7.053823e-04 9.907172e-01 -5.099499e-02 9.907384e-01 -5.108571e-02 7.818918e-03 -1.117139e-03
4.000000e+09 8.071808e-03 -7.337094e-04 9.906174e-01 -5.228993e-02 9.906353e-01 -5.238117e-02 7.836450e-03 -1.153942e-03
4.100000e+09 8.105648e-03 -7.627507e-04 9.905154e-01 -5.358400e-02 9.905300e-01 -5.367564e-02 7.854214e-03 -1.191316e-03
4.200000e+09 8.140050e-03 -7.925166e-04 9.904111e-01 -5.487716e-02 9.904224e-01 -5.496909e-02 7.872195e-03 -1.229269e-03
4.300000e+09 8.174994e-03 -8.230168e-04 9.903047e-01 -5.616942e-02 9.903127e-01 -5.626152e-02 7.890379e-03 -1.267809e-03
4.400000e+09 8.210464e-03 -8.542607e-04 9.901961e-01 -5.746075e-02 9.902008e-01 -5.755290e-02 7.908752e-03 -1.306944e-03
4.500000e+09 8.246441e-03 -8.862573e-04 9.900853e-01 -5.875115e-02 9.900868e-01 -5.884324e-02 7.927297e-03 -1.346681e-03
4.600000e+09 8.282906e-03 -9.190149e-04 9.899725e-01 -6.004060e-02 9.899707e-01 -6.013252e-02 7.946001e-03 -1.387027e-03
4.700000e+09 8.319841e-03 -9.525414e-04 9.898575e-01 -6.132910e-02 9.898524e-01 -6.142072e-02 7.964847e-03 -1.427989e-03
4.800000e+09 8.357227e-03 -9.868443e-04 9.897405e-01 -6.261663e-02 9.897321e-01 -6.270785e-02 7.983821e-03 -1.469572e-03
4.900000e+09 8.395045e-03 -1.021930e-03 9.896214e-01 -6.390319e-02 9.896098e-01 -6.399388e-02 8.002908e-03 -1.511783e-03
5.000000e+09 8.433277e-03 -1.057806e-03 9.895002e-01 -6.518877e-02 9.894854e-01 -6.527882e-02 8.022091e-03 -1.554626e-03
5.100000e+09 8.471904e-03 -1.094477e-03 9.893771e-01 -6.647336e-02 9.893590e-01 -6.656266e-02 8.041355e-03 -1.598107e-03
5.200000e+09 8.510906e-03 -1.131949e-03 9.892519e-01 -6.775694e-02 9.892307e-01 -6.784538e-02 8.060684e-03 -1.642231e-03
5.300000e+09 8.550264e-03 -1.170227e-03 9.891248e-01 -6.903952e-02 9.891004e-01 -6.912699e-02 8.080063e-03 -1.687000e-03
5.400000e+09 8.589960e-03 -1.209315e-03 9.889957e-01 -7.032109e-02 9.889683e-01 -7.040747e-02 8.099476e-03 -1.732420e-03
5.500000e+09 8.629974e-03 -1.249217e-03 9.888647e-01 -7.160164e-02 9.888342e-01 -7.168683e-02 8.118906e-03 -1.778493e-03
5.600000e+09 8.670287e-03 -1.289937e-03 9.887318e-01 -7.288117e-02 9.886983e-01 -7.296506e-02 8.138338e-03 -1.825222e-03
5.700000e+09 8.710879e-03 -1.331477e-03 9.885970e-01 -7.415967e-02 9.885605e-01 -7.424216e-02 8.157756e-03 -1.872610e-03
5.800000e+09 8.751732e-03 -1.373840e-03 9.884604e-01 -7.543714e-02 9.884209e-01 -7.551813e-02 8.177144e-03 -1.920658e-03
5.900000e+09 8.792826e-03 -1.417027e-03 9.883219e-01 -7.671357e-02 9.882796e-01 -7.679295e-02 8.196486e-03 -1.969370e-03
6.000000e+09 8.834143e-03 -1.461041e-03 9.881816e-01 -7.798897e-02 9.881364e-01 -7.806665e-02 8.215766e-03 -2.018745e-03
6.100000e+09 8.875663e-03 -1.505882e-03 9.880395e-01 -7.926332e-02 9.879916e-01 -7.933920e-02 8.234968e-03 -2.068786e-03
6.200000e+09 8.917367e-03 -1.551550e-03 9.878956e-01 -8.053663e-02 9.878450e-01 -8.061062e-02 8.254077e-03 -2.119491e-03
6.300000e+09 8.959236e-03 -1.598046e-03 9.877499e-01 -8.180890e-02 9.876967e-01 -8.188090e-02 8.273075e-03 -2.170862e-03
6.400000e+09 9.001253e-03 -1.645370e-03 9.876025e-01 -8.308012e-02 9.875468e-01 -8.315005e-02 8.291947e-03 -2.222899e-03
6.500000e+09 9.043396e-03 -1.693519e-03 9.874534e-01 -8.435030e-02 9.873952e-01 -8.441806e-02 8.310679e-03 -2.275600e-03
6.600000e+09 9.085650e-03 -1.742493e-03 9.873026e-01 -8.561944e-02 9.872420e-01 -8.568495e-02 8.329253e-03 -2.328965e-03
6.700000e+09 9.127994e-03 -1.792290e-03 9.871502e-01 -8.688753e-02 9.870873e-01 -8.695071e-02 8.347654e-03 -2.382993e-03
6.800000e+09 9.170410e-03 -1.842908e-03 9.869961e-01 -8.815458e-02 9.869309e-01 -8.821536e-02 8.365866e-03 -2.437681e-03
6.900000e+09 9.212881e-03 -1.894344e-03 9.868403e-01 -8.942059e-02 9.867730e-01 -8.947889e-02 8.383875e-03 -2.493027e-03
7.000000e+09 9.255389e-03 -1.946594e-03 9.866830e-01 -9.068556e-02 9.866136e-01 -9.074131e-02 8.401664e-03 -2.549029e-03
7.100000e+09 9.297914e-03 -1.999656e-03 9.865240e-01 -9.194950e-02 9.864527e-01 -9.200262e-02 8.419219e-03 -2.605685e-03
7.200000e+09 9.340441e-03 -2.053524e-03 9.863635e-01 -9.321241e-02 9.862903e-01 -9.326284e-02 8.436524e-03 -2.662991e-03
7.300000e+09 9.382952e-03 -2.108196e-03 9.862014e-01 -9.447429e-02 9.861264e-01 -9.452197e-02 8.453564e-03 -2.720942e-03
7.400000e+09 9.425428e-03 -2.163665e-03 9.860378e-01 -9.573514e-02 9.859611e-01 -9.578001e-02 8.470325e-03 -2.779537e-03
7.500000e+09 9.467854e-03 -2.219928e-03 9.858727e-01 -9.699498e-02 9.857944e-01 -9.703698e-02 8.486791e-03 -2.838769e-03
7.600000e+09 9.510212e-03 -2.276977e-03 9.857061e-01 -9.825381e-02 9.856263e-01 -9.829289e-02 8.502948e-03 -2.898636e-03
7.700000e+09 9.552486e-03 -2.334807e-03 9.855380e-01 -9.951162e-02 9.854568e-01 -9.954774e-02 8.518782e-03 -2.959131e-03
7.800000e+09 9.594660e-03 -2.393412e-03 9.853685e-01 -1.007684e-01 9.852860e-01 -1.008015e-01 8.534278e-03 -3.020250e-03
7.900000e+09 9.636718e-03 -2.452785e-03 9.851975e-01 -1.020243e-01 9.851138e-01 -1.020543e-01 8.549423e-03 -3.081986e-03
8.000000e+09 9.678643e-03 -2.512919e-03 9.850250e-01 -1.032791e-01 9.849403e-01 -1.033060e-01 8.564202e-03 -3.144335e-03
8.100000e+09 9.720420e-03 -2.573806e-03 9.848512e-01 -1.045329e-01 9.847655e-01 -1.045568e-01 8.578601e-03 -3.207290e-03
8.200000e+09 9.762035e-03 -2.635440e-03 9.846760e-01 -1.057858e-01 9.845894e-01 -1.058065e-01 8.592608e-03 -3.270845e-03
8.300000e+09 9.803471e-03 -2.697810e-03 9.844994e-01 -1.070377e-01 9.844120e-01 -1.070552e-01 8.606209e-03 -3.334992e-03
8.400000e+09 9.844715e-03 -2.760910e-03 9.843215e-01 -1.082887e-01 9.842334e-01 -1.083030e-01 8.619391e-03 -3.399725e-03
8.500000e+09 9.885752e-03 -2.824731e-03 9.841422e-01 -1.095387e-01 9.840536e-01 -1.095497e-01 8.632140e-03 -3.465037e-03
8.600000e+09 9.926567e-03 -2.889263e-03 9.839616e-01 -1.107878e-01 9.838726e-01 -1.107956e-01 8.644445e-03 -3.530920e-03
8.700000e+09 9.967148e-03 -2.954498e-03 9.837796e-01 -1.120359e-01 9.836903e-01 -1.120404e-01 8.656293e-03 -3.597366e-03
8.800000e+09 1.000748e-02 -3.020425e-03 9.835964e-01 -1.132831e-01 9.835069e-01 -1.132844e-01 8.667671e-03 -3.664366e-03
8.900000e+09 1.004755e-02 -3.087035e-03 9.834119e-01 -1.145294e-01 9.833222e-01 -1.145274e-01 8.678568e-03 -3.731914e-03
9.000000e+09 1.008735e-02 -3.154318e-03 9.832261e-01 -1.157748e-01 9.831365e-01 -1.157696e-01 8.688973e-03 -3.799999e-03
9.100000e+09 1.012686e-02 -3.222263e-03 9.830391e-01 -1.170193e-01 9.829495e-01 -1.170108e-01 8.698872e-03 -3.868614e-03
9.200000e+09 1.016607e-02 -3.290860e-03 9.828508e-01 -1.182630e-01 9.827615e-01 -1.182512e-01 8.708256e-03 -3.937749e-03
9.300000e+09 1.020497e-02 -3.360099e-03 9.826613e-01 -1.195057e-01 9.825723e-01 -1.194907e-01 8.717114e-03 -4.007395e-03
9.400000e+09 1.024355e-02 -3.429967e-03 9.824706e-01 -1.207477e-01 9.823820e-01 -1.207294e-01 8.725434e-03 -4.077543e-03
9.500000e+09 1.028180e-02 -3.500455e-03 9.822786e-01 -1.219887e-01 9.821906e-01 -1.219672e-01 8.733206e-03 -4.148183e-03
9.600000e+09 1.031970e-02 -3.571550e-03 9.820855e-01 -1.232290e-01 9.819981e-01 -1.232043e-01 8.740421e-03 -4.219304e-03
9.700000e+09 1.035724e-02 -3.643241e-03 9.818912e-01 -1.244684e-01 9.818045e-01 -1.244405e-01 8.747068e-03 -4.290898e-03
9.800000e+09 1.039443e-02 -3.715517e-03 9.816957e-01 -1.257070e-01 9.816099e-01 -1.256759e-01 8.753137e-03 -4.362953e-03
9.900000e+09 1.043124e-02 -3.788365e-03 9.814990e-01 -1.269448e-01 9.814142e-01 -1.269106e-01 8.758620e-03 -4.435459e-03
1.000000e+10 1.046766e-02 -3.861773e-03 9.813012e-01 -1.281818e-01 9.812174e-01 -1.281446e-01 8.763507e-03 -4.508407e-03
1.010000e+10 1.050369e-02 -3.935730e-03 9.811022e-01 -1.294180e-01 9.810196e-01 -1.293778e-01 8.767789e-03 -4.581784e-03
1.020000e+10 1.053933e-02 -4.010222e-03 9.809021e-01 -1.306535e-01 9.808208e-01 -1.306102e-01 8.771458e-03 -4.655581e-03
1.030000e+10 1.057455e-02 -4.085238e-03 9.807009e-01 -1.318882e-01 9.806209e-01 -1.318420e-01 8.774506e-03 -4.729786e-03
1.040000e+10 1.060935e-02 -4.160764e-03 9.804986e-01 -1.331222e-01 9.804200e-01 -1.330731e-01 8.776924e-03 -4.804388e-03
1.050000e+10 1.064373e-02 -4.236789e-03 9.802951e-01 -1.343555e-01 9.802181e-01 -1.343035e-01 8.778706e-03 -4.879375e-03
1.060000e+10 1.067768e-02 -4.313300e-03 9.800905e-01 -1.355881e-01 9.800152e-01 -1.355333e-01 8.779844e-03 -4.954738e-03
1.070000e+10 1.071119e-02 -4.390283e-03 9.798849e-01 -1.368199e-01 9.798112e-01 -1.367624e-01 8.780330e-03 -5.030463e-03
1.080000e+10 1.074426e-02 -4.467726e-03 9.796781e-01 -1.380511e-01 9.796063e-01 -1.379909e-01 8.780158e-03 -5.106540e-03
1.090000e+10 1.077687e-02 -4.545616e-03 9.794702e-01 -1.392816e-01 9.794003e-01 -1.392187e-01 8.779321e-03 -5.182956e-03
1.100000e+10 1.080903e-02 -4.623941e-03 9.792613e-01 -1.405115e-01 9.791933e-01 -1.404460e-01 8.777814e-03 -5.259701e-03
1.110000e+10 1.084072e-02 -4.702686e-03 9.790513e-01 -1.417407e-01 9.789854e-01 -1.416727e-01 8.775630e-03 -5.336762e-03
1.120000e+10 1.087195e-02 -4.781839e-03 9.788402e-01 -1.429692e-01 9.787764e-01 -1.428989e-01 8.772764e-03 -5.414127e-03
1.130000e+10 1.090270e-02 -4.861387e-03 9.786280e-01 -1.441972e-01 9.785665e-01 -1.441245e-01 8.769211e-03 -5.491784e-03
1.140000e+10 1.093298e-02 -4.941316e-03 9.784148e-01 -1.454246e-01 9.783555e-01 -1.453495e-01 8.764964e-03 -5.569722e-03
1.150000e+10 1.096278e-02 -5.021615e-03 9.782005e-01 -1.466513e-01 9.781436e-01 -1.465741e-01 8.760021e-03 -5.647928e-03
1.160000e+10 1.099209e-02 -5.102269e-03 9.779851e-01 -1.478775e-01 9.779306e-01 -1.477982e-01 8.754375e-03 -5.726391e-03
1.170000e+10 1.102092e-02 -5.183266e-03 9.777687e-01 -1.491031e-01 9.777167e-01 -1.490217e-01 8.748024e-03 -5.805097e-03
1.180000e+10 1.104925e-02 -5.264593e-03 9.775512e-01 -1.503281e-01 9.775018e-01 -1.502448e-01 8.740963e-03 -5.884036e-03
1.190000e+10 1.107709e-02 -5.346236e-03 9.773327e-01 -1.515527e-01 9.772859e-01 -1.514674e-01 8.733188e-03 -5.963194e-03
1.200000e+10 1.110444e-02 -5.428184e-03 9.771131e-01 -1.527766e-01 9.770690e-01 -1.526896e-01 8.724697e-03 -6.042560e-03
1.210000e+10 1.113129e-02 -5.510422e-03 9.768925e-01 -1.540001e-01 9.768510e-01 -1.539114e-01 8.715486e-03 -6.122122e-03
1.220000e+10 1.115764e-02 -5.592938e-03 9.766708e-01 -1.552231e-01 9.766321e-01 -1.551327e-01 8.705552e-03 -6.201867e-03
1.230000e+10 1.118350e-02 -5.675719e-03 9.764481e-01 -1.564455e-01 9.764122e-01 -1.563537e-01 8.694894e-03 -6.281783e-03
1.240000e+10 1.120885e-02 -5.758754e-03 9.762243e-01 -1.576675e-01 9.761912e-01 -1.575742e-01 8.683508e-03 -6.361858e-03
1.250000e+10 1.123370e-02 -5.842028e-03 9.759994e-01 -1.588890e-01 9.759693e-01 -1.587944e-01 8.671393e-03 -6.442080e-03
1.260000e+10 1.125804e-02 -5.925530e-03 9.757735e-01 -1.601101e-01 9.757463e-01 -1.600142e-01 8.658548e-03 -6.522437e-03
1.270000e+10 1.128189e-02 -6.009248e-03 9.755466e-01 -1.613307e-01 9.755223e-01 -1.612337e-01 8.644971e-03 -6.602917e-03
1.280000e+10 1.130523e-02 -6.093168e-03 9.753186e-01 -1.625509e-01 9.752973e-01 -1.624528e-01 8.630660e-03 -6.683507e-03
1.290000e+10 1.132807e-02 -6.177279e-03 9.750895e-01 -1.637707e-01 9.750713e-01 -1.636716e-01 8.615615e-03 -6.764197e-03
1.300000e+10 1.135042e-02 -6.261569e-03 9.748594e-01 -1.649900e-01 9.748442e-01 -1.648901e-01 8.599836e-03 -6.844974e-03
1.310000e+10 1.137226e-02 -6.346026e-03 9.746282e-01 -1.662090e-01 9.746161e-01 -1.661083e-01 8.583322e-03 -6.925825e-03
1.320000e+10 1.139360e-02 -6.430637e-03 9.743959e-01 -1.674276e-01 9.743869e-01 -1.673262e-01 8.566073e-03 -7.006740e-03
1.330000e+10 1.141445e-02 -6.515393e-03 9.741626e-01 -1.686457e-01 9.741566e-01 -1.685438e-01 8.548089e-03 -7.087707e-03
1.340000e+10 1.143481e-02 -6.600280e-03 9.739282e-01 -1.698636e-01 9.739253e-01 -1.697612e-01 8.529370e-03 -7.168714e-03
1.350000e+10 1.145467e-02 -6.685287e-03 9.736927e-01 -1.710810e-01 9.736930e-01 -1.709783e-01 8.509918e-03 -7.249750e-03
1.360000e+10 1.147404e-02 -6.770404e-03 9.734561e-01 -1.722982e-01 9.734595e-01 -1.721951e-01 8.489733e-03 -7.330802e-03
1.370000e+10 1.149293e-02 -6.855619e-03 9.732185e-01 -1.735149e-01 9.732250e-01 -1.734117e-01 8.468816e-03 -7.411861e-03
1.380000e+10 1.151133e-02 -6.940922e-03 9.729797e-01 -1.747314e-01 9.729894e-01 -1.746281e-01 8.447168e-03 -7.492914e-03
1.390000e+10 1.152925e-02 -7.026301e-03 9.727399e-01 -1.759475e-01 9.727527e-01 -1.758443e-01 8.424792e-03 -7.573950e-03
1.400000e+10 1.154670e-02 -7.111747e-03 9.724990e-01 -1.771634e-01 9.725148e-01 -1.770602e-01 8.401689e-03 -7.654959e-03
1.410000e+10 1.156367e-02 -7.197249e-03 9.722569e-01 -1.783789e-01 9.722759e-01 -1.782759e-01 8.377860e-03 -7.735929e-03
1.420000e+10 1.158017e-02 -7.282796e-03 9.720138e-01 -1.795941e-01 9.720358e-01 -1.794915e-01 8.353309e-03 -7.816850e-03
1.430000e+10 1.159620e-02 -7.368379e-03 9.717695e-01 -1.808091e-01 9.717946e-01 -1.807068e-01 8.328038e-03 -7.897711e-03
1.440000e+10 1.161177e-02 -7.453988e-03 9.715241e-01 -1.820238e-01 9.715522e-01 -1.819220e-01 8.302049e-03 -7.978501e-03
1.450000e+10 1.162689e-02 -7.539613e-03 9.712776e-01 -1.832382e-01 9.713087e-01 -1.831370e-01 8.275345e-03 -8.059211e-03
1.460000e+10 1.164155e-02 -7.625246e-03 9.710299e-01 -1.844523e-01 9.710640e-01 -1.843518e-01 8.247929e-03 -8.139829e-03
1.470000e+10 1.165577e-02 -7.710876e-03 9.707811e-01 -1.856663e-01 9.708182e-01 -1.855665e-01 8.219805e-03 -8.220345e-03
1.480000e+10 1.166954e-02 -7.796495e-03 9.705312e-01 -1.868799e-01 9.705712e-01 -1.867810e-01 8.190975e-03 -8.300750e-03
1.490000e+10 1.168287e-02 -7.882094e-03 9.702801e-01 -1.880933e-01 9.703229e-01 -1.879954e-01 8.161445e-03 -8.381033e-03
1.500000e+10 1.169578e-02 -7.967665e-03 9.700278e-01 -1.893065e-01 9.700735e-01 -1.892096e-01 8.131216e-03 -8.461186e-03
1.510000e+10 1.170825e-02 -8.053199e-03 9.697744e-01 -1.905195e-01 9.698229e-01 -1.904236e-01 8.100293e-03 -8.541198e-03
1.520000e+10 1.172031e-02 -8.138689e-03 9.695198e-01 -1.917322e-01 9.695710e-01 -1.916376e-01 8.068681e-03 -8.621059e-03
1.530000e+10 1.173195e-02 -8.224125e-03 9.692640e-01 -1.929447e-01 9.693180e-01 -1.928514e-01 8.036384e-03 -8.700761e-03
1.540000e+10 1.174318e-02 -8.309502e-03 9.690070e-01 -1.941571e-01 9.690636e-01 -1.940650e-01 8.003405e-03 -8.780295e-03
1.550000e+10 1.175400e-02 -8.394810e-03 9.687488e-01 -1.953692e-01 9.688081e-01 -1.952786e-01 7.969750e-03 -8.859651e-03
1.560000e+10 1.176443e-02 -8.480043e-03 9.684895e-01 -1.965811e-01 9.685512e-01 -1.964920e-01 7.935423e-03 -8.938821e-03
1.570000e+10 1.177447e-02 -8.565194e-03 9.682289e-01 -1.977928e-01 9.682931e-01 -1.977053e-01 7.900430e-03 -9.017796e-03
1.580000e+10 1.178413e-02 -8.650256e-03 9.679670e-01 -1.990044e-01 9.680338e-01 -1.989185e-01 7.864775e-03 -9.096568e-03
1.590000e+10 1.179340e-02 -8.735223e-03 9.677040e-01 -2.002157e-01 9.677731e-01 -2.001315e-01 7.828463e-03 -9.175128e-03
1.600000e+10 1.180231e-02 -8.820088e-03 9.674397e-01 -2.014269e-01 9.675111e-01 -2.013445e-01 7.791499e-03 -9.253468e-03
1.610000e+10 1.181085e-02 -8.904845e-03 9.671741e-01 -2.026379e-01 9.672478e-01 -2.025573e-01 7.753890e-03 -9.331581e-03
1.620000e+10 1.181903e-02 -8.989489e-03 9.669074e-01 -2.038487e-01 9.669832e-01 -2.037700e-01 7.715640e-03 -9.409458e-03
1.630000e+10 1.182686e-02 -9.074013e-03 9.666393e-01 -2.050593e-01 9.667173e-01 -2.049826e-01 7.676756e-03 -9.487092e-03
1.640000e+10 1.183434e-02 -9.158412e-03 9.663700e-01 -2.062698e-01 9.664500e-01 -2.061951e-01 7.637242e-03 -9.564475e-03
