#   Hz   S  RI   R   50
!
0.000000e+00 2.371530e-03 0.000000e+00 9.976296e-01 0.000000e+00 9.976227e-01 0.000000e+00 2.365562e-03 0.000000e+00
1.000000e+08 2.371667e-03 5.614773e-06 9.976294e-01 -3.515569e-04 9.976225e-01 -3.518548e-04 2.365699e-03 5.364079e-06
2.000000e+08 2.372080e-03 1.122241e-05 9.976287e-01 -7.031037e-04 9.976218e-01 -7.037001e-04 2.366109e-03 1.072088e-05
3.000000e+08 2.372767e-03 1.681578e-05 9.976276e-01 -1.054631e-03 9.976207e-01 -1.055526e-03 2.366793e-03 1.606313e-05
4.000000e+08 2.373728e-03 2.238778e-05 9.976261e-01 -1.406128e-03 9.976192e-01 -1.407323e-03 2.367749e-03 2.138357e-05
5.000000e+08 2.374963e-03 2.793131e-05 9.976241e-01 -1.757585e-03 9.976173e-01 -1.759082e-03 2.368978e-03 2.667499e-05
6.000000e+08 2.376470e-03 3.343932e-05 9.976216e-01 -2.108993e-03 9.976149e-01 -2.110793e-03 2.370477e-03 3.193017e-05
7.000000e+08 2.378248e-03 3.890480e-05 9.976188e-01 -2.460342e-03 9.976120e-01 -2.462446e-03 2.372245e-03 3.714198e-05
8.000000e+08 2.380296e-03 4.432077e-05 9.976155e-01 -2.811621e-03 9.976088e-01 -2.814033e-03 2.374282e-03 4.230330e-05
9.000000e+08 2.382611e-03 4.968033e-05 9.976117e-01 -3.162822e-03 9.976051e-01 -3.165544e-03 2.376585e-03 4.740710e-05
1.000000e+09 2.385193e-03 5.497664e-05 9.976076e-01 -3.513934e-03 9.976010e-01 -3.516969e-03 2.379153e-03 5.244639e-05
1.100000e+09 2.388039e-03 6.020290e-05 9.976030e-01 -3.864950e-03 9.975965e-01 -3.868300e-03 2.381982e-03 5.741428e-05
1.200000e+09 2.391147e-03 6.535244e-05 9.975980e-01 -4.215858e-03 9.975916e-01 -4.219528e-03 2.385072e-03 6.230394e-05
1.300000e+09 2.394514e-03 7.041862e-05 9.975925e-01 -4.566650e-03 9.975862e-01 -4.570644e-03 2.388419e-03 6.710865e-05
1.400000e+09 2.398137e-03 7.539495e-05 9.975867e-01 -4.917318e-03 9.975805e-01 -4.921639e-03 2.392021e-03 7.182176e-05
1.500000e+09 2.402014e-03 8.027499e-05 9.975804e-01 -5.267851e-03 9.975743e-01 -5.272504e-03 2.395874e-03 7.643675e-05
1.600000e+09 2.406142e-03 8.505245e-05 9.975737e-01 -5.618243e-03 9.975677e-01 -5.623232e-03 2.399975e-03 8.094720e-05
1.700000e+09 2.410517e-03 8.972111e-05 9.975667e-01 -5.968483e-03 9.975608e-01 -5.973814e-03 2.404321e-03 8.534682e-05
1.800000e+09 2.415136e-03 9.427491e-05 9.975592e-01 -6.318565e-03 9.975534e-01 -6.324241e-03 2.408909e-03 8.962942e-05
1.900000e+09 2.419995e-03 9.870788e-05 9.975513e-01 -6.668479e-03 9.975457e-01 -6.674507e-03 2.413735e-03 9.378898e-05
2.000000e+09 2.425091e-03 1.030142e-04 9.975431e-01 -7.018218e-03 9.975375e-01 -7.024604e-03 2.418794e-03 9.781957e-05
2.100000e+09 2.430419e-03 1.071882e-04 9.975344e-01 -7.367775e-03 9.975290e-01 -7.374523e-03 2.424083e-03 1.017154e-04
2.200000e+09 2.435976e-03 1.112244e-04 9.975254e-01 -7.717141e-03 9.975201e-01 -7.724258e-03 2.429597e-03 1.054710e-04
2.300000e+09 2.441757e-03 1.151173e-04 9.975160e-01 -8.066310e-03 9.975109e-01 -8.073801e-03 2.435332e-03 1.090807e-04
2.400000e+09 2.447757e-03 1.188617e-04 9.975063e-01 -8.415275e-03 9.975013e-01 -8.423147e-03 2.441284e-03 1.125394e-04
2.500000e+09 2.453972e-03 1.224525e-04 9.974962e-01 -8.764029e-03 9.974913e-01 -8.772288e-03 2.447447e-03 1.158418e-04
2.600000e+09 2.460398e-03 1.258849e-04 9.974857e-01 -9.112565e-03 9.974810e-01 -9.121218e-03 2.453817e-03 1.189831e-04
2.700000e+09 2.467029e-03 1.291540e-04 9.974749e-01 -9.460878e-03 9.974704e-01 -9.469931e-03 2.460388e-03 1.219584e-04
2.800000e+09 2.473860e-03 1.322553e-04 9.974637e-01 -9.808961e-03 9.974594e-01 -9.818422e-03 2.467156e-03 1.247631e-04
2.900000e+09 2.480887e-03 1.351844e-04 9.974523e-01 -1.015681e-02 9.974480e-01 -1.016668e-02 2.474116e-03 1.273927e-04
3.000000e+09 2.488104e-03 1.379370e-04 9.974405e-01 -1.050442e-02 9.974364e-01 -1.051471e-02 2.481261e-03 1.298431e-04
3.100000e+09 2.495506e-03 1.405092e-04 9.974283e-01 -1.085178e-02 9.974244e-01 -1.086250e-02 2.488587e-03 1.321102e-04
3.200000e+09 2.503088e-03 1.428969e-04 9.974159e-01 -1.119889e-02 9.974122e-01 -1.121005e-02 2.496088e-03 1.341900e-04
3.300000e+09 2.510843e-03 1.450967e-04 9.974032e-01 -1.154575e-02 9.973996e-01 -1.155735e-02 2.503758e-03 1.360790e-04
3.400000e+09 2.518767e-03 1.471048e-04 9.973902e-01 -1.189235e-02 9.973867e-01 -1.190439e-02 2.511592e-03 1.377736e-04
3.500000e+09 2.526853e-03 1.489182e-04 9.973769e-01 -1.223868e-02 9.973736e-01 -1.225118e-02 2.519583e-03 1.392706e-04
3.600000e+09 2.535097e-03 1.505336e-04 9.973633e-01 -1.258475e-02 9.973602e-01 -1.259771e-02 2.527726e-03 1.405668e-04
3.700000e+09 2.543491e-03 1.519481e-04 9.973494e-01 -1.293055e-02 9.973465e-01 -1.294398e-02 2.536015e-03 1.416594e-04
3.800000e+09 2.552031e-03 1.531590e-04 9.973353e-01 -1.327607e-02 9.973325e-01 -1.328998e-02 2.544444e-03 1.425456e-04
3.900000e+09 2.560710e-03 1.541637e-04 9.973209e-01 -1.362132e-02 9.973183e-01 -1.363571e-02 2.553006e-03 1.432230e-04
4.000000e+09 2.569523e-03 1.549600e-04 9.973063e-01 -1.396629e-02 9.973038e-01 -1.398117e-02 2.561697e-03 1.436893e-04
4.100000e+09 2.578464e-03 1.555457e-04 9.972915e-01 -1.431098e-02 9.972891e-01 -1.432636e-02 2.570508e-03 1.439425e-04
4.200000e+09 2.587526e-03 1.559187e-04 9.972764e-01 -1.465539e-02 9.972742e-01 -1.467127e-02 2.579435e-03 1.439805e-04
4.300000e+09 2.596703e-03 1.560775e-04 9.972611e-01 -1.499952e-02 9.972590e-01 -1.501590e-02 2.588472e-03 1.438018e-04
4.400000e+09 2.605990e-03 1.560203e-04 9.972455e-01 -1.534335e-02 9.972436e-01 -1.536026e-02 2.597611e-03 1.434048e-04
4.500000e+09 2.615380e-03 1.557459e-04 9.972298e-01 -1.568691e-02 9.972281e-01 -1.570433e-02 2.606847e-03 1.427882e-04
4.600000e+09 2.624868e-03 1.552530e-04 9.972139e-01 -1.603018e-02 9.972123e-01 -1.604812e-02 2.616174e-03 1.419510e-04
4.700000e+09 2.634447e-03 1.545406e-04 9.971978e-01 -1.637316e-02 9.971963e-01 -1.639164e-02 2.625585e-03 1.408923e-04
4.800000e+09 2.644111e-03 1.536081e-04 9.971815e-01 -1.671585e-02 9.971801e-01 -1.673487e-02 2.635074e-03 1.396112e-04
4.900000e+09 2.653855e-03 1.524546e-04 9.971650e-01 -1.705825e-02 9.971637e-01 -1.707781e-02 2.644636e-03 1.381075e-04
5.000000e+09 2.663672e-03 1.510798e-04 9.971483e-01 -1.740037e-02 9.971472e-01 -1.742048e-02 2.654264e-03 1.363806e-04
5.100000e+09 2.673556e-03 1.494834e-04 9.971315e-01 -1.774220e-02 9.971305e-01 -1.776287e-02 2.663952e-03 1.344304e-04
5.200000e+09 2.683503e-03 1.476654e-04 9.971146e-01 -1.808375e-02 9.971137e-01 -1.810497e-02 2.673694e-03 1.322571e-04
5.300000e+09 2.693504e-03 1.456259e-04 9.970975e-01 -1.842501e-02 9.970967e-01 -1.844680e-02 2.683484e-03 1.298608e-04
5.400000e+09 2.703556e-03 1.433650e-04 9.970802e-01 -1.876599e-02 9.970795e-01 -1.878834e-02 2.693316e-03 1.272419e-04
5.500000e+09 2.713651e-03 1.408834e-04 9.970629e-01 -1.910669e-02 9.970623e-01 -1.912961e-02 2.703184e-03 1.244009e-04
5.600000e+09 2.723786e-03 1.381815e-04 9.970454e-01 -1.944712e-02 9.970449e-01 -1.947061e-02 2.713083e-03 1.213388e-04
5.700000e+09 2.733952e-03 1.352601e-04 9.970278e-01 -1.978726e-02 9.970273e-01 -1.981133e-02 2.723007e-03 1.180562e-04
5.800000e+09 2.744146e-03 1.321203e-04 9.970101e-01 -2.012713e-02 9.970097e-01 -2.015178e-02 2.732950e-03 1.145544e-04
5.900000e+09 2.754362e-03 1.287629e-04 9.969922e-01 -2.046673e-02 9.969919e-01 -2.049196e-02 2.742906e-03 1.108345e-04
6.000000e+09 2.764594e-03 1.251894e-04 9.969743e-01 -2.080606e-02 9.969741e-01 -2.083187e-02 2.752870e-03 1.068979e-04
6.100000e+09 2.774837e-03 1.214011e-04 9.969563e-01 -2.114512e-02 9.969561e-01 -2.117152e-02 2.762837e-03 1.027461e-04
6.200000e+09 2.785086e-03 1.173994e-04 9.969382e-01 -2.148392e-02 9.969381e-01 -2.151091e-02 2.772801e-03 9.838091e-05
6.300000e+09 2.795335e-03 1.131862e-04 9.969200e-01 -2.182246e-02 9.969200e-01 -2.185004e-02 2.782758e-03 9.380404e-05
6.400000e+09 2.805580e-03 1.087631e-04 9.969018e-01 -2.216074e-02 9.969018e-01 -2.218892e-02 2.792701e-03 8.901748e-05
6.500000e+09 2.815815e-03 1.041322e-04 9.968835e-01 -2.249877e-02 9.968835e-01 -2.252754e-02 2.802627e-03 8.402330e-05
6.600000e+09 2.826036e-03 9.929537e-05 9.968651e-01 -2.283656e-02 9.968651e-01 -2.286592e-02 2.812529e-03 7.882373e-05
6.700000e+09 2.836238e-03 9.425494e-05 9.968467e-01 -2.317410e-02 9.968467e-01 -2.320405e-02 2.822404e-03 7.342109e-05
6.800000e+09 2.846417e-03 8.901317e-05 9.968282e-01 -2.351139e-02 9.968283e-01 -2.354194e-02 2.832247e-03 6.781785e-05
6.900000e+09 2.856567e-03 8.357245e-05 9.968097e-01 -2.384846e-02 9.968098e-01 -2.387960e-02 2.842053e-03 6.201655e-05
7.000000e+09 2.866685e-03 7.793531e-05 9.967912e-01 -2.418529e-02 9.967912e-01 -2.421703e-02 2.851818e-03 5.601988e-05
7.100000e+09 2.876765e-03 7.210437e-05 9.967726e-01 -2.452189e-02 9.967726e-01 -2.455422e-02 2.861537e-03 4.983061e-05
7.200000e+09 2.886805e-03 6.608235e-05 9.967539e-01 -2.485827e-02 9.967539e-01 -2.489120e-02 2.871207e-03 4.345161e-05
7.300000e+09 2.896799e-03 5.987206e-05 9.967353e-01 -2.519444e-02 9.967353e-01 -2.522795e-02 2.880822e-03 3.688584e-05
7.400000e+09 2.906745e-03 5.347638e-05 9.967166e-01 -2.553039e-02 9.967165e-01 -2.556449e-02 2.890380e-03 3.013635e-05
7.500000e+09 2.916637e-03 4.689832e-05 9.966979e-01 -2.586613e-02 9.966978e-01 -2.590082e-02 2.899877e-03 2.320628e-05
7.600000e+09 2.926473e-03 4.014092e-05 9.966792e-01 -2.620168e-02 9.966791e-01 -2.623695e-02 2.909308e-03 1.609881e-05
7.700000e+09 2.936248e-03 3.320732e-05 9.966605e-01 -2.653702e-02 9.966603e-01 -2.657288e-02 2.918671e-03 8.817249e-06
7.800000e+09 2.945960e-03 2.610073e-05 9.966418e-01 -2.687217e-02 9.966415e-01 -2.690861e-02 2.927961e-03 1.364924e-06
7.900000e+09 2.955605e-03 1.882440e-05 9.966230e-01 -2.720714e-02 9.966227e-01 -2.724415e-02 2.937176e-03 -6.254752e-06
8.000000e+09 2.965180e-03 1.138166e-05 9.966043e-01 -2.754192e-02 9.966039e-01 -2.757950e-02 2.946313e-03 -1.403832e-05
8.100000e+09 2.974682e-03 3.775906e-06 9.965855e-01 -2.787652e-02 9.965850e-01 -2.791468e-02 2.955368e-03 -2.198226e-05
8.200000e+09 2.984107e-03 -3.989449e-06 9.965668e-01 -2.821096e-02 9.965662e-01 -2.824968e-02 2.964339e-03 -3.008301e-05
8.300000e+09 2.993454e-03 -1.191092e-05 9.965481e-01 -2.854523e-02 9.965474e-01 -2.858451e-02 2.973223e-03 -3.833698e-05
8.400000e+09 3.002719e-03 -1.998501e-05 9.965293e-01 -2.887934e-02 9.965286e-01 -2.891918e-02 2.982016e-03 -4.674051e-05
8.500000e+09 3.011900e-03 -2.820814e-05 9.965106e-01 -2.921329e-02 9.965097e-01 -2.925368e-02 2.990718e-03 -5.528995e-05
8.600000e+09 3.020994e-03 -3.657675e-05 9.964919e-01 -2.954710e-02 9.964909e-01 -2.958804e-02 2.999325e-03 -6.398158e-05
8.700000e+09 3.030000e-03 -4.508722e-05 9.964732e-01 -2.988076e-02 9.964721e-01 -2.992224e-02 3.007836e-03 -7.281168e-05
8.800000e+09 3.038914e-03 -5.373591e-05 9.964545e-01 -3.021428e-02 9.964533e-01 -3.025630e-02 3.016248e-03 -8.177652e-05
8.900000e+09 3.047736e-03 -6.251919e-05 9.964358e-01 -3.054767e-02 9.964345e-01 -3.059022e-02 3.024559e-03 -9.087234e-05
9.000000e+09 3.056463e-03 -7.143337e-05 9.964172e-01 -3.088093e-02 9.964157e-01 -3.092401e-02 3.032767e-03 -1.000954e-04
9.100000e+09 3.065093e-03 -8.047480e-05 9.963985e-01 -3.121407e-02 9.963969e-01 -3.125767e-02 3.040871e-03 -1.094418e-04
9.200000e+09 3.073624e-03 -8.963977e-05 9.963799e-01 -3.154709e-02 9.963782e-01 -3.159120e-02 3.048870e-03 -1.189080e-04
9.300000e+09 3.082056e-03 -9.892461e-05 9.963612e-01 -3.187999e-02 9.963594e-01 -3.192462e-02 3.056761e-03 -1.284900e-04
9.400000e+09 3.090387e-03 -1.083256e-04 9.963426e-01 -3.221280e-02 9.963407e-01 -3.225792e-02 3.064544e-03 -1.381842e-04
9.500000e+09 3.098614e-03 -1.178392e-04 9.963241e-01 -3.254549e-02 9.963219e-01 -3.259112e-02 3.072217e-03 -1.479867e-04
9.600000e+09 3.106739e-03 -1.274616e-04 9.963055e-01 -3.287810e-02 9.963032e-01 -3.292421e-02 3.079780e-03 -1.578939e-04
9.700000e+09 3.114758e-03 -1.371891e-04 9.962869e-01 -3.321061e-02 9.962845e-01 -3.325721e-02 3.087231e-03 -1.679020e-04
9.800000e+09 3.122671e-03 -1.470182e-04 9.962684e-01 -3.354303e-02 9.962658e-01 -3.359011e-02 3.094569e-03 -1.780073e-04
9.900000e+09 3.130478e-03 -1.569452e-04 9.962499e-01 -3.387537e-02 9.962471e-01 -3.392292e-02 3.101794e-03 -1.882061e-04
1.000000e+10 3.138178e-03 -1.669666e-04 9.962313e-01 -3.420764e-02 9.962285e-01 -3.425565e-02 3.108906e-03 -1.984948e-04
1.010000e+10 3.145770e-03 -1.770787e-04 9.962128e-01 -3.453983e-02 9.962098e-01 -3.458830e-02 3.115903e-03 -2.088698e-04
1.020000e+10 3.153253e-03 -1.872780e-04 9.961944e-01 -3.487195e-02 9.961911e-01 -3.492088e-02 3.122785e-03 -2.193275e-04
1.030000e+10 3.160628e-03 -1.975610e-04 9.961759e-01 -3.520402e-02 9.961725e-01 -3.525339e-02 3.129553e-03 -2.298643e-04
1.040000e+10 3.167893e-03 -2.079242e-04 9.961574e-01 -3.553602e-02 9.961539e-01 -3.558583e-02 3.136206e-03 -2.404768e-04
1.050000e+10 3.175049e-03 -2.183642e-04 9.961390e-01 -3.586797e-02 9.961353e-01 -3.591821e-02 3.142743e-03 -2.511614e-04
1.060000e+10 3.182096e-03 -2.288775e-04 9.961205e-01 -3.619986e-02 9.961166e-01 -3.625053e-02 3.149165e-03 -2.619147e-04
1.070000e+10 3.189033e-03 -2.394609e-04 9.961021e-01 -3.653171e-02 9.960980e-01 -3.658280e-02 3.155472e-03 -2.727334e-04
1.080000e+10 3.195861e-03 -2.501109e-04 9.960836e-01 -3.686352e-02 9.960794e-01 -3.691502e-02 3.161665e-03 -2.836142e-04
1.090000e+10 3.202580e-03 -2.608244e-04 9.960652e-01 -3.719530e-02 9.960608e-01 -3.724720e-02 3.167743e-03 -2.945537e-04
1.100000e+10 3.209189e-03 -2.715980e-04 9.960467e-01 -3.752703e-02 9.960422e-01 -3.757933e-02 3.173707e-03 -3.055488e-04
1.110000e+10 3.215691e-03 -2.824287e-04 9.960283e-01 -3.785874e-02 9.960236e-01 -3.791143e-02 3.179558e-03 -3.165962e-04
1.120000e+10 3.222084e-03 -2.933134e-04 9.960098e-01 -3.819042e-02 9.960050e-01 -3.824349e-02 3.185295e-03 -3.276930e-04
1.130000e+10 3.228370e-03 -3.042488e-04 9.959914e-01 -3.852207e-02 9.959864e-01 -3.857553e-02 3.190920e-03 -3.388360e-04
1.140000e+10 3.234548e-03 -3.152321e-04 9.959729e-01 -3.885371e-02 9.959678e-01 -3.890754e-02 3.196433e-03 -3.500223e-04
1.150000e+10 3.240621e-03 -3.262604e-04 9.959544e-01 -3.918533e-02 9.959491e-01 -3.923952e-02 3.201836e-03 -3.612489e-04
1.160000e+10 3.246587e-03 -3.373306e-04 9.959359e-01 -3.951693e-02 9.959305e-01 -3.957149e-02 3.207129e-03 -3.725130e-04
1.170000e+10 3.252449e-03 -3.484400e-04 9.959174e-01 -3.984853e-02 9.959118e-01 -3.990344e-02 3.212312e-03 -3.838118e-04
1.180000e+10 3.258207e-03 -3.595859e-04 9.958989e-01 -4.018011e-02 9.958932e-01 -4.023537e-02 3.217387e-03 -3.951426e-04
1.190000e+10 3.263862e-03 -3.707654e-04 9.958804e-01 -4.051170e-02 9.958745e-01 -4.056730e-02 3.222356e-03 -4.065027e-04
1.200000e+10 3.269416e-03 -3.819761e-04 9.958618e-01 -4.084327e-02 9.958558e-01 -4.089921e-02 3.227218e-03 -4.178895e-04
1.210000e+10 3.274868e-03 -3.932152e-04 9.958432e-01 -4.117485e-02 9.958370e-01 -4.123112e-02 3.231976e-03 -4.293006e-04
1.220000e+10 3.280220e-03 -4.044804e-04 9.958246e-01 -4.150643e-02 9.958183e-01 -4.156303e-02 3.236630e-03 -4.407334e-04
1.230000e+10 3.285474e-03 -4.157691e-04 9.958059e-01 -4.183802e-02 9.957995e-01 -4.189494e-02 3.241182e-03 -4.521857e-04
1.240000e+10 3.290630e-03 -4.270790e-04 9.957873e-01 -4.216961e-02 9.957807e-01 -4.222685e-02 3.245634e-03 -4.636550e-04
1.250000e+10 3.295690e-03 -4.384078e-04 9.957685e-01 -4.250121e-02 9.957618e-01 -4.255876e-02 3.249985e-03 -4.751392e-04
1.260000e+10 3.300655e-03 -4.497532e-04 9.957498e-01 -4.283283e-02 9.957430e-01 -4.289068e-02 3.254239e-03 -4.866361e-04
1.270000e+10 3.305527e-03 -4.611131e-04 9.957310e-01 -4.316445e-02 9.957241e-01 -4.322261e-02 3.258395e-03 -4.981437e-04
1.280000e+10 3.310306e-03 -4.724855e-04 9.957121e-01 -4.349609e-02 9.957051e-01 -4.355455e-02 3.262457e-03 -5.096599e-04
1.290000e+10 3.314995e-03 -4.838681e-04 9.956932e-01 -4.382774e-02 9.956861e-01 -4.388650e-02 3.266425e-03 -5.211827e-04
1.300000e+10 3.319594e-03 -4.952592e-04 9.956743e-01 -4.415942e-02 9.956671e-01 -4.421846e-02 3.270300e-03 -5.327104e-04
1.310000e+10 3.324106e-03 -5.066569e-04 9.956553e-01 -4.449111e-02 9.956480e-01 -4.455044e-02 3.274085e-03 -5.442411e-04
1.320000e+10 3.328531e-03 -5.180592e-04 9.956363e-01 -4.482282e-02 9.956288e-01 -4.488243e-02 3.277782e-03 -5.557731e-04
1.330000e+10 3.332872e-03 -5.294645e-04 9.956172e-01 -4.515455e-02 9.956097e-01 -4.521445e-02 3.281390e-03 -5.673047e-04
1.340000e+10 3.337130e-03 -5.408711e-04 9.955980e-01 -4.548630e-02 9.955904e-01 -4.554648e-02 3.284914e-03 -5.788344e-04
1.350000e+10 3.341306e-03 -5.522774e-04 9.955788e-01 -4.581808e-02 9.955711e-01 -4.587853e-02 3.288353e-03 -5.903608e-04
1.360000e+10 3.345402e-03 -5.636818e-04 9.955595e-01 -4.614987e-02 9.955517e-01 -4.621060e-02 3.291709e-03 -6.018823e-04
1.370000e+10 3.349420e-03 -5.750829e-04 9.955401e-01 -4.648170e-02 9.955323e-01 -4.654270e-02 3.294985e-03 -6.133976e-04
1.380000e+10 3.353361e-03 -5.864793e-04 9.955207e-01 -4.681354e-02 9.955128e-01 -4.687482e-02 3.298182e-03 -6.249054e-04
1.390000e+10 3.357227e-03 -5.978696e-04 9.955012e-01 -4.714542e-02 9.954933e-01 -4.720696e-02 3.301302e-03 -6.364045e-04
1.400000e+10 3.361020e-03 -6.092526e-04 9.954816e-01 -4.747732e-02 9.954736e-01 -4.753913e-02 3.304346e-03 -6.478937e-04
1.410000e+10 3.364741e-03 -6.206271e-04 9.954619e-01 -4.780924e-02 9.954539e-01 -4.787132e-02 3.307317e-03 -6.593720e-04
1.420000e+10 3.368392e-03 -6.319920e-04 9.954422e-01 -4.814119e-02 9.954341e-01 -4.820353e-02 3.310215e-03 -6.708384e-04
1.430000e+10 3.371974e-03 -6.433461e-04 9.954223e-01 -4.847317e-02 9.954143e-01 -4.853577e-02 3.313043e-03 -6.822919e-04
1.440000e+10 3.375491e-03 -6.546886e-04 9.954024e-01 -4.880517e-02 9.953943e-01 -4.886804e-02 3.315802e-03 -6.937316e-04
1.450000e+10 3.378942e-03 -6.660184e-04 9.953824e-01 -4.913720e-02 9.953743e-01 -4.920033e-02 3.318495e-03 -7.051568e-04
1.460000e+10 3.382330e-03 -6.773347e-04 9.953623e-01 -4.946925e-02 9.953542e-01 -4.953265e-02 3.321122e-03 -7.165666e-04
1.470000e+10 3.385656e-03 -6.886367e-04 9.953421e-01 -4.980133e-02 9.953340e-01 -4.986500e-02 3.323685e-03 -7.279604e-04
1.480000e+10 3.388922e-03 -6.999236e-04 9.953219e-01 -5.013344e-02 9.953138e-01 -5.019737e-02 3.326187e-03 -7.393375e-04
1.490000e+10 3.392130e-03 -7.111947e-04 9.953015e-01 -5.046556e-02 9.952934e-01 -5.052977e-02 3.328628e-03 -7.506975e-04
1.500000e+10 3.395282e-03 -7.224494e-04 9.952810e-01 -5.079772e-02 9.952729e-01 -5.086219e-02 3.331011e-03 -7.620397e-04
1.510000e+10 3.398379e-03 -7.336872e-04 9.952604e-01 -5.112990e-02 9.952524e-01 -5.119464e-02 3.333337e-03 -7.733637e-04
1.520000e+10 3.401422e-03 -7.449075e-04 9.952398e-01 -5.146210e-02 9.952317e-01 -5.152711e-02 3.335608e-03 -7.846692e-04
1.530000e+10 3.404414e-03 -7.561098e-04 9.952190e-01 -5.179432e-02 9.952110e-01 -5.185960e-02 3.337825e-03 -7.959557e-04
1.540000e+10 3.407355e-03 -7.672938e-04 9.951981e-01 -5.212657e-02 9.951901e-01 -5.219212e-02 3.339990e-03 -8.072231e-04
1.550000e+10 3.410248e-03 -7.784591e-04 9.951771e-01 -5.245884e-02 9.951692e-01 -5.252467e-02 3.342105e-03 -8.184711e-04
1.560000e+10 3.413095e-03 -7.896053e-04 9.951560e-01 -5.279112e-02 9.951481e-01 -5.285723e-02 3.344171e-03 -8.296994e-04
1.570000e+10 3.415895e-03 -8.007323e-04 9.951348e-01 -5.312343e-02 9.951269e-01 -5.318982e-02 3.346189e-03 -8.409081e-04
1.580000e+10 3.418652e-03 -8.118399e-04 9.951135e-01 -5.345575e-02 9.951056e-01 -5.352243e-02 3.348162e-03 -8.520969e-04
1.590000e+10 3.421367e-03 -8.229278e-04 9.950920e-01 -5.378810e-02 9.950843e-01 -5.385506e-02 3.350090e-03 -8.632658e-04
1.600000e+10 3.424041e-03 -8.339960e-04 9.950705e-01 -5.412046e-02 9.950628e-01 -5.418771e-02 3.351975e-03 -8.744150e-04
1.610000e+10 3.426676e-03 -8.450445e-04 9.950488e-01 -5.445283e-02 9.950412e-01 -5.452038e-02 3.353819e-03 -8.855443e-04
1.620000e+10 3.429272e-03 -8.560731e-04 9.950270e-01 -5.478522e-02 9.950194e-01 -5.485307e-02 3.355622e-03 -8.966539e-04
1.630000e+10 3.431832e-03 -8.670820e-04 9.950051e-01 -5.511762e-02 9.949976e-01 -5.518578e-02 3.357387e-03 -9.077440e-04
1.640000e+10 3.434357e-03 -8.780711e-04 9.949831e-01 -5.545004e-02 9.949757e-01 -5.551850e-02 3.359115e-03 -9.188147e-04
