#   Hz   S  RI   R   50
!
0.0 0.004258415941232081 0.0 0.9958864170736969 0.0 0.9959539180240402 0.0 0.004192592468294003 0.0
100000000.0 0.004258565589223414 -7.915920262645252e-08 0.9958859522593646 -0.0007062316587901088 0.9959534164423307 -0.0007085011336435683 0.004192765238145711 1.6492608777956391e-06
200000000.0 0.004259014480471518 -1.6372342085899004e-07 0.9958845579142795 -0.001412454047060778 0.9959519118321893 -0.0014169906581709434 0.004193283477178328 3.291852281582376e-06
300000000.0 0.004259762456828875 -2.590953877825465e-07 0.9958822343321126 -0.0021186578989764206 0.9959494045984753 -0.0021254569715248375 0.004194146973867887 4.921108061937407e-06
400000000.0 0.004260809254804469 -3.706732729368116e-07 0.9958789820021167 -0.002824833958065782 0.9959458954156238 -0.0028338884857597437 0.0041953553758172215 6.530368716085941e-06
500000000.0 0.004262154505702391 -5.038484040903264e-07 0.9958748016088228 -0.003530972981895858 0.9959413852271508 -0.0035422736340828195 0.004196908189975153 8.112984705009494e-06
600000000.0 0.004263797735812665 -6.640029933307127e-07 0.9958696940316225 -0.004237065746735716 0.9959358752449584 -0.004250600877876841 0.004198804782938023 9.662319762981129e-06
700000000.0 0.004265738366654158 -8.565078689274877e-07 0.9958636603442264 -0.004943103052207161 0.9959293669484466 -0.004958858713699031 0.004201044381338167 1.1171754197108519e-05
800000000.0 0.004267975715273401 -1.0867202143749806e-06 0.9958567018140037 -0.0056490757259188345 0.9959218620834264 -0.00566703568025021 0.004203626072319893 1.2634688174463876e-05
900000000.0 0.004270508994599233 -1.35998131579955e-06 0.9958488199012073 -0.006354974628080186 0.9959133626608381 -0.0063751203653080015 0.004206548804099989 1.4044544994302535e-05
1000000000.0 0.004273337313845181 -1.6816143196585737e-06 0.9958400162580746 -0.007060790656092909 0.995903870955279 -0.007083101412618459 0.004209811386609406 1.5394774342642865e-05
1100000000.0 0.004276459678970473 -2.0569220015860496e-06 0.9958302927278163 -0.0077665147491154515 0.9958933895033346 -0.007790967528740247 0.004213412492224944 1.6678855527438906e-05
1200000000.0 0.004279874993192495 -2.4911845479955465e-06 0.9958196513434879 -0.008472137892598312 0.995881921101723 -0.008498707489835536 0.004217350656581518 1.7890300691293784e-05
1300000000.0 0.004283582057548549 -2.989657351991158e-06 0.9958080943267427 -0.00917765112278637 0.9958694688052484 -0.009206310148402138 0.004221624279465738 1.9022657999596967e-05
1400000000.0 0.004287579571514554 -3.5575688246143183e-06 0.9957956240864737 -0.009883045531185783 0.9958560359245683 -0.009913764439941119 0.0042262316257938755 2.0069514801767103e-05
1500000000.0 0.004291866133670945 -4.200118222888634e-06 0.9957822432173412 -0.010588312268991243 0.9958416260237795 -0.010621059389554044 0.004231170826669287 2.1024500763474274e-05
1600000000.0 0.004296440242422168 -4.922473496341842e-06 0.9957679544981889 -0.011293442551471695 0.9958262429178135 -0.011328184118465385 0.004236439880521162 2.1881290966749385e-05
1700000000.0 0.0043013002967656295 -5.729769152651621e-06 0.9957527608903471 -0.011998427662310749 0.9958098906696644 -0.012035127850463234 0.004242036654320069 2.263360897705449e-05
1800000000.0 0.004306444597111093 -6.627104144076985e-06 0.995736665535829 -0.01270325895789891 0.9957925735874302 -0.012741879918254595 0.004247958884874159 2.327522987395162e-05
1900000000.0 0.004311871346147673 -7.61953977650156e-06 0.9957196717554176 -0.013407927871575043 0.9957742962211834 -0.013448429769728888 0.004254204180199771 2.379998324355874e-05
2000000000.0 0.004317578649762426 -8.712097640786092e-06 0.9957017830466468 -0.014112425917813547 0.9957550633596736 -0.014154766974125255 0.004260770020968278 2.420175613095717e-05
2100000000.0 0.004323564518003652 -9.909757569788937e-06 0.995683003081678 -0.014816744696355327 0.9957348800268584 -0.014860881228098432 0.004267653762027074 2.4474495950251417e-05
2200000000.0 0.004329826866092717 -1.1217455620157541e-05 0.9956633357050731 -0.015520875896278305 0.9957137514782727 -0.01556676236167841 0.0042748526339940526 2.461221335024916e-05
2300000000.0 0.0043363635154841625 -1.2640082081603735e-05 0.9956427849314673 -0.016224811300006692 0.9956916831972341 -0.016272400344119493 0.004282363744921193 2.4608985033551832e-05
2400000000.0 0.0043431721949667495 -1.4182479514376752e-05 0.9956213549431401 -0.016928542787254357 0.9956686808908961 -0.016977785289633403 0.004290184082029526 2.445895652763791e-05
2500000000.0 0.004350250541813954 -1.584944081518389e-05 0.9955990500874934 -0.017632062338901505 0.995644750486145 -0.017682907463002717 0.004298310513513194 2.4156344905950863e-05
2600000000.0 0.0043575961029768155 -1.764570731433529e-05 0.995575874874429 -0.01833536204080036 0.9956198981253456 -0.018387757285069792 0.004306739790408273 2.3695441456607634e-05
2700000000.0 0.004365206336318418 -1.957596690403293e-05 0.9955518339736383 -0.01903843408750927 0.9955941301619452 -0.019092325338098477 0.00431546854852719 2.3070614297427773e-05
2800000000.0 0.004373078611891259 -2.1644852198652982e-05 0.9955269322117954 -0.019741270785950595 0.9955674531559371 -0.01979660237100077 0.004324493310456449 2.227631093619087e-05
2900000000.0 0.004381210213258588 -2.3856938728906026e-05 0.995501174569667 -0.02044386455899247 0.9955398738691824 -0.02050057930442932 0.004333810487617639 2.130706077332542e-05
3000000000.0 0.004389598338850259 -2.621674317085425e-05 0.9954745661791297 -0.02114620794895021 0.9955113992606023 -0.021204247235730025 0.004343416382383132 2.0157477545228398e-05
3100000000.0 0.0043982401033642315 -2.8728721609361915e-05 0.9954471123201091 -0.02184829362100629 0.9954820364812452 -0.021907597443748896 0.004353307190255981 1.8822261709237835e-05
3200000000.0 0.0044071325392001865 -3.139726783873973e-05 0.9954188184174334 -0.022550114366545845 0.9954517928692277 -0.0226106213934932 0.004363479002101985 1.7296202765532438e-05
3300000000.0 0.004416272597935505 -3.422671170039774e-05 0.9953896900376076 -0.02325166310640747 0.9954206759445527 -0.023313310740643033 0.004373927806435903 1.557418151652885e-05
3400000000.0 0.004425657151834325 -3.7221317458239195e-05 0.9953597328855142 -0.02395293289404438 0.9953886934038239 -0.024015657335907527 0.004384649491760334 1.3651172262056133e-05
3500000000.0 0.004435282995391693 -4.038528221372812e-05 0.9953289528010358 -0.024653916918597637 0.9953558531148435 -0.02471765322922581 0.004395639848956265 1.1522244928985782e-05
3600000000.0 0.004445146846912982 -4.3722734359837845e-05 0.9952973557556088 -0.025354608507875815 0.9953221631111069 -0.02541929067380942 0.004406894573718857 9.182567133889643e-06
3700000000.0 0.004455245350126114 -4.723773207629904e-05 0.9952649478487056 -0.026055001131243583 0.9952876315862036 -0.02612056213002095 0.004418409269040816 6.627406178089479e-06
3800000000.0 0.004465575075823061 -5.0934261865249534e-05 0.9952317353042559 -0.02675508840241309 0.9952522668881159 -0.026821460269091126 0.004430179447740453 3.852130974185306e-06
3900000000.0 0.0044761325235345055 -5.481623712945711e-05 0.9951977244669938 -0.027454864082141164 0.9952160775134373 -0.027521977976667177 0.004442200535029318 8.522139019625158e-07
4000000000.0 0.004486914123233086 -5.8887496792947756e-05 0.9951629217987608 -0.028154322080825925 0.995179072101502 -0.02822210835619457 0.004454467871122284 -2.3767674062422065e-06
4100000000.0 0.004497916237063733 -6.31518039643255e-05 0.9951273338747322 -0.028853456461007083 0.9951412594284372 -0.028921844732126667 0.004466976713883421 -5.8391283509293665e-06
4200000000.0 0.0045091351611021855 -6.76128446443312e-05 0.9950909673796026 -0.029552261439762913 0.9951026484011445 -0.02962118065296409 0.004479722241506872 -9.539075724794927e-06
4300000000.0 0.004520567127139193 -7.227422647771478e-05 0.9950538291037128 -0.0302507313910072 0.9950632480512097 -0.030320109894118392 0.0044926995552340985 -1.3480706142889269e-05
4400000000.0 0.00453220830448795 -7.713947754967317e-05 0.9950159259391292 -0.030948860847682676 0.9950230675287548 -0.031018626460602536 0.0045059036820982125 -1.7668004548797222e-05
4500000000.0 0.004544054801816761 -8.221204522724065e-05 0.9949772648756742 -0.03164664450385012 0.9949821160962281 -0.03171672458954434 0.004519329577700566 -2.210484279306983e-05
4600000000.0 0.004556102669000891 -8.749529504758474e-05 0.9949378529969193 -0.03234407721667331 0.9949404031221484 -0.032414398752521625 0.004532972129012038 -2.6794978287851418e-05
4700000000.0 0.004568347898999115 -9.299250965085161e-05 0.9948976974761282 -0.033041154008297505 0.9948979380747937 -0.03311164365772183 0.0045468261572000224 -3.174205273578754e-05
4800000000.0 0.004580786429747487 -9.870688776027797e-05 0.9948568055721728 -0.03373787006762236 0.9948547305158608 -0.03380845425191968 0.004560886420477802 -3.6949590933804875e-05
4900000000.0 0.004593414146069961 -0.00010464154320946319 0.9948151846254061 -0.034434220751966504 0.99481079009408 -0.03450482572227795 0.00457514761697393 -4.242099965425788e-05
5000000000.0 0.004606226881609221 -0.00011079950401620545 0.9947728420535077 -0.035130201588625315 0.9947661265387995 -0.03520075349796736 0.004589604387618208 -4.8159566600499785e-05
5100000000.0 0.0046192204207731345 -0.00011718371150242334 0.9947297853473009 -0.03582580827632013 0.9947207496535537 -0.03589623325160613 0.004604251319047373 -5.4168459439062594e-05
5200000000.0 0.004632390500691029 -0.00012379701946525705 0.9946860220665412 -0.03652103668653854 0.9946746693096015 -0.03659126090052164 0.004619082946521546 -6.0450724907849465e-05
5300000000.0 0.0046457328131902535 -0.00013064219339146827 0.9946415598356853 -0.037215882864765765 0.9946278954394543 -0.0372858326078295 0.004634093756851331 -6.70092880005391e-05
5400000000.0 0.004659243006780182 -0.00013772190972236972 0.9945964063396375 -0.037910343031607265 0.9945804380303956 -0.037979944783336377 0.004649278191338202 -7.384695122768538e-05
5500000000.0 0.00467291668864742 -0.00014503875516669966 0.9945505693194822 -0.03860441358380175 0.9945323071179974 -0.03867359408426004 0.004664630648719064 -8.096639395147363e-05
5600000000.0 0.004686749426662656 -0.00015259522605994564 0.9945040565681993 -0.03929809109512366 0.9944835127796317 -0.03936677741577497 0.004680145488117358 -8.83701717994702e-05
5700000000.0 0.004700736751393137 -0.00016039372777350714 0.9944568759263718 -0.039991372317178385 0.9944340651279956 -0.04005949193137812 0.004695817031997697 -9.606071615174083e-05
5800000000.0 0.004714874158125508 -0.00016843657417059998 0.9944090352778848 -0.04068425418008605 0.9943839743046432 -0.0407517350330777 0.004711639569120568 -0.000104040333702853
5900000000.0 0.004729157108889991 -0.00017672598711091414 0.9943605425456142 -0.04137673379305738 0.994333250473535 -0.041443504371407806 0.0047276073574967605 -0.00011231120610056418
6000000000.0 0.004743581034495288 -0.00018526409600327866 0.9943114056871261 -0.042068808444860065 0.994281903814607 -0.04213479784526884 0.004743714627339111 -0.00012087538965782174
6100000000.0 0.004758141336560208 -0.00019405293740560808 0.9942616326903584 -0.04276047560417693 0.9942299445173713 -0.04282561360159213 0.004759955584010218 -0.00012973481513771056
6200000000.0 0.004772833389552947 -0.00020309445467319869 0.9942112315693253 -0.04345173291985567 0.9941773827745369 -0.0435159500348368 0.004776324410960691 -0.00013889128761389213
6300000000.0 0.004787652542827891 -0.00021239049765462085 0.9941602103598115 -0.04414257822105129 0.9941242287756763 -0.04420580578631456 0.004792815272661854 -0.0001483464864022467
6400000000.0 0.004802594122665229 -0.00022194282243427193 0.9941085771150887 -0.04483300951726083 0.994070492700928 -0.044895179743346565 0.004809422317525752 -0.0001581019650653911
6500000000.0 0.004817653434305929 -0.00023175309112296333 0.9940563399016339 -0.045523024998252636 0.9940161847147413 -0.04558407103825499 0.004826139680813441 -0.00016815915148808689
6600000000.0 0.004832825763987908 -0.00024182287169522378 0.9940035067948705 -0.04621262303388892 0.9939613149596763 -0.0462724790471891 0.00484296148752885 -0.00017851934802490726
6700000000.0 0.0048481063809749664 -0.000252153637872948 0.9939500858749186 -0.04690180217384358 0.9939058935502507 -0.04696040338879028 0.004859881855298361 -0.00018918373171498566
6800000000.0 0.004863490539584518 -0.00026274676905508216 0.9938960852223742 -0.047590561147217596 0.9938499305668476 -0.047647843922697754 0.004876894897228015 -0.00020015335456931077
6900000000.0 0.004878973481206437 -0.0002736035502944693 0.9938415129141024 -0.04827889886204773 0.9937934360496872 -0.04833480074789376 0.004893994724747576 -0.00021142914392356752
7000000000.0 0.004894550436317328 -0.0002847251723196263 0.9937863770190618 -0.04896681440471736 0.9937364199928606 -0.04902127420089912 0.004911175450427688 -0.00022301190286009152
7100000000.0 0.0049102166264855624 -0.0002961127316006624 0.993730685594155 -0.04965430703926233 0.9936788923384368 -0.04970726485381051 0.004928431190778319 -0.00023490231069466763
7200000000.0 0.004925967266367792 -0.0003077672304625933 0.9936744466801063 -0.05034137620658038 0.9936208629706393 -0.050392773512192214 0.004945756069020419 -0.0002471009235302445
7300000000.0 0.004941797565694958 -0.00031968957724023034 0.9936176682973777 -0.05102802152353863 0.9935623417101077 -0.051077801212819136 0.0049631442178329375 -0.00025960817487436416
7400000000.0 0.004957702731248112 -0.00033188058647880584 0.9935603584421153 -0.0517142427819854 0.9935033383082327 -0.05176234922127538 0.004980589782071661 -0.0002724243763191447
7500000000.0 0.004973677968820463 -0.0003443409791778082 0.9935025250821322 -0.05240003994766625 0.9934438624415819 -0.05244641902941315 0.004998086921460727 -0.0002855497182849461
7600000000.0 0.004989718485168578 -0.0003570713830768121 0.9934441761529391 -0.053085413159042416 0.9933839237064103 -0.05313001235267194 0.005015629813251271 -0.0002989842708240532
7700000000.0 0.005005819489948344 -0.0003700723329839647 0.9933853195538065 -0.05377036272601935 0.9933235316132664 -0.053813131127262596 0.005033212654851035 -0.0003127279844847007
7800000000.0 0.005021976197635722 -0.0003833442711474673 0.9933259631438771 -0.05445488912858054 0.9932626955816873 -0.05449577750722219 0.0050508296664196215 -0.00032678069123371115
7900000000.0 0.005038183829431637 -0.00039688754766731987 0.9932661147383233 -0.055138993015332385 0.9932014249349991 -0.0551779538613354 0.005068475093429624 -0.00034114210543705075
8000000000.0 0.005054437615152142 -0.0004107024209467615 0.9932057821045552 -0.05582267520195943 0.9931397288952142 -0.05585966276993507 0.005086143209193056 -0.0003558118248954582
8100000000.0 0.005070732795097698 -0.0004247890581856864 0.9931449729584727 -0.05650593666959148 0.9930776165780331 -0.056540907021578345 0.0051038283173501005 -0.0003707893319374271
8200000000.0 0.0050870646219055935 -0.0004391475359122289 0.9930836949607781 -0.0571887785630875 0.9930150969879518 -0.057221689609605726 0.005121524754319958 -0.0003860739945636301
8300000000.0 0.005103428362384712 -0.00045377784055344 0.9930219557133366 -0.05787120218923302 0.9929521790134842 -0.05790201372858293 0.005139226891715157 -0.000401665067644735
8400000000.0 0.005119819299327017 -0.00046867986904406696 0.9929597627555989 -0.05855320901485716 0.9928888714224896 -0.05858188277063279 0.005156929138711282 -0.00041756169417126663
8500000000.0 0.005136232733300365 -0.00048385342947235597 0.9928971235610732 -0.059234800664867325 0.9928251828576179 -0.059261300321659584 0.005174625944381337 -0.0004337629065512433
8600000000.0 0.005152663984418661 -0.0004992982417638276 0.9928340455338689 -0.059915978920206725 0.9927611218318734 -0.059940270157467966 0.005192311799983296 -0.0004502676279590313
8700000000.0 0.0051691083940907595 -0.0005150139383985196 0.9927705360052927 -0.06059674571573479 0.9926966967242943 -0.06061879623978117 0.005209981241207778 -0.0004670746737280284
8800000000.0 0.005185561326744176 -0.0005310000651666427 0.992706602230509 -0.061277103138032585 0.9926319157757547 -0.06129688271216265 0.005227628850380695 -0.00048418275279305456
8900000000.0 0.0052020181715272725 -0.0005472560819574295 0.9926422513852702 -0.06195705342313436 0.9925667870848912 -0.06197453389584434 0.005245249258621655 -0.0005015904691732707
9000000000.0 0.005218474343986464 -0.0005637813635794277 0.9925774905627072 -0.06263659895418872 0.99250131860415 -0.06265175428546459 0.005262837147956322 -0.0005192963235009977
9100000000.0 0.00523492528771661 -0.0005805752006190686 0.9925123267701919 -0.06331574225905287 0.9924355181359682 -0.06332854854472285 0.0052803872533849815 -0.0005372987145901388
9200000000.0 0.005251366475987997 -0.0005976368003261012 0.992446766926268 -0.06399448600781378 0.9923693933290731 -0.06400492150194911 0.005297894364901185 -0.0005555959410462385
9300000000.0 0.005267793413345826 -0.0006149652875344966 0.9923808178576499 -0.0646728330102513 0.9923029516749228 -0.06468087814559523 0.0053153533294643075 -0.0005741862029148623
9400000000.0 0.0052842016371834255 -0.0006325597056122076 0.9923144862962967 -0.06535078621323359 0.992236200504268 -0.06535642361965642 0.005332759052924582 -0.0005930676033674678
9500000000.0 0.005300586719286545 -0.0006504190174407901 0.9922477788765582 -0.0660283486980518 0.9921691469838527 -0.06603156321901542 0.005350106501899366 -0.0006122381504225367
9600000000.0 0.005316944267352272 -0.0006685421064251888 0.992180702132394 -0.06670552367769868 0.9921017981132461 -0.06670630238472539 0.005367390705598404 -0.0006316957587023426
9700000000.0 0.005333269926477686 -0.0006869277775311416 0.9921132624946701 -0.06738231449408799 0.9920341607218092 -0.06738064669922773 0.00538460675760221 -0.0006514382512225909
9800000000.0 0.005349559380618928 -0.0007055747583507387 0.9920454662885286 -0.0680587246152175 0.9919662414657991 -0.06805460188151044 0.0054017498175879764 -0.0006714633612137437
9900000000.0 0.005365808354023719 -0.0007244817001941923 0.9919773197308402 -0.068734757632285 0.9918980468256057 -0.06872817378221029 0.005418815113006344 -0.0006917687339727893
10000000000.0 0.005382012612631206 -0.0007436471792068126 0.9919088289277286 -0.06941041725674658 0.9918295831031315 -0.06940136837866817 0.005435797940706215 -0.0007123519287430348
10100000000.0 0.0053981679654433855 -0.0007630696975136698 0.9918399998721787 -0.07008570731733245 0.9917608564193037 -0.07007419176993068 0.005452693668509042 -0.0007332104206244447
10200000000.0 0.005414270265864898 -0.0007827476843855902 0.9917708384417243 -0.07076063175701437 0.9916918727117296 -0.07074665017171156 0.005469497736731474 -0.000754341602505979
10300000000.0 0.005430315413012485 -0.0008026794974301742 0.9917013503962143 -0.07143519462992702 0.9916226377324868 -0.07141874991131428 0.005486205659655418 -0.0007757427870261222
10400000000.0 0.005446299352993356 -0.0008228634238061898 0.9916315413756625 -0.07210940009825077 0.991553157046057 -0.07209049742251272 0.00550281302694726 -0.0007974112085552184
10500000000.0 0.005462218080150689 -0.0008432976814566452 0.991561416898179 -0.07278325242905231 0.9914834360273952 -0.07276189924040573 0.005519315505024112 -0.0008193440252009591
10600000000.0 0.0054780676382791115 -0.0008639804203677497 0.9914909823579847 -0.07345675599108953 0.9914134798601406 -0.07343296199624036 0.005535708838366843 -0.0008415383208338637
10700000000.0 0.005493844121806136 -0.0008849097238433953 0.9914202430235076 -0.0741299152515782 0.9913432935349697 -0.07410369241220839 0.005551988850782175 -0.0008639911071315622
10800000000.0 0.005509543676943867 -0.0009060836098012743 0.9913492040355656 -0.07480273477292955 0.991272881848083 -0.07477409729622356 0.0055681514466117505 -0.0008866993256422585
10900000000.0 0.00552516250280333 -0.0009275000320878461 0.9912778704056292 -0.07547521920945223 0.9912022493998379 -0.07544418353668159 0.005584192611887087 -0.00090965984986491
