#   Hz   S  RI   R   50
!
0.0 0.0009717386819289625 0.0 0.9990075433010746 0.0 0.9990075646964705 0.0 0.0009719412898348279 0.0
100000000.0 0.0009717435109407521 -1.1459257117362547e-05 0.9990075252509784 -0.00013436228016836668 0.9990075466474728 -0.00013436166553255918 0.000971946116529464 -1.1459462137341402e-05
200000000.0 0.000971757997344991 -2.2918633251108113e-05 0.9990074711018447 -0.0002687243322069712 0.9990074925016367 -0.00026872310296782525 0.0009719605959821427 -2.2919043254760317e-05
300000000.0 0.0009717821392454533 -3.43782474024803e-05 0.9990073808571396 -0.00040308592802033004 0.9990074022624259 -0.000403084084242796 0.0009719847262985444 -3.437886231718931e-05
400000000.0 0.0009718159334839517 -4.583821854244162e-05 0.9990072545226397 -0.0005374468395814934 0.9990072759356168 -0.0005374443813629967 0.0009720185043210865 -4.583903825929479e-05
500000000.0 0.0009718593756390244 -5.729866559653205e-05 0.9990070921064297 -0.0006718068389663109 0.9990071135292942 -0.0006718037664366971 0.0009720619256300637 -5.7299689970378976e-05
600000000.0 0.0009719124600269192 -6.875970742976849e-05 0.9990068936189013 -0.000806165698387644 0.9990069150538471 -0.0008061620117092179 0.0009721149845448749 -6.876093627916468e-05
700000000.0 0.0009719751797036455 -8.022146283143614e-05 0.9990066590727521 -0.0009405231902295909 0.999006680521973 -0.0009405188895971046 0.000972177674124002 -8.02228959387886e-05
800000000.0 0.0009720475264640659 -9.168405050022257e-05 0.9990063884829817 -0.001074879087081645 0.9990064099486695 -0.0010748741727221289 0.0009722499861659301 -9.168568761171739e-05
900000000.0 0.0009721294908451053 -0.00010314758902883923 0.9990060818668909 -0.001209233161772713 0.9990061033512347 -0.0012092276339457258 0.000972331911212127 -0.0001031494298545544
1000000000.0 0.0009722210621265088 -0.00011461219688920514 0.999005739244075 -0.0013435851874053467 0.9990057607492625 -0.0013435790464026915 0.0009724234385469397 -0.00011461424110315437
1100000000.0 0.0009723222283326605 -0.0001260779924172689 0.9990053606364224 -0.0014779349373895806 0.9990053821646384 -0.0014779281835353977 0.0009725245562000317 -0.0001260802396574522
1200000000.0 0.0009724329762345206 -0.0001375450937981309 0.9990049460681104 -0.0016122821854769784 0.9990049676215379 -0.0016122748191275693 0.0009726352509483246 -0.0001375475436665836
1300000000.0 0.0009725532913516544 -0.00014901361905089868 0.9990044955655999 -0.0017466267057943364 0.9990045171464176 -0.0017466187273383696 0.0009727555083171777 -0.00014901627111384315
1400000000.0 0.0009726831579546409 -0.00016048368601399285 0.999004009157629 -0.0018809682728775843 0.9990040307680135 -0.0018809596827357709 0.0009728853125849923 -0.00016048653980171434
1500000000.0 0.0009728225590685451 -0.00017195541232992433 0.9990034868752097 -0.0020153066617054857 0.9990035085173328 -0.002015297460330754 0.000973024646783656 -0.00017195846733713093
1600000000.0 0.0009729714764738548 -0.00018342891543077385 0.9990029287516184 -0.00214964164773301 0.9990029504276501 -0.002149631835610276 0.0009731734927016632 -0.00018343217111650416
1700000000.0 0.0009731298907107008 -0.00019490431252317713 0.9990023348223952 -0.002283973006924998 0.9990023565344995 -0.0022839625845712894 0.0009733318308882342 -0.00019490776831094676
1800000000.0 0.0009732977810823484 -0.00020638172057344876 0.9990017051253294 -0.002418300515789461 0.9990017268756674 -0.002418289483753635 0.0009734996406549755 -0.00020638537585141296
1900000000.0 0.0009734751256569082 -0.00021786125629319377 0.9990010397004593 -0.002552623951410628 0.999001061491187 -0.002552612310273565 0.0009736769000804025 -0.00021786511041410687
2000000000.0 0.0009736619012731783 -0.0002293430361242716 0.9990003385900593 -0.002686943091482473 0.9990003604233275 -0.0026869308418566644 0.0009738635860122707 -0.0002293470884058876
2100000000.0 0.0009738580835416727 -0.00024082717622457146 0.9989996018386333 -0.0028212577143411264 0.9989996237165891 -0.0028212448568710005 0.0009740596740738198 -0.00024083142594928002
2200000000.0 0.0009740636468516162 -0.00025231379245291074 0.9989988294929071 -0.0029555675989981927 0.9989988514176915 -0.002955554134359768 0.0009742651386641206 -0.0002523182388684038
2300000000.0 0.000974278564372325 -0.00026380300035515293 0.998998021601818 -0.0030898725251730253 0.9989980435755667 -0.0030898584540737938 0.000974479952964421 -0.00026380764267426517
2400000000.0 0.000974502808059815 -0.0002752949151493224 0.9989971782165056 -0.0032241722733255557 0.9989972002413481 -0.0032241575965045993 0.0009747040889434399 -0.00027529975255017133
2500000000.0 0.0009747363486592298 -0.0002867896517114419 0.9989962993903011 -0.0033584666246881502 0.9989963214683614 -0.003358451342916198 0.0009749375173587205 -0.00028679468333772705
2600000000.0 0.0009749791557114984 -0.0002982873245611361 0.9989953851787188 -0.0034927553612986058 0.9989954073121142 -0.0034927394753773637 0.000975180207764872 -0.00029829254952221844
2700000000.0 0.0009752311975568967 -0.00030978804784757537 0.9989944356394423 -0.003627038266031505 0.998994457830285 -0.0036270217767938586 0.0009754321285160291 -0.00030979346521856283
2800000000.0 0.0009754924413408593 -0.0003212919353350624 0.9989934508323175 -0.0037613151226296585 0.9989934730827116 -0.00376129803093975 0.000975693246771938 -0.00032129754415701763
2900000000.0 0.0009757628530187243 -0.00033279910038920384 0.9989924308193371 -0.0038955857157366323 0.9989924531313791 -0.0038955680224897734 0.000975963528503335 -0.00033280489966934105
3000000000.0 0.0009760423973622544 -0.0003443096559627158 0.9989913756646291 -0.004029849830927703 0.9989913980404098 -0.004029831537050064 0.0009762429384967574 -0.0003443156446746778
3100000000.0 0.0009763310379633857 -0.0003558237145818047 0.9989902854344472 -0.0041641072547410314 0.998990307876049 -0.004164088361189303 0.0009765314403608619 -0.00035582989166568253
3200000000.0 0.0009766287372429518 -0.00036734138833199973 0.998989160197154 -0.004298357774708633 0.9989891827066527 -0.004298338282470354 0.000976828996531985 -0.0003673477526946182
3300000000.0 0.0009769354564535737 -0.00037886278884462297 0.9989880000232123 -0.00443260117938707 0.9989880226026737 -0.004432581089480578 0.0009771355682806125 -0.00037886933935966195
3400000000.0 0.000977251155688108 -0.00039038802728307974 0.9989868049851659 -0.004566837258388233 0.9989868276366499 -0.004566816571862037 0.0009774511157167748 -0.0003903947627913726
3500000000.0 0.0009775757938852137 -0.00040191721432948245 0.9989855751576293 -0.004701065802409627 0.9989855978831864 -0.004701044520342603 0.0009777755977973303 -0.000401924133639145
3600000000.0 0.0009779093288359813 -0.0004134504601708475 0.9989843106172751 -0.004835286603263807 0.9989843334189463 -0.004835264726765158 0.0009781089723316354 -0.00041345756205751365
3700000000.0 0.0009782517171910174 -0.0004249878744860857 0.9989830114428128 -0.004969499453909384 0.9989830343226311 -0.00496947698411828 0.000978451195989163 -0.00042499515769322995
3800000000.0 0.000978602914466029 -0.0004365295664326483 0.9989816777149793 -0.005103704148479134 0.9989817006749695 -0.005103681086564734 0.0009788022243055296 -0.0004365370296715893
3900000000.0 0.000978962875051459 -0.00044807564463314036 0.9989803095165215 -0.005237900482310733 0.9989803325586973 -0.005237876829471789 0.0009791620116906482 -0.00044808328658360434
4000000000.0 0.0009793315522174208 -0.00045962621716284395 0.9989789069321799 -0.005372088251974368 0.9989789300585464 -0.00537206400943964 0.0009795305114353886 -0.00045963403647280036
4100000000.0 0.0009797088981219658 -0.0004711813915361084 0.9989774700486724 -0.005506267255302905 0.9989774932612246 -0.005506242424330336 0.0009799076757188868 -0.0004711893868222633
4200000000.0 0.0009800948638191691 -0.0004827412746941268 0.9989759989546788 -0.005640437291418876 0.9989760222554015 -0.00564041187329603 0.0009802934556158505 -0.0004827494445422223
4300000000.0 0.000980489399265997 -0.000494305972991824 0.9989744937408214 -0.00577459816076432 0.9989745171316902 -0.005774572156807806 0.0009806878011060045 -0.000494314315956641
4400000000.0 0.000980892453331021 -0.0005058755921855447 0.9989729544996505 -0.005908749665127452 0.9989729779826293 -0.005908723076682743 0.000981090661080023 -0.0005058841067912644
4500000000.0 0.0009813039738021028 -0.0005174502374200611 0.9989713813256245 -0.006042891607670238 0.9989714049026672 -0.006042864436112173 0.0009815019833481135 -0.0005174589221610848
4600000000.0 0.000981723907394644 -0.0005290300132175077 0.9989697743150933 -0.0061770237929566355 0.9989697979881418 -0.006176996039688564 0.0009819217146493319 -0.0005290388665575717
4700000000.0 0.0009821521997604656 -0.0005406150234633205 0.9989681335662774 -0.006311146026979184 0.9989681573372643 -0.006311117693432891 0.0009823498006591867 -0.0005406240438367898
4800000000.0 0.0009825887954959486 -0.0005522053713956284 0.9989664591792534 -0.006445258117184903 0.9989664830500984 -0.006445229204820948 0.0009827861859981212 -0.0005522145572072292
4900000000.0 0.000983033638150574 -0.00056380115959259 0.9989647512559302 -0.0065793598725032085 0.9989647752285425 -0.006579330382809769 0.0009832308142402007 -0.0005638105092180255
5000000000.0 0.0009834866702359533 -0.0005754024899610283 0.9989630099000336 -0.006713451103370254 0.9989630339763095 -0.0067134210378642385 0.00098368362792224 -0.0005754120017470014
5100000000.0 0.0009839478332357827 -0.0005870094637239337 0.9989612352170838 -0.006847531621756042 0.9989612593989088 -0.0068475009819819535 0.0009841445685535163 -0.0005870191359885684
5200000000.0 0.0009844170676135814 -0.0005986221814098177 0.9989594273143759 -0.006981601241189137 0.9989594516036232 -0.006981570028718892 0.0009846135766232022 -0.0005986320124428395
5300000000.0 0.0009848943128231286 -0.0006102407428403882 0.9989575863009618 -0.007115659776781772 0.9989576106994912 -0.00711562799321535 0.0009850905916113603 -0.0006102507309038126
5400000000.0 0.000985379507316857 -0.0006218652471200872 0.9989557122876261 -0.007249707045254614 0.9989557367972854 -0.00724967469221893 0.0009855755519975946 -0.0006218753904480295
5500000000.0 0.0009858725885568045 -0.0006334957926242174 0.9989538053868682 -0.007383742864961224 0.9989538300094927 -0.0073837099441103815 0.00098606839527028 -0.000633506089423639
5600000000.0 0.0009863734930227281 -0.0006451324769886753 0.9989518657128779 -0.00751776705591167 0.9989518904502899 -0.007517733568927208 0.0009865690579378536 -0.0006451429254392344
5700000000.0 0.000986882156223963 -0.0006567753970983035 0.9989498933815179 -0.007651779439797108 0.9989499182355256 -0.00765174538838656 0.000987077475536929 -0.0006567859953528093
5800000000.0 0.000987398512707703 -0.0006684246490764391 0.9989478885102981 -0.007785779840011572 0.9989479134826971 -0.007785745225910098 0.0009875935826433473 -0.0006684353952618232
5900000000.0 0.0009879224960692898 -0.0006800803282749808 0.9989458512183558 -0.007919768081677008 0.9989458763109283 -0.007919732906644593 0.000988117312881584 -0.0006800912204914208
6000000000.0 0.0009884540389648712 -0.0006917425292623449 0.998943781626433 -0.008053743991663054 0.9989438068409474 -0.008053708257487087 0.0009886485989358859 -0.0006917535655849286
6100000000.0 0.0009889930731177509 -0.0007034113458151954 0.9989416798568529 -0.008187707398612102 0.9989417051950633 -0.008187671107105663 0.0009891873725603566 -0.0007034225242933552
6200000000.0 0.0009895395293322545 -0.0007150868709068693 0.9989395460334985 -0.0083216581329591 0.9989395714971449 -0.008321621285960746 0.0009897335645883227 -0.0007150981895648811
6300000000.0 0.0009900933375033396 -0.0007267691966979924 0.998937380281788 -0.00845559602695351 0.9989374058725965 -0.008455558626327743 0.0009902871049461016 -0.0007267806535354446
6400000000.0 0.0009906544266267128 -0.0007384584145264047 0.998935182728652 -0.008589520914681197 0.9989352084483338 -0.008589482962317397 0.0009908479226591136 -0.0007384700075186341
6500000000.0 0.0009912227248106153 -0.0007501546148976824 0.9989329535025108 -0.008723432632083854 0.9989329793527617 -0.008723394129896794 0.000991415945866873 -0.0007501663419960538
6600000000.0 0.0009917981592859621 -0.0007618578874756677 0.9989306927332486 -0.008857331016979265 0.9989307187157512 -0.008857291966908919 0.0009919911018324021 -0.0007618697466079064
6700000000.0 0.0009923806564186056 -0.0007735683210729625 0.9989284005521913 -0.00899121590908331 0.9989284266686121 -0.008991176313093466 0.0009925733169524015 -0.0007735803101434229
6800000000.0 0.0009929701417196362 -0.0007852860036415309 0.9989260770920811 -0.009125087150026039 0.9989261033440716 -0.009125047010105962 0.0009931625167705488 -0.0007852981205317166
6900000000.0 0.0009935665398566314 -0.0007970110222647017 0.998923722487053 -0.009258944583373514 0.9989237488762492 -0.009258903901535468 0.0009937586259872793 -0.0007970232648333179
7000000000.0 0.0009941697746661557 -0.0008087434631465684 0.9989213368726082 -0.009392788054644887 0.9989213634006309 -0.00939274683292647 0.0009943615684711894 -0.0008087558292306412
7100000000.0 0.0009947797691633549 -0.0008204834116049905 0.9989189203855912 -0.009526617411332037 0.9989189470540454 -0.009526575651793623 0.000994971267270854 -0.0008204958990196766
7200000000.0 0.0009953964455559907 -0.0008322309520622634 0.9989164731641641 -0.009660432502915761 0.998916499974639 -0.009660390207641685 0.000995587644627554 -0.0008322435586009434
7300000000.0 0.0009960197252542366 -0.0008439861680365293 0.9989139953477805 -0.009794233180884258 0.9989140223018486 -0.009794190351982491 0.000996210621985136 -0.0008439988914718547
7400000000.0 0.0009966495288832849 -0.0008557491421342283 0.9989114870771604 -0.009928019298750592 0.998911514176379 -0.009927975938351381 0.0009968401200034097 -0.0008557619802179296
7500000000.0 0.0009972857762953063 -0.000867519956041727 0.9989089484942655 -0.010061790712067408 0.9989089757401747 -0.01006174682232467 0.0009974760585682023 -0.000867532906505698
7600000000.0 0.0009979283865810728 -0.0008792986905173764 0.9989063797422714 -0.010195547278445792 0.9989064071363962 -0.010195502861535458 0.0009981183568052146 -0.000879311751073502
7700000000.0 0.0009985772780829176 -0.0008910854253837742 0.9989037809655443 -0.010329288857568111 0.9989038085093913 -0.010329243915688303 0.00099876693309136 -0.0008910985937245097
7800000000.0 0.0009992323684050617 -0.0009028802395210805 0.9989011523096112 -0.010463015311205977 0.9989011800046718 -0.010462969846577404 0.000999421705067025 -0.0009028935133195414
7900000000.0 0.0009998935744280283 -0.0009146832108581418 0.9988984939211378 -0.01059672650323322 0.9988985217688849 -0.010596680518098202 0.0010000825896479496 -0.0009146965877692272
8000000000.0 0.00100056081231938 -0.0009264944163670352 0.9988958059478983 -0.010730422299641358 0.998895833949789 -0.010730375796264097 0.0010007495030370833 -0.0009265078940269972
8100000000.0 0.0010012339975473414 -0.000938313932054531 0.9988930885387511 -0.010864102568553155 0.9988931166962246 -0.01086405554921881 0.0010014223607391162 -0.0009383275080820074
8200000000.0 0.0010019130448917814 -0.0009501418329567631 0.9988903418436103 -0.010997767180237327 0.9988903701580892 -0.010997719647252392 0.0010021010775700526 -0.0009501555049528401
8300000000.0 0.0010025978684578608 -0.0009619781931311167 0.9988875660134214 -0.011131416007119494 0.9988875944863097 -0.011131367962811724 0.00100278556767212 -0.0009619919586799365
8400000000.0 0.0010032883816887004 -0.0009738230856509737 0.9988847612001309 -0.011265048923797876 0.9988847898328164 -0.011265000370514863 0.0010034757445249018 -0.0009738369423202028
8500000000.0 0.0010039844973771983 -0.0009856765825988821 0.998881927556663 -0.011398665807052507 0.9988819563505148 -0.011398616747162933 0.001004171520958149 -0.0009856905279397115
8600000000.0 0.001004686127679423 -0.0009975387550603938 0.9988790652368889 -0.011532266535859783 0.9988790941932586 -0.011532216971751387 0.0010048728091659445 -0.000997552786608389
8700000000.0 0.0010053931841270808 -0.0010094096731178854 0.9988761743956021 -0.011665850991402068 0.9988762035158223 -0.011665800925483418 0.0010055795207171859 -0.00100942378839315
8800000000.0 0.0010061055776405137 -0.0010212894058459297 0.998873255188488 -0.011799419057079817 0.9988732844738756 -0.011799368491778732 0.0010062915665700867 -0.0010213036023539433
8900000000.0 0.0010068232185417348 -0.0010331780213043817 0.9988703077721012 -0.011932970618521431 0.9988703372239528 -0.01193291955628448 0.0010070088570849284 -0.001033192296535802
9000000000.0 0.001007546016566529 -0.001045075586533962 0.9988673323038321 -0.012066505563593288 0.9988673619234267 -0.012066454006887443 0.0010077313020348472 -0.0010450899379656866
9100000000.0 0.001008273880878525 -0.001056982167550671 0.9988643289418851 -0.012200023782410472 0.9988643587304824 -0.012199971733720071 0.0010084588106228896 -0.001056996592645332
9200000000.0 0.0010090067200819962 -0.0010688978293401006 0.9988612978452446 -0.01233352516734521 0.9988613278040875 -0.012333472629173288 0.0010091912914915566 -0.0010689123255474844
9300000000.0 0.0010097444422341676 -0.0010808226358538105 0.9988582391736534 -0.012467009613034975 0.9988582693039646 -0.012466956587903796 0.0010099286527366796 -0.0010808372006113525
9400000000.0 0.0010104869548583973 -0.0010927566500044193 0.998855153087581 -0.012600477016392815 0.9988551833905652 -0.012600423506841523 0.0010106708019211915 -0.0010927712807361246
9500000000.0 0.0010112341649590308 -0.001104699933659589 0.9988520397481961 -0.012733927276612673 0.998852070225039 -0.012733873285199095 0.0010114176460880983 -0.0011047146277788512
9600000000.0 0.0010119859790321622 -0.001116652547640169 0.9988488993173403 -0.012867360295180067 0.9988489299692087 -0.012867305824477827 0.0010121690917727529 -0.0011166673025477898
9700000000.0 0.001012742303080255 -0.00112861455171411 0.9988457319574987 -0.013000775975875395 0.9988457627855404 -0.013000721028477272 0.0010129250450176862 -0.001128629364800168
9800000000.0 0.0010135030426251725 -0.0011405860045928579 0.9988425378317727 -0.01313417422478381 0.9988425688371159 -0.013134118803297982 0.0010136854113843598 -0.0011406008732371506
9900000000.0 0.001014268102721216 -0.0011525669639290384 0.998839317103851 -0.013267554950299347 0.9988393482876055 -0.013267499057351313 0.0010144500959663198 -0.0011525818855008213
10000000000.0 0.001015037387968901 -0.0011645574863107264 0.9988360699379829 -0.013400918063131366 0.9988361013012382 -0.013400861701362616 0.00101521900340476 -0.001164572458169384
10100000000.0 0.0010158108025267092 -0.0011765576272594759 0.9988327964989492 -0.013534263476309755 0.9988328280427761 -0.013534206648378224 0.0010159920378979693 -0.0011765726467553095
10200000000.0 0.0010165882501271186 -0.0011885674412267068 0.9988294969520337 -0.013667591105190956 0.9988295286774835 -0.013667533813769317 0.0010167691032183807 -0.0011885825057014801
10300000000.0 0.0010173696340869214 -0.0012005869815903706 0.9988261714629975 -0.013800900867458601 0.9988262033711018 -0.013800843115236683 0.0010175501027237372 -0.00120060208837697
10400000000.0 0.001018154857322969 -0.0012126163006524256 0.9988228201980487 -0.013934192683132387 0.9988228522898197 -0.013934134472813702 0.001018334939370658 -0.0012126314470758892
10500000000.0 0.0010189438223640042 -0.0012246554496363876 0.9988194433238148 -0.01406746647456813 0.9988194756002443 -0.014067407808872097 0.0010191235157291905 -0.0012246706330140374
10600000000.0 0.0010197364313650177 -0.0012367044786838904 0.9988160410073149 -0.014200722166461847 0.9988160734693762 -0.014200663048122042 0.0010199157339945094 -0.0012367196963263473
10700000000.0 0.0010205325861191207 -0.0012487634368537007 0.9988126134159323 -0.01433395968585367 0.9988126460645773 -0.014333900117617817 0.0010207114960009527 -0.0012487786860646284
