#   Hz   S  RI   R   50
!
0.0 0.0016079105008521446 0.0 0.9983937677235968 0.0 0.998393784266728 0.0 0.0016081207850276598 0.0
100000000.0 0.0016079256249783378 -8.674097837922383e-06 0.9983937175251782 -0.0002288991806505065 0.9983937340678447 -0.00022889913884395304 0.0016081359068295124 -8.674426839512429e-06
200000000.0 0.0016079709951820147 -1.734855489225402e-05 0.9983935669338152 -0.00045779773685095386 0.9983935834750868 -0.0004577976532100005 0.0016081812700606227 -1.734921285458969e-05
300000000.0 0.0016080466049393364 -2.6023730321616362e-05 0.9983933159611783 -0.0006866950442696284 0.9983933325001272 -0.0006866949187385694 0.0016082568681977873 -2.60247171630121e-05
400000000.0 0.0016081524433774488 -3.469998316907277e-05 0.9983929646267199 -0.0009155904788113969 0.9983929811624175 -0.0009155903113067241 0.0016083626903699438 -3.4701298767022405e-05
500000000.0 0.0016082884952788418 -4.3377672304406585e-05 0.9983925129576633 -0.0011444834167360426 0.9983925294891836 -0.0011444832071464126 0.0016084987213608188 -4.3379316495588065e-05
600000000.0 0.001608454741081942 -5.2057156366361936e-05 0.9983919609890001 -0.0013733732347762796 0.9983919775154197 -0.001373372982962624 0.0016086649416124648 -5.205912894671039e-05
700000000.0 0.001608651156888122 -6.073879370505122e-05 0.9983913087634821 -0.0016022593102558266 0.9983913252838793 -0.0016022590160513404 0.0016088613272280993 -6.074109442971948e-05
800000000.0 0.0016088777144621274 -6.942294232441179e-05 0.9983905563316073 -0.001831141021207265 0.9983905728450654 -0.0018311406844173828 0.0016090878499774419 -6.94255709078475e-05
900000000.0 0.0016091343812429748 -7.810995982457343e-05 0.9983897037516144 -0.002060017746489567 0.9983897202572174 -0.0020600173668921928 0.001609344477302712 -7.811291594062379e-05
1000000000.0 0.0016094211203447463 -8.680020334474725e-05 0.9983887510894608 -0.0022888888659057184 0.9983887675862996 -0.0022888884432510823 0.0016096311723234685 -8.680348662660092e-05
1100000000.0 0.001609737890569443 -9.549402950560043e-05 0.998387698418814 -0.0025177537603196178 0.9983877149059829 -0.002517753294330559 0.0016099478938467753 -9.549763954594093e-05
1200000000.0 0.0016100846464116134 -0.00010419179435238962 0.998386545821031 -0.0027466118117730693 0.9983865622976292 -0.0027466113021449735 0.0016102945963729332 -0.00010419573070343903
1300000000.0 0.0016104613380678284 -0.00011289385329782696 0.9983852933851386 -0.0029754624036024695 0.9983853098502714 -0.0029754618500033407 0.001610671230105328 -0.0001128981154713814
1400000000.0 0.0016108679114484976 -0.00012160056106532197 0.9983839412078136 -0.0032043049205546436 0.998383957660592 -0.0032043043226253347 0.001611077740961397 -0.00012160514853286827
1500000000.0 0.001611304308186587 -0.00013031227163213757 0.998382489393359 -0.003433138748903001 0.9983825058329003 -0.003433138106257212 0.0016115140705812308 -0.00013031718382498477
1600000000.0 0.001611770465650557 -0.00013902933817304752 0.99838093805368 -0.0036619632765625626 0.9983809544791091 -0.003661962588786908 0.0016119801563418633 -0.00013903457448238306
1700000000.0 0.0016122663169554816 -0.00014775211300410425 0.998379287308257 -0.003890777893205247 0.9983793037187059 -0.0038907771598594393 0.001612475931367161 -0.00014775767278098139
1800000000.0 0.001612791790978127 -0.00015648094752629177 0.9983775372841164 -0.00411958199037406 0.9983775536787253 -0.004119581210991018 0.0016130013245431807 -0.0001564868300819219
1900000000.0 0.001613346812370167 -0.00016521619216980677 0.9983756881158035 -0.00434837496159692 0.9983757044937196 -0.004348374135683075 0.0016135562605301581 -0.0001652223967757807
2000000000.0 0.0016139313015718782 -0.00017395819633870491 0.9983737399453458 -0.004577156202500565 0.9983737563057274 -0.004577155329535586 0.0016141406597808185 -0.00017396472222654656
2100000000.0 0.0016145451748310242 -0.00018270730835488185 0.9983716929222254 -0.004805925110922486 0.9983717092642385 -0.004805924190359968 0.0016147544385526267 -0.0001827141547168483
2200000000.0 0.0016151883442167255 -0.00019146387540361262 0.9983695472033383 -0.005034681087024182 0.9983695635261595 -0.00503468011829113 0.0016153975089256217 -0.00019147104139248706
2300000000.0 0.0016158607176373337 -0.0002002282434784597 0.9983673029529602 -0.005263423533401718 0.9983673192557765 -0.005263422515899403 0.0016160697788218075 -0.00020023572820761045
2400000000.0 0.0016165621988608575 -0.0002090007573265781 0.9983649603427075 -0.0054921518551973875 0.9983649766247155 -0.005492150788301047 0.0016167711520199816 -0.00020900855987053045
2500000000.0 0.001617292687530375 -0.00021778176039492225 0.9983625195514964 -0.005720865460209363 0.9983625358119048 -0.005720864343268653 0.0016175015281774399 -0.00021778987978892024
2600000000.0 0.001618052079187702 -0.0002265715947756938 0.9983599807655 -0.005949563759001652 0.9983599970035287 -0.005949562591340545 0.0016182608028491236 -0.0002265800300164408
2700000000.0 0.0016188402652909928 -0.00023537060115353458 0.9983573441781055 -0.006178246165012229 0.9983573603929868 -0.006178244945929589 0.0016190488675073128 -0.00023537935119892053
2800000000.0 0.0016196571332382323 -0.00024417911875148686 0.9983546099898695 -0.006406912094661576 0.9983546261808474 -0.006406910823430985 0.0016198656095646115 -0.0002441881825210233
2900000000.0 0.0016205025663885593 -0.00025299748527870267 0.9983517784084681 -0.006635560967459501 0.9983517945748002 -0.0066355596433296535 0.0016207109123954843 -0.0002530068616536171
3000000000.0 0.0016213764440843686 -0.0002618260368778437 0.9983488496486504 -0.006864192206111339 0.9983488657896079 -0.0068641908283061485 0.001621584655358592 -0.00026183572470106644
3100000000.0 0.0016222786416777244 -0.00027066510807251124 0.998345823932187 -0.007092805236623569 0.9983458400470546 -0.007092803804342621 0.0016224867138211092 -0.0002706751061493574
3200000000.0 0.0016232090305520787 -0.0002795150317161009 0.9983427014878193 -0.007321399488408117 0.9983427175758952 -0.007321398000826682 0.001623416959183997 -0.00027952533881394633
3300000000.0 0.001624167478149131 -0.0002883761389400219 0.9983394825512043 -0.0075499743943862295 0.9983394986118026 -0.007549972850655399 0.001624375258906664 -0.00028838675378877035
3400000000.0 0.0016251538479948415 -0.0002972487591029383 0.9983361673648595 -0.00777852939109072 0.9983361833973088 -0.007778527790337989 0.001625361476531477 -0.0002972596803953758
3500000000.0 0.0016261679997251334 -0.0003061332197403797 0.9983327561781079 -0.008007063918768147 0.9983327721817523 -0.008007062260097248 0.0016263754717139864 -0.00030614444613203475
3600000000.0 0.0016272097891148688 -0.0003150298465144059 0.9983292492470173 -0.008235577421478697 0.9983292652212168 -0.008235575703970538 0.0016274171002468162 -0.00031504137662406853
3700000000.0 0.001628279068104868 -0.00032393896316432153 0.9983256468343432 -0.008464069347196838 0.9983256627784739 -0.008464067569908836 0.0016284862140911991 -0.0003239507955740298
3800000000.0 0.0016293756848315406 -0.00033286089145748236 0.9983219492094652 -0.008692539147908919 0.9983219651229198 -0.008692537309875854 0.0016295826614022302 -0.00033287302471296114
3900000000.0 0.001630499483655826 -0.0003417959511402652 0.9983181566483249 -0.008920986279711409 0.9983181725305147 -0.008920984379945542 0.0016307062865621275 -0.00034180838375107067
4000000000.0 0.0016316503051948669 -0.00035074445989038375 0.9983142694333633 -0.00914941020290653 0.998314285283715 -0.00914940824039807 0.0016318569302085602 -0.00035075719033011353
4100000000.0 0.0016328279863519588 -0.00035970673326884576 0.9983102878534524 -0.009377810382098345 0.9983103036714118 -0.009377808355815517 0.001633034429265564 -0.0003597197599756558
4200000000.0 0.0016340323603479506 -0.00036868308467321264 0.99830621220383 -0.009606186286286244 0.9983062279888614 -0.00960618419517546 0.0016342386169763785 -0.0003686964060494774
4300000000.0 0.0016352632567554054 -0.0003776738252900845 0.9983020427860313 -0.009834537388958033 0.9983020585376172 -0.009834535231944707 0.001635469322935213 -0.0003776874397034727
4400000000.0 0.0016365205015288768 -0.00038667926405019096 0.9982977799078182 -0.010062863168181923 0.9982977956254604 -0.01006286094417004 0.0016367263731199445 -0.0003866931698332872
4500000000.0 0.001637803917041875 -0.0003956997075814863 0.9982934238831089 -0.010291163106696153 0.9982934395663281 -0.010291160814569609 0.001638009589927163 -0.00039571390303222545
4600000000.0 0.0016391133221185007 -0.0004047354601651566 0.9982889750319046 -0.010519436691999794 0.9982889906802422 -0.01051943433062141 0.0016393187922042823 -0.00040474994354753116
4700000000.0 0.001640448532069644 -0.00041378682369074666 0.9982844336802166 -0.010747683416439321 0.9982844492932332 -0.010747680984652242 0.0016406537952867695 -0.00041380159323416046
4800000000.0 0.0016418093587292077 -0.00042285409761169386 0.9982798001599902 -0.010975902777295744 0.9982798157372681 -0.010975900273923148 0.0016420144110325648 -0.00042286915151237625
4900000000.0 0.0016431956104882906 -0.0004319375789031109 0.99827507480903 -0.011204094276870457 0.9982750903501709 -0.01120409170071623 0.0016434004478584588 -0.0004319529153233939
5000000000.0 0.0016446070923340158 -0.00044103756201801467 0.9982702579709204 -0.011432257422568566 0.9982702734755482 -0.011432254772417707 0.0016448117107768882 -0.0004410531790872796
5100000000.0 0.0016460436058868535 -0.0004501543388451047 0.9982653499949475 -0.011660391726982246 0.9982653654627082 -0.011660389001600633 0.0016462480014336328 -0.00045017023466017585
5200000000.0 0.0016475049494363459 -0.00045928819866873324 0.9982603512360211 -0.0118884967079714 0.9982603666665809 -0.011888493906106874 0.0016477091181452054 -0.0004593043712934683
5300000000.0 0.001648990917982565 -0.00046843942812547774 0.9982552620545888 -0.012116571888744654 0.998255277447638 -0.012116569009126731 0.0016491948559385372 -0.00046845587559190226
5400000000.0 0.0016505013032731683 -0.000477608311166146 0.9982500828165599 -0.012344616797936867 0.9982500981718098 -0.012344613839277357 0.001650705006588805 -0.0004776250314739807
5500000000.0 0.0016520358938450982 -0.00048679512901422876 0.9982448138932173 -0.012572630969686433 0.9982448292104028 -0.012572627930680596 0.0016522393586595298 -0.00048681212013208704
5600000000.0 0.0016535944750618802 -0.0004960001601281693 0.9982394556611344 -0.012800613943712147 0.998239470940014 -0.012800610823037302 0.001653797697543475 -0.0004960174199932041
5700000000.0 0.0016551768291568688 -0.0005052236801621563 0.9982340085020908 -0.013028565265385546 0.9982340237424452 -0.013028562061703358 0.0016553798055016508 -0.000505241206680733
5800000000.0 0.0016567827352741186 -0.0005144659619283303 0.9982284728029843 -0.013256484485805301 0.9982284880046195 -0.01325648119776045 0.001656985461707628 -0.000514483752976206
5900000000.0 0.0016584119695084297 -0.0005237272753602254 0.9982228489557439 -0.013484371161867514 0.9982228641184892 -0.013484367788089209 0.001658614442285446 -0.0005237453287828025
6000000000.0 0.0016600643049501174 -0.0005330078874755016 0.998217137357241 -0.013712224856335843 0.9982171524809501 -0.01371222139543812 0.0016602665203547446 -0.0005330262010886574
6100000000.0 0.00166173951172544 -0.0005423080623408504 0.9982113384092014 -0.013940045137909664 0.9982113534937519 -0.0139400415884916 0.0016619414660721768 -0.0005423266339308666
6200000000.0 0.001663437357041248 -0.0005516280610362366 0.9982054525181111 -0.014167831581291306 0.9982054675634078 -0.014167827941936979 0.0016636390466754304 -0.0005516468883600585
6300000000.0 0.001665157605227973 -0.0005609681416214839 0.9981994800951299 -0.014395583767250577 0.9981994951011007 -0.014395580036530076 0.001665359026525296 -0.0005609872224072534
6400000000.0 0.001666900017784454 -0.0005703285591007184 0.9981934215559966 -0.014623301282688125 0.9981934365225956 -0.014623297459157638 0.0016671011671521422 -0.0005703478910484399
6500000000.0 0.0016686643534211795 -0.0005797095653910217 0.998187277320935 -0.014850983720698393 0.9981872922481421 -0.014850979802901008 0.001668865227298092 -0.0005797291461724459
6600000000.0 0.0016704503681056746 -0.0005891114092896337 0.998181047814563 -0.01507863068062958 0.9981810627023835 -0.015078626667095092 0.001670650962963114 -0.0005891312365488772
6700000000.0 0.001672257815109557 -0.0005985343364417054 0.9981747334657941 -0.015306241768142702 0.9981747483142606 -0.015306237657388394 0.0016724581274503098 -0.0005985544077956135
6800000000.0 0.001674086445051508 -0.0006079785893096146 0.9981683347077468 -0.01553381659526829 0.9981683495169176 -0.0155338123857995 0.001674286471411675 -0.0006079989023481879
6900000000.0 0.0016759360059453833 -0.0006174444071432336 0.9981618519776446 -0.015761354780462686 0.9981618667476042 -0.015761350470772727 0.001676135742894185 -0.0006174649594298269
7000000000.0 0.0016778062432459052 -0.0006269320259500482 0.9981552857167203 -0.01598885594866188 0.9981553004475812 -0.015988851537232996 0.0016780056873857319 -0.000626952815021792
7100000000.0 0.0016796968998954462 -0.0006364416784659189 0.9981486363701197 -0.016216319731333466 0.998148651062021 -0.01621631521663748 0.001679896047862878 -0.0006364627018344823
7200000000.0 0.0016816077163718712 -0.0006459735941279346 0.9981419043868021 -0.016443745766528264 0.9981419190399092 -0.016443741147025636 0.0016818065648371385 -0.0006459948492793846
7300000000.0 0.001683538430735518 -0.0006555279990463549 0.9981350902194412 -0.016671133698928475 0.9981351048339495 -0.016671128973070406 0.0016837369764035601 -0.0006555494834418713
7400000000.0 0.0016854887786771028 -0.0006651051159783019 0.9981281943243281 -0.016898483179895517 0.9981282089004586 -0.016898478346123777 0.0016856870182876558 -0.000665126827054447
7500000000.0 0.0016874584935661471 -0.0006747051643018086 0.9981212171612689 -0.017125793867516143 0.9981212316992718 -0.017125788924262794 0.0016876564238938712 -0.0006747270994713724
7600000000.0 0.001689447306499011 -0.0006843283599912139 0.9981141591934857 -0.017353065426645695 0.998114173693638 -0.01735306037233469 0.0016896449243540043 -0.0006843505166428636
7700000000.0 0.0016914549463478206 -0.0006939749155919949 0.9981070208875146 -0.01758029752895143 0.9981070353501229 -0.017580292361998165 0.0016916522485761 -0.0006939972910909161
7800000000.0 0.001693481139810357 -0.0007036450401971958 0.9980998027131064 -0.01780748985295209 0.998099817138505 -0.017807484571764592 0.0016936781232936358 -0.0007036676318861374
7900000000.0 0.0016955256114572458 -0.0007133389394259883 0.998092505143122 -0.018034642084058264 0.9980925195316734 -0.018034636687037045 0.0016957222731138935 -0.0007133617446248402
8000000000.0 0.001697588083783842 -0.0007230568153993739 0.9980851286534315 -0.018261753914608735 0.998085143005528 -0.01826174840014784 0.0016977844205683565 -0.0007230798314062797
8100000000.0 0.0016996682772588187 -0.0007327988667205095 0.9980776737228129 -0.01848882504390688 0.998077688038875 -0.018488819410393154 0.0016998642861626753 -0.000732822090811668
8200000000.0 0.0017017659103726668 -0.0007425652884535971 0.998070140832846 -0.018715855178253686 0.9980701551133242 -0.018715849424068925 0.0017019615884248838 -0.0007425887178842651
8300000000.0 0.0017038806996916042 -0.0007523562721039519 0.9980625304678125 -0.0189428440309805 0.9980625447131851 -0.018942838154500763 0.001704076043957929 -0.0007523799041080669
8400000000.0 0.001706012359904483 -0.0007621720055984336 0.9980548431145904 -0.01916979132247962 0.9980548573253653 -0.019169785322076385 0.0017062073674887484 -0.000762195837390471
8500000000.0 0.001708160603874396 -0.0007720126732689008 0.998047079262549 -0.01939669678023393 0.9980470934392646 -0.01939669065427311 0.0017083552719181683 -0.0007720367020424834
8600000000.0 0.0017103251426900685 -0.0007818784558324335 0.998039239403448 -0.019623560138841478 0.9980392535466712 -0.01962355388568618 0.00171051946837336 -0.0007819026787623686
8700000000.0 0.001712505685716222 -0.0007917695303757129 0.9980313240313318 -0.01985038114004368 0.9980313381416588 -0.019850374758052576 0.0017126996662569299 -0.000791793944617387
8800000000.0 0.001714701940644414 -0.0008016860703391145 0.998023333642422 -0.020077159532747357 0.9980233477204801 -0.02007715302027663 0.0017148955732998713 -0.0008017106730294248
8900000000.0 0.0017169136135443072 -0.0008116282455017515 0.9980152687350179 -0.020303895073048313 0.9980152827814632 -0.020303888428450947 0.0017171068956100893 -0.0008116530337592509
9000000000.0 0.0017191404089154897 -0.0008215962219651758 0.9980071298093887 -0.020530587524248467 0.9980071438249073 -0.02053058074587631 0.0017193333377259826 -0.0008216211928910785
9100000000.0 0.0017213820297375642 -0.000831590162142075 0.9979989173676679 -0.020757236656878775 0.9979989313529758 -0.020757229743080217 0.0017215746026671475 -0.0008316153128201088
9200000000.0 0.0017236381775230613 -0.0008416102247417196 0.9979906319137505 -0.020983842248711942 0.9979906458695941 -0.020983835197836108 0.0017238303919855887 -0.0008416355522383519
9300000000.0 0.0017259085523680614 -0.0008516565647581969 0.9979822739531871 -0.021210404084780598 0.9979822878803424 -0.021210396895175003 0.0017261004058167137 -0.0008516820661241065
9400000000.0 0.0017281928530042453 -0.000861729333459294 0.997973843993078 -0.021436921957389422 0.9979738578923517 -0.0214369146274013 0.0017283843429322702 -0.000861755005729256
9500000000.0 0.0017304907768503574 -0.00087182867837512 0.9979653425419689 -0.021663395666126847 0.9979653564141978 -0.021663388194104183 0.0017306819007909808 -0.0008718545185681029
9600000000.0 0.0017328020200632012 -0.0008819547432892127 0.9979567701097474 -0.021889825017875963 0.9979567839557983 -0.021889817402166816 0.0017329927755903008 -0.0008819807484089698
9700000000.0 0.001735126277591417 -0.0008921076682284077 0.9979481272075358 -0.02211620982682214 0.997948141028305 -0.02211620206577599 0.0017353166623190924 -0.0008921338352646997
9800000000.0 0.001737463243224775 -0.00090228758945477 0.9979394143475864 -0.02234254991445986 0.9979394281440022 -0.022342542006428164 0.0017376532548079614 -0.0009023139153828635
9900000000.0 0.0017398126096483172 -0.0009124946394587466 0.9979306320431788 -0.022568845109598456 0.9979306458161986 -0.022568837052934203 0.0017400022457825376 -0.0009125211212403751
10000000000.0 0.001742174068491897 -0.0009227289469508694 0.9979217808085147 -0.02279509524836433 0.9979217945591259 -0.02279508704142403 0.0017423633269137958 -0.0009227555815344005
10100000000.0 0.0017445473103836423 -0.0009329906368568471 0.9979128611586109 -0.02302130017420379 0.9979128748878325 -0.023021291815346217 0.0017447361888707298 -0.0009330174211781137
10200000000.0 0.0017469320250006848 -0.0009432798303112031 0.9979038736092005 -0.023247459737882524 0.997903887318081 -0.023247451225470537 0.0017471205213720519 -0.0009433067612938218
10300000000.0 0.0017493279011212505 -0.0009535966446537112 0.9978948186766233 -0.02347357379748417 0.9978948323662408 -0.023473565129885052 0.0017495160132371716 -0.0009536237192090026
10400000000.0 0.00175173462667619 -0.0009639411934246197 0.9978856968777254 -0.02369964221840721 0.9978857105491895 -0.023699633393991587 0.0017519223524383905 -0.0009639684084532409
10500000000.0 0.0017541518888008318 -0.0009743135863620835 0.9978765087297565 -0.0239256648733596 0.9978765223842058 -0.023925655890504178 0.0017543392261530324 -0.0009743409387531416
10600000000.0 0.0017565793738859574 -0.0009847139293993306 0.997867254750263 -0.02415164164235271 0.9978672683888673 -0.024151632499439992 0.0017567663208133846 -0.0009847414160322658
10700000000.0 0.00175901676762917 -0.0009951423246634325 0.9978579354569908 -0.024377572412693737 0.9978579490809494 -0.02437756310811158 0.0017592033221593935 -0.000995169942407047
