#   Hz   S  RI   R   50
!
0.0 0.0017263255547874286 0.0 0.9983028927014478 0.0 0.9983034132277855 0.0 0.0017266213381085282 0.0
100000000.0 0.0017263423894626991 -8.432849338196948e-06 0.9983028352610213 -0.00024568234446163597 0.9983033557842956 -0.0002456828244913973 0.0017266381711050958 -8.432943400193536e-06
200000000.0 0.0017263928910084333 -1.6866106562728403e-05 0.9983026629442684 -0.0004913639811680053 0.998303183458354 -0.0004913649411621214 0.0017266886676156963 -1.6866294665053355e-05
300000000.0 0.0017264770519875214 -2.5300179492798464e-05 0.9983023757647729 -0.0007370442025019601 0.9983028962635442 -0.0007370456423296254 0.0017267728202029493 -2.530046159213473e-05
400000000.0 0.001726594860004499 -3.373547581342039e-05 0.9983019737451675 -0.0009827223011225023 0.9983024942225024 -0.0009827242205875978 0.0017268906164729476 -3.373585184480769e-05
500000000.0 0.001726746297709606 -4.217240300832722e-05 0.9983014569171315 -0.0012283975701028117 0.9983019773669145 -0.0012283999689438818 0.0017270420390782138 -4.217287288517416e-05
600000000.0 0.0017269313428025887 -5.061136829295237e-05 0.9983008253213815 -0.001474069303068076 0.9983013457375002 -0.0014740721809584905 0.001727227065720022 -5.061193190706749e-05
700000000.0 0.0017271499680372243 -5.9052778547461597e-05 0.9983000790076638 -0.0017197367943332467 0.9983005993840135 -0.0017197401508812335 0.0017274456691547765 -5.905343576912406e-05
800000000.0 0.0017274021412253602 -6.749704025001294e-05 0.9982992180347389 -0.001965399339040508 0.9982997383652225 -0.0019654031737893246 0.0017276978171977988 -6.749779092794782e-05
900000000.0 0.001727687825245852 -7.594455940981833e-05 0.9982982424703701 -0.002211056233296583 0.9982987627489 -0.0022110605457246494 0.0017279834727315384 -7.594540337127635e-05
1000000000.0 0.0017280069780501014 -8.439574150063599e-05 0.9982971523913053 -0.002456706774309814 0.9982976726118038 -0.0024567115638308716 0.0017283025937109896 -8.439667855150209e-05
1100000000.0 0.0017283595526723942 -9.285099139419397e-05 0.9982959478832601 -0.002702350260526701 0.998296468039661 -0.002702355526489928 0.001728655133175377 -9.285202131895588e-05
1200000000.0 0.0017287454972377064 -0.00010131071329390267 0.9982946290408943 -0.0029479859917684367 0.9982951491271445 -0.002947991733458647 0.0017290410392548704 -0.0001013118358557601
1300000000.0 0.001729164754973861 -0.00010977531066858222 0.9982931959677916 -0.0031936132693667018 0.9982937159778517 -0.003193619486004803 0.0017294602551822492 -0.0001097765256095503
1400000000.0 0.00172961726422204 -0.00011824518618654795 0.9982916487764325 -0.0034392313962993424 0.9982921687042787 -0.0034392380870421377 0.0017299127193056273 -0.00011824649322745422
1500000000.0 0.0017301029584509365 -0.00012672074164964413 0.9982899875881694 -0.003684839677325338 0.998290507427794 -0.0036848468412661903 0.0017303983650990616 -0.00012672214049037916
1600000000.0 0.0017306217662680957 -0.00013520237792796736 0.9982882125331942 -0.003930437419119413 0.998288732278607 -0.003930445055288206 0.0017309171211776857 -0.00013520386824742174
1700000000.0 0.0017311736114358834 -0.00014369049489419832 0.9982863237505093 -0.00417602393040595 0.9982868433957376 -0.0041760320377697635 0.0017314689113107488 -0.00014369207635041094
1800000000.0 0.0017317584128871569 -0.000152185491358664 0.9982843213878908 -0.004421598522092782 0.9982848409269844 -0.004421607099555726 0.0017320536544395103 -0.00015218716358896177
1900000000.0 0.0017323760847414603 -0.0001606877650044891 0.9982822056018575 -0.004667160507403469 0.9982827250288849 -0.004667169553807394 0.001732671264691096 -0.00016068952762562683
2000000000.0 0.0017330265363216754 -0.00016919771232312654 0.9982799765576285 -0.004912709202009988 0.9982804958666808 -0.004912718716134738 0.0017333216513978533 -0.00016919956493127678
2100000000.0 0.001733709672174064 -0.00017771572854987175 0.9982776344290843 -0.005158243924164026 0.9982781536142772 -0.00515825390472764 0.0017340047191152074 -0.00017771767072082806
2200000000.0 0.0017344253920868913 -0.00018624220760011 0.9982751793987277 -0.005403763994827604 0.9982756984541998 -0.005403774440486956 0.0017347203676407806 -0.00018624423888950623
2300000000.0 0.001735173591111138 -0.0001947775420056049 0.9982726116576348 -0.005649268737803531 0.9982731305775522 -0.005649279647154443 0.0017354684920356024 -0.00019477966194904014
2400000000.0 0.0017359541595799908 -0.00020332212285158343 0.9982699314054138 -0.005894757479863739 0.9982704501839679 -0.005894768851441846 0.001736248982644073 -0.00020332433096457558
2500000000.0 0.0017367669831343487 -0.00021187633971323636 0.9982671388501534 -0.006140229550878714 0.9982676574815633 -0.006140241383159544 0.0017370617251174394 -0.00021187863549161127
2600000000.0 0.0017376119427436722 -0.00022044058059366223 0.9982642342083731 -0.0063856842839444 0.9982647526868883 -0.006385696575343836 0.0017379066004368285 -0.00022044296351359207
2700000000.0 0.0017384889147303883 -0.0002290152318616807 0.9982612177049732 -0.006631121015508516 0.9982617360248716 -0.006631133764383536 0.0017387834849369214 -0.00022901770137976534
2800000000.0 0.0017393977707955638 -0.00023760067818976184 0.9982580895731775 -0.006876539085497163 0.9982586077287701 -0.006876552290146096 0.001739692250331079 -0.00023760323374346016
2900000000.0 0.0017403383780452057 -0.00024619730249316217 0.9982548500544799 -0.007121937837438519 0.998255368040109 -0.007121951496101585 0.0017406327637373338 -0.0002461999435008371
3000000000.0 0.001741310599015597 -0.0002548054858687605 0.9982514993985855 -0.007367316618587107 0.9982520172086266 -0.00736733072944715 0.0017416048877056404 -0.0002548082117299409
3100000000.0 0.001742314291702182 -0.0002634256075350027 0.9982480378633494 -0.007612674780046303 0.9982485554922129 -0.007612689341228968 0.0017426084802453273 -0.0002634284176302378
3200000000.0 0.0017433493095879234 -0.00027205804477149515 0.9982444657147159 -0.007858011676889725 0.9982449831568476 -0.007858026686464592 0.0017436433948533486 -0.00027206093846293374
3300000000.0 0.0017444155016731822 -0.0002807031728597056 0.9982407832266552 -0.008103326668282021 0.9982413004765383 -0.008103342124262544 0.001744709480544213 -0.0002807061494911919
3400000000.0 0.0017455127125059473 -0.0002893613650242442 0.998236990681098 -0.008348619117597721 0.998237507733251 -0.00834863501794245 0.001745806581881069 -0.00028936442392132205
3500000000.0 0.0017466407822123004 -0.00029803299237391015 0.9982330883678652 -0.008593888392540057 0.9982336052168475 -0.008593904735152773 0.0017469345390054526 -0.0002980361328444758
3600000000.0 0.001747799546529878 -0.00030671842384423807 0.9982290765846024 -0.008839133865257484 0.9982295932250127 -0.008839150647987919 0.0017480931876702034 -0.00030672164517836275
3700000000.0 0.0017489888368396515 -0.00031541802613980086 0.9982249556367062 -0.009084354912459357 0.9982254720631832 -0.009084372133103999 0.0017492823592726264 -0.0003154213276100908
3800000000.0 0.0017502084801999482 -0.0003241321636774454 0.9982207258372541 -0.009329550915530312 0.9982212420444789 -0.009329568571832949 0.001750501880888322 -0.00032413554453906393
3900000000.0 0.001751458299382676 -0.00033286119852954664 0.9982163875069257 -0.00957472126064411 0.9982169034896209 -0.009574739350296842 0.0017517515753047613 -0.00033286465802117703
4000000000.0 0.0017527381129057787 -0.0003416054903693096 0.9982119409739305 -0.009819865338874566 0.9982124567268635 -0.009819883859517908 0.0017530312610577513 -0.00034160902771243954
4100000000.0 0.0017540477350712965 -0.0003503653964146432 0.9982073865739273 -0.01006498254630695 0.9982079020919093 -0.01006500149553094 0.0017543407524677336 -0.0003503690108143759
4200000000.0 0.0017553869760033364 -0.0003591412713738406 0.998202724649947 -0.01031007228414596 0.9982032399278352 -0.010310091659490922 0.001755679859675524 -0.0003591449620192213
4300000000.0 0.001756755641682677 -0.00036793346739225275 0.9981979555523082 -0.010555133958824948 0.998198470585006 -0.010555153757781986 0.0017570483886814412 -0.00036793723345605623
4400000000.0 0.0017581535339892692 -0.0003767423339980054 0.9981930796385362 -0.010800166982110851 0.9981935944209943 -0.010800187202122672 0.001758446141383641 -0.0003767461746373934
4500000000.0 0.001759580450738037 -0.0003855682180500318 0.9981880972732787 -0.011045170771209605 0.9981886118004963 -0.011045191409671341 0.0017598729156165407 -0.00038557213240659235
4600000000.0 0.0017610361857211113 -0.00039441146368586076 0.9981830088282183 -0.01129014474886919 0.998183523095244 -0.011290165803129644 0.0017613285051914511 -0.0003944154508861837
4700000000.0 0.0017625205287482401 -0.0004032724122701062 0.9981778146819863 -0.01153508834348233 0.9981783286839175 -0.011535109810843987 0.0017628126999378678 -0.000403276471425857
4800000000.0 0.0017640332656872156 -0.0004121514023442192 0.9981725152200727 -0.01178000098918581 0.9981730289520591 -0.011780022866905465 0.0017643252857446193 -0.00041215553255201365
4900000000.0 0.0017655741785073842 -0.00042104876957555897 0.9981671108347352 -0.012024882125958893 0.9981676242919775 -0.012024904411249914 0.0017658660446006594 -0.0004210529699183438
5000000000.0 0.0017671430453223482 -0.00042996484670917724 0.998161601924909 -0.012269731199721782 0.9981621151026597 -0.012269753889753774 0.0017674347546408277 -0.0004299691162554428
5100000000.0 0.001768739640432297 -0.0004388999635184228 0.99815598889611 -0.012514547662430462 0.9981565017896772 -0.012514570754329712 0.001769031190187072 -0.00043890430132276004
5200000000.0 0.0017703637343705282 -0.00044785444675748623 0.9981502721603436 -0.012759330972170102 0.9981507847650875 -0.01275935446302183 0.0017706551217936948 -0.0004478588518610881
5300000000.0 0.001772015093946468 -0.0004568286201134013 0.998144452136007 -0.013004080593247657 0.9981449644473428 -0.013004104480096155 0.0017723063162920498 -0.0004568330915445501
5400000000.0 0.001773693482292101 -0.0004658228041610396 0.9981385292477887 -0.013248795996283497 0.9981390412611884 -0.013248820276132627 0.001773984536836255 -0.0004658273409349095
5500000000.0 0.0017753986589079428 -0.00047483731631552974 0.9981325039265743 -0.013493476658298142 0.9981330156375656 -0.013493501328112794 0.001775689542949058 -0.0004748419174351684
5600000000.0 0.0017771303797095943 -0.0004838724707890589 0.9981263766093448 -0.013738122062800793 0.9981268880135123 -0.013738147119507967 0.001777421090569894 -0.0004838771352446928
5700000000.0 0.0017788883970761438 -0.0004929285785455351 0.9981201477390719 -0.013982731699875288 0.9981206588320589 -0.01398275714036401 0.0017791789320996498 -0.0004929333053159398
5800000000.0 0.0017806724598971686 -0.0005020059472577418 0.9981138177646202 -0.014227305066262281 0.9981143285421286 -0.014227330887385606 0.001780962816452094 -0.0005020107353098929
5900000000.0 0.0017824823136221594 -0.0005111048812637409 0.9981073871406403 -0.014471841665441965 0.9981078975984312 -0.014471867864017352 0.0017827724890999515 -0.0005111097295534865
6000000000.0 0.0017843177003085736 -0.0005202256815264334 0.9981008563274657 -0.014716341007713999 0.9981013664613592 -0.014716367580524565 0.001784607692125067 -0.0005202305889985371
6100000000.0 0.001786178358672907 -0.0005293686455914158 0.998094225791005 -0.014960802610275659 0.9980947355968829 -0.014960829554071261 0.0017864681642682364 -0.000529373611180038
6200000000.0 0.0017880640241403646 -0.0005385340675464615 0.9980874960026349 -0.015205225997299232 0.9980880054764398 -0.015205253308796405 0.001788353640978017 -0.0005385390901757142
6300000000.0 0.0017899744288953654 -0.0005477222379830749 0.9980806674390942 -0.015449610700004647 0.9980811765768299 -0.015449638375889373 0.0017902638544646922 -0.0005477273165670903
6400000000.0 0.0017919093019330423 -0.0005569334439570033 0.998073740582372 -0.01569395625673441 0.9980742493801059 -0.015693984293661232 0.001792198533747692 -0.0005569385774004521
6500000000.0 0.0017938683691112237 -0.000566167968950805 0.9980667159195985 -0.015938262213022865 0.9980672243734603 -0.015938290607617138 0.0017941574047106597 -0.0005661731561486636
6600000000.0 0.0017958513532027017 -0.0005754260928361721 0.9980595939429351 -0.01618252812166629 0.9980601020491174 -0.016182556870524636 0.0017961401901514724 -0.0005754313326749584
6700000000.0 0.001797857973947698 -0.0005847080918387805 0.9980523751494588 -0.016426753542789215 0.9980528829042201 -0.016426782642481003 0.0017981466098357806 -0.0005847133831965197
6800000000.0 0.0017998879481072112 -0.0005940142385016964 0.9980450600410549 -0.0166709380439103 0.9980455674407168 -0.01667096749097779 0.001800176380551318 -0.0005940195802479781
6900000000.0 0.0018019409895164225 -0.00060334480165211 0.9980376491242967 -0.016915081200004588 0.9980381561652459 -0.016915110990965265 0.0018022292161586778 -0.000603350192648998
7000000000.0 0.001804016809139839 -0.0006127000463667147 0.9980301429103362 -0.017159182593566327 0.9980306495890264 -0.01715921272491233 0.0018043048276486797 -0.0006127054854683812
7100000000.0 0.001806115115123336 -0.0006220802339393414 0.9980225419147858 -0.017403241814666837 0.9980230482277357 -0.017403272282867355 0.0018064029231946194 -0.0006220857199930284
7200000000.0 0.0018082356128525097 -0.0006314856218483207 0.9980148466576041 -0.01764725846101277 0.9980153526013984 -0.017647289262514916 0.0018085232082073106 -0.0006314911536952058
7300000000.0 0.0018103780050042983 -0.0006409164637266617 0.9980070576629773 -0.017891232138001475 0.9980075632342691 -0.017891263269230552 0.0018106653853918948 -0.0006409220402007155
7400000000.0 0.0018125419916048915 -0.0006503730093311813 0.9979991754592019 -0.018135162458774987 0.9979996806547113 -0.018135193916135946 0.0018128291548013958 -0.0006503786292606389
7500000000.0 0.001814727270085753 -0.0006598555045122348 0.9979912005785695 -0.018379049044269874 0.9979917053950825 -0.018379080824149102 0.0018150142138938926 -0.0006598611667197747
7600000000.0 0.001816933535337265 -0.0006693641911868095 0.9979831335572419 -0.01862289152326937 0.9979836379916157 -0.018622923622033938 0.0018172202575882511 -0.0006693698944898607
7700000000.0 0.001819160479769025 -0.0006788993073100974 0.997974974935141 -0.018866689532447682 0.9979754789842981 -0.01886672194644917 0.0018194469783206551 -0.0006789050505210725
7800000000.0 0.0018214077933638914 -0.0006884610868486276 0.9979667252558185 -0.019110442716418853 0.9979672289167526 -0.019110475441991577 0.0018216940661026834 -0.0006884668687754125
7900000000.0 0.0018236751637368508 -0.0006980497597549117 0.9979583850663437 -0.019354150727777835 0.9979588883361172 -0.01935418376124178 0.0018239612085765072 -0.0006980555792014803
8000000000.0 0.0018259622761914401 -0.0007076655519419927 0.9979499549171796 -0.01959781322714348 0.9979504577929228 -0.01959784656480467 0.001826248091073748 -0.0007076714077084862
8100000000.0 0.0018282688137776335 -0.0007173086852601592 0.99794143536206 -0.019841429883196985 0.9979419378409746 -0.019841463521348475 0.00182855439667319 -0.0007173145761431053
8200000000.0 0.0018305944573505802 -0.000726979377472792 0.9979328269578724 -0.020085000372719965 0.9979333290372296 -0.020085034307643534 0.0018308798062577072 -0.0007269853022657154
8300000000.0 0.00183293888562806 -0.0007366778422346726 0.9979241302645314 -0.02032852438063013 0.9979246319416719 -0.020328558608596996 0.0018332239985732134 -0.0007366837997291702
8400000000.0 0.0018353017752487887 -0.0007464042890708637 0.9979153458448593 -0.020572001600013573 0.997915847117195 -0.02057203611728563 0.001835586650287742 -0.0007464102780552758
8500000000.0 0.0018376828008313442 -0.0007561589233555868 0.9979064742644617 -0.020815431732159 0.9979069751294753 -0.020815466534988874 0.0018379674360481265 -0.0007561649426170491
8600000000.0 0.0018400816350330174 -0.0007659419462931411 0.9978975160916076 -0.021058814486582336 0.9978980165468505 -0.02105884957121719 0.0018403660285401036 -0.0007659479946171377
8700000000.0 0.00184249794860886 -0.0007757535548984392 0.9978884718971013 -0.02130214958105976 0.9978889719401985 -0.021302184943739068 0.001842782098547886 -0.0007757596310694968
8800000000.0 0.0018449314104697137 -0.0007855939419806502 0.9978793422541644 -0.02154543674164859 0.9978798418828106 -0.02154547237860755 0.0018452153150112127 -0.0007856000447822622
8900000000.0 0.0018473816877436439 -0.0007954632961249818 0.9978701277383105 -0.021788675702712725 0.9978706269502718 -0.021788711610181963 0.0018476653450870233 -0.0007954694243403788
9000000000.0 0.0018498484458324865 -0.0008053618016771862 0.9978608289272192 -0.022031866206943796 0.9978613277203332 -0.022031902381151568 0.0018501318542061534 -0.0008053679540900927
9100000000.0 0.001852331348473715 -0.0008152896387289031 0.9978514464006172 -0.022275008005379827 0.9978519447727923 -0.022275044442552884 0.0018526145061350376 -0.0008152958141228018
9200000000.0 0.0018548300577991247 -0.0008252469831021433 0.9978419807401495 -0.022518100857423385 0.9978424786893666 -0.022518137553787204 0.0018551129630347237 -0.0008252531802617026
9300000000.0 0.0018573442343940518 -0.0008352340063373672 0.9978324325292619 -0.02276114453085555 0.997832930053572 -0.022761181482637127 0.0018576268855197467 -0.000835240224048552
9400000000.0 0.0018598735373576264 -0.000845250875680911 0.9978228023530704 -0.023004138801851207 0.9978232994505968 -0.023004176005277977 0.0018601559327185004 -0.0008452571127310269
9500000000.0 0.0018624176243624555 -0.0008552977540724231 0.9978130907982429 -0.023247083454988143 0.9978135874671802 -0.023247120906290945 0.001862699762332742 -0.0008553040092507643
9600000000.0 0.0018649761517142585 -0.0008653748001359156 0.9978032984528736 -0.02348997828325787 0.9978037946914876 -0.02349001597867083 0.0018652580306974947 -0.0008653810722341147
9700000000.0 0.0018675487744119438 -0.0008754821681680655 0.9977934259063594 -0.023732823088072032 0.9977939217129881 -0.023732861023835337 0.0018678303928410696 -0.0008754884559805548
9800000000.0 0.0018701351462074897 -0.0008856200081306301 0.9977834737492784 -0.023975617679268587 0.9977839691223302 -0.023975655851626886 0.001870416502544571 -0.0008856263104549217
9900000000.0 0.0018727349196650416 -0.0008957884656431429 0.9977734425732642 -0.024218361875114062 0.997773937511219 -0.024218400280319963 0.0018730160124013732 -0.0008957947812802348
10000000000.0 0.0018753477462220163 -0.0009059876819738098 0.9977633329708853 -0.02446105550230555 0.9977638274722943 -0.024461094136619926 0.00187562857387808 -0.0009059940097285514
10100000000.0 0.0018779732762475166 -0.0009162177940352653 0.9977531455355209 -0.02470369839597027 0.9977536395990075 -0.024703737255662647 0.0018782538373735072 -0.00091622413271648
10200000000.0 0.0018806111591029026 -0.0009264789343779799 0.9977428808612407 -0.02494629039966268 0.9977433744854974 -0.02494632948101335 0.001880891452278096 -0.0009264852827993831
10300000000.0 0.0018832610432012022 -0.0009367712311868111 0.9977325395426808 -0.02518883136535996 0.9977330327264716 -0.025188870664660638 0.001883541067033896 -0.0009367775881668445
10400000000.0 0.0018859225760666947 -0.0009470948082762165 0.997722122174922 -0.02543132115345571 0.9977226149170825 -0.02543136066701047 0.0018862023291946104 -0.0009471011726391467
10500000000.0 0.0018885954043949763 -0.0009574497850889563 0.9977116293533712 -0.025673759632752403 0.9977121216528064 -0.02567379935687862 0.0018888748854844787 -0.0009574561556640659
10600000000.0 0.0018912791741109096 -0.0009678362766931847 0.9977010616736377 -0.02591614668044925 0.9977015535293224 -0.02591618661147967 0.0018915583818581965 -0.0009678426523164896
10700000000.0 0.0018939735304293495 -0.0009782543937824368 0.9976904197314131 -0.02615848218213202 0.9976909111423934 -0.026158522316414808 0.0018942524635589416 -0.0009782607732958465
