#   Hz   S  RI   R   50
!
0.0 0.002168773000936319 0.0 0.9978788654465927 0.0 0.997878845547728 0.0 0.0021688300082692937 0.0
100000000.0 0.00216880250063211 -7.385845045284259e-06 0.9978787682181699 -0.00032131382622383896 0.9978787483116188 -0.0003213145746960558 0.0021688595073195726 -7.38606881148727e-06
200000000.0 0.002168890994637267 -1.4772445292866298e-05 0.9978784765421675 -0.0006426263631742437 0.9978784566125593 -0.0006426278598798597 0.0021689479993888794 -1.4772892831062644e-05
300000000.0 0.002169038467707561 -2.216055579498618e-05 0.99787799044638 -0.0009639363218833121 0.9978779704783498 -0.0009639385663447316 0.002169095469232588 -2.216122711673493e-05
400000000.0 0.002169244894440571 -2.955093130377883e-05 0.9978773099771238 -0.0012852424139940687 0.9978772899553159 -0.0012852454054950886 0.0021693018914469135 -2.9551826426425458e-05
500000000.0 0.002169510239280664 -3.6944326121367274e-05 0.9978764351992219 -0.0016065433520657257 0.9978764151082943 -0.0016065470896517054 0.0021695672304761103 -3.694544506799184e-05
600000000.0 0.002169834456529193 -4.434149395000835e-05 0.9978753661959853 -0.0019278378498785 0.9978753460206143 -0.0019278423323566426 0.0021698914406198416 -4.434283674942833e-05
700000000.0 0.0021702174903545433 -5.1743187742545965e-05 0.9978741030691916 -0.0022491246227382194 0.997874082794073 -0.0022491298486778722 0.0021702744660449347 -5.174475442927721e-05
800000000.0 0.00217065927480569 -5.915015955298185e-05 0.9978726459390503 -0.002570402387780254 0.9978726255489065 -0.0025704083555132696 0.0021707162407990743 -5.915195016718056e-05
900000000.0 0.0021711597338294492 -6.656316038730274e-05 0.9978709949441731 -0.002891669864272798 0.9978709744237556 -0.002891676571894008 0.0021712166888268125 -6.656517497473702e-05
1000000000.0 0.002171718781287249 -7.398294005475935e-05 0.99786915024153 -0.0032129257739195775 0.9978691295756222 -0.003212933219287454 0.002171775723987808 -7.39851786667433e-05
1100000000.0 0.0021723363209783238 -8.141024701927768e-05 0.9978671120064063 -0.003534168841161755 0.997867091179828 -0.0035341770218987266 0.002172393250078066 -8.141270971265233e-05
1200000000.0 0.002173012246660667 -8.884582825154169e-05 0.9978648804323481 -0.003855397793478679 0.9978648594299615 -0.0038554067069719047 0.0021730691608538226 -8.88485150885991e-05
1300000000.0 0.002173746442079317 -9.629042908119674e-05 0.9978624557311117 -0.004176611361687672 0.9978624345378209 -0.004176621005089813 0.0021738033400560226 -9.62933401296037e-05
1400000000.0 0.0021745387809927394 -0.00010374479304999857 0.997859838132596 -0.004497808280243073 0.9978598167333542 -0.004497818650473091 0.002174595661440135 -0.00010374792838271271
1500000000.0 0.002175389127204025 -0.00011120966176490875 0.9978570278847804 -0.004818987287533575 0.9978570062645924 -0.004818998381277344 0.00217544598880649 -0.00011121302146007183
1600000000.0 0.002176297334594946 -0.0001186857747523124 0.9978540252536499 -0.0051401471261783615 0.9978540033975768 -0.005140158939889797 0.0021763541760324934 -0.00011868935889325257
1700000000.0 0.002177263247160156 -0.0001261738693125072 0.9978508305231221 -0.005461286543321927 0.9978508084162828 -0.0054612990732238196 0.0021773200671090084 -0.0001261776779875384
1800000000.0 0.002178286699046261 -0.0001336746803748553 0.9978474439949584 -0.005782404290927412 0.9978474216225367 -0.005782417533012556 0.002178343496177619 -0.00013367871367736406
1900000000.0 0.0021793675145904967 -0.00014118894035417147 0.9978438659886841 -0.006103499126068114 0.997843843335929 -0.006103513076100241 0.0021794242875723124 -0.00014119319838215333
2000000000.0 0.0021805055083647922 -0.00014871737900687694 0.9978400968414901 -0.006424569811217437 0.9978400738937216 -0.006424584464732535 0.0021805622558594257 -0.00014872186186317635
2100000000.0 0.0021817004852208275 -0.0001562607232888123 0.9978361369081403 -0.0067456151145369935 0.9978361136507521 -0.006745630466844395 0.0021817572058858564 -0.0001562654310809302
2200000000.0 0.0021829522403352493 -0.00016381969721353574 0.9978319865608628 -0.007066633810162886 0.9978319629793276 -0.007066649856346524 0.002183008932823277 -0.00016382463005337576
2300000000.0 0.002184260559262094 -0.00017139502171142023 0.9978276461892501 -0.007387624678489539 0.9978276222691206 -0.007387641413409462 0.002184317222219355 -0.00017140017971537736
2400000000.0 0.002185625217981286 -0.00017898741449011457 0.9978231162001406 -0.007708586506452455 0.9978230919270553 -0.007708603924745982 0.002185681850049505 -0.0001789927977785394
2500000000.0 0.002187045982956212 -0.00018659758989485932 0.9978183970175043 -0.008029518087807415 0.9978183723771893 -0.008029536183890766 0.0021871025827702576 -0.00018660319859254326
2600000000.0 0.0021885226111878057 -0.00019422625877130883 0.9978134890823203 -0.008350418223408535 0.9978134640605948 -0.008350436991478138 0.002188579177377365 -0.0001942320930066127
2700000000.0 0.002190054850273538 -0.0002018741283282545 0.9978083928524489 -0.008671285721483481 0.9978083674352274 -0.00867130515551765 0.0021901113814611194 -0.00020188018823353817
2800000000.0 0.0021916424384688673 -0.00020954190200172897 0.9978031088025024 -0.00899211939790589 0.9978030829757984 -0.00899213949166665 0.002191698933270276 -0.0002095481877129013
2900000000.0 0.0021932851047497216 -0.00021723027932024776 0.9977976374237052 -0.009312918076466217 0.997797611173634 -0.00931293882350075 0.0021933415617740957 -0.00021723679097678135
3000000000.0 0.00219498256887677 -0.0002249399557714411 0.9977919792237548 -0.009633680589139118 0.9977919525365393 -0.009633701982781358 0.0021950389867263255 -0.00022494669351612922
3100000000.0 0.00219673454146422 -0.00023267162266957621 0.9977861347266787 -0.00995440577634798 0.9977861075886496 -0.009954427809720886 0.0021967909187342104 -0.0002326785866481951
3200000000.0 0.0021985407240487647 -0.00024042596702403285 0.9977801044726786 -0.010275092487227666 0.9977800768702804 -0.010275115153244568 0.0021985970593266374 -0.00024043315738540906
3300000000.0 0.0022004008091603337 -0.000248203671409668 0.9977738890179819 -0.010595739579883107 0.9977738609377742 -0.010595762871249926 0.0022004571010254457 -0.0002482110883054736
3400000000.0 0.002202314480396204 -0.00025600541383827096 0.997767488934678 -0.010916345921646049 0.9977674603633407 -0.010916369830863124 0.002202370727420849 -0.0002560130574225578
3500000000.0 0.0022042814124962327 -0.0002638318676311267 0.9977609048105581 -0.011236910389327967 0.9977608757348931 -0.01123693490869213 0.002204337613244384 -0.00026383973806034324
3600000000.0 0.002206301271421249 -0.00027168370129247515 0.9977541372489466 -0.01155743186946996 0.9977541076558821 -0.011557456991076711 0.0022063574244481866 -0.00027169179872557923
3700000000.0 0.0022083737144317087 -0.0002795615783861639 0.9977471868685283 -0.011877909258590141 0.9977471567451216 -0.011877934974335376 0.00220842981828466 -0.0002795699029836749
3800000000.0 0.0022104983901691405 -0.00028746615741146743 0.9977400543031745 -0.012198341463426863 0.997740023636615 -0.012198367765009389 0.002210554443386349 -0.0002874747093359852
3900000000.0 0.0022126749387402734 -0.0002953980916818228 0.9977327402017613 -0.012518727401178795 0.9977327089793728 -0.01251875428010259 0.0022127309398517923 -0.000295406871097323
4000000000.0 0.00221490299180283 -0.00030335802920452806 0.9977252452279862 -0.0128390659997419 0.9977252134372325 -0.01283909344731826 0.002214958939329013 -0.00030336703627659785
4100000000.0 0.002217182172650964 -0.00031134661256255634 0.9977175700601806 -0.013159356197942784 0.9977175376886656 -0.013159384205292573 0.002217238065102984 -0.00031135584745773016
4200000000.0 0.002219512096305753 -0.0003193644787969055 0.9977097153911167 -0.01347959694576832 0.9977096824265896 -0.013479625503824255 0.0022195679321857565 -0.0003193739416826098
4300000000.0 0.0022218923696055264 -0.00032741225929129554 0.9977016819278125 -0.013799787204591555 0.9977016483581694 -0.01379981630410121 0.0022219481474066946 -0.00032742195033546754
4400000000.0 0.0022243225912994585 -0.0003354905796582207 0.9976934703913328 -0.01411992594739435 0.9976934362046198 -0.014119955578922004 0.0022243783095039983 -0.00033550049902972897
4500000000.0 0.0022268023521403086 -0.0003436000596270006 0.9976850815165859 -0.014440012158985778 0.9976850467010027 -0.014440042312914932 0.002226858009221546 -0.0003436102074944654
4600000000.0 0.002229331234981525 -0.0003517413129330142 0.9976765160521156 -0.014760044836216903 0.9976764805960184 -0.014760075502753201 0.0022293868294023856 -0.0003517516894652683
4700000000.0 0.002231908814875296 -0.00035991494720888877 0.9976677747598937 -0.015080022988191564 0.9976677386517967 -0.0150800541573653 0.0022319643450888433 -0.00035992555257422865
4800000000.0 0.002234534659171315 -0.0003681215638772675 0.9976588584151046 -0.01539994563647354 0.9976588216436827 -0.015399977298142081 0.002234590123620029 -0.0003681323982436874
4900000000.0 0.0022372083276177204 -0.0003763617580457446 0.9976497678059275 -0.01571981181528902 0.9976497303600217 -0.01571984395913962 0.002237263724734403 -0.00037637282158022923
5000000000.0 0.002239929372464995 -0.00038463611840301514 0.9976405037333196 -0.01603962057172522 0.9976404656019361 -0.01603965318727813 0.0022399847006709735 -0.0003846474112716596
5100000000.0 0.002242697338568974 -0.00039294522711697856 0.9976310670107887 -0.01635937096592609 0.9976310281831037 -0.016359404042536475 0.0022427525962748587 -0.000392956749484742
5200000000.0 0.002245511763495758 -0.00040128965973583263 0.9976214584641705 -0.01667906207128122 0.9976214189295317 -0.016679095598143016 0.0022455669491020336 -0.0004013014117658116
5300000000.0 0.002248372177631101 -0.0004096699850881347 0.997611678931395 -0.016998692974614104 0.9976116386793256 -0.016998726940761686 0.0022484272895275 -0.0004096819669414625
5400000000.0 0.002251278104287269 -0.00041808676518847527 0.9976017292622604 -0.01731826277636105 0.9976016882824583 -0.01731829717067354 0.002251333140851726 -0.0004180989770245709
5500000000.0 0.002254229059813375 -0.00042654055514203775 0.9975916103181893 -0.01763777059075252 0.9975915686005338 -0.01763780540195517 0.002254284019413179 -0.0004265529971177558
5600000000.0 0.002257224553707428 -0.0004350319030525854 0.9975813229719981 -0.017957215545983177 0.9975812805065485 -0.017957250762651894 0.002257279434698589 -0.0004350445753218749
5700000000.0 0.002260264088727582 -0.00044356134993204144 0.9975708681076527 -0.018276596784382638 0.9975708248846538 -0.01827663239494526 0.002260318889454685 -0.00044357425264628434
5800000000.0 0.002263347161008152 -0.00045212942961200955 0.9975602466200277 -0.018595913462578585 0.9975602026299083 -0.01859594945531964 0.00226340187980443 -0.00045214256291919
5900000000.0 0.002266473260172465 -0.00046073666865721093 0.9975494594146569 -0.018915164751657172 0.997549414648036 -0.01891520111472 0.0022665278953596718 -0.0004607500327016629
6000000000.0 0.0022696418694512733 -0.0004693835862810095 0.9975385074074887 -0.019234349837318924 0.9975384618551735 -0.01923438655870875 0.0022696964193397143 -0.0004693971812032962
6100000000.0 0.002272852465799253 -0.000478070694262832 0.9975273915246334 -0.01955346792002786 0.9975273451776265 -0.019553504987615156 0.002272906928687681 -0.000478084520199612
6200000000.0 0.002276104520014106 -0.000486798496868088 0.9975161127021132 -0.019872518215159007 0.9975160655516085 -0.019872555616682837 0.0022761588941893553 -0.0004868125539513612
6300000000.0 0.0022793974968571434 -0.0004955674907690938 0.9975046718856038 -0.020191499953139166 0.9975046239229935 -0.020191537676209993 0.0022794517805939675 -0.0004955817791263506
6400000000.0 0.002282730855172047 -0.0005043781649694918 0.9974930700301802 -0.020510412379583384 0.9974930212470545 -0.020510450411686587 0.002282785046734248 -0.0005043926847232112
6500000000.0 0.0022861040480096264 -0.0005132310007293254 0.9974813081000569 -0.020829254755427927 0.997481258488206 -0.020829293083926736 0.002286158145647913 -0.0005132457519967893
6600000000.0 0.0022895165227477835 -0.0005221264714936062 0.9974693870683269 -0.021148026357056576 0.9974693366197432 -0.02114806496919568 0.002289570524702303 -0.000522141454386077
6700000000.0 0.0022929677212186745 -0.0005310650428213 0.997457307916701 -0.021466726476423566 0.9974572566235802 -0.021466765359332337 0.0022930216257167537 -0.0005310802574446034
6800000000.0 0.002296457079830472 -0.0005400471723179756 0.9974450716352412 -0.02178535442117105 0.9974450194899847 -0.021785393561866945 0.0022965108850878575 -0.0005400626187714589
6900000000.0 0.002299984029694644 -0.0005490733095697929 0.9974326792220969 -0.022103909514742923 0.9974326262173127 -0.022103948900134562 0.0023000377339149254 -0.0005490889879466133
7000000000.0 0.002303547996752011 -0.0005581438960804377 0.9974201316832356 -0.02242239109649193 0.9974200778117411 -0.022422430713382516 0.0023036015981268347 -0.0005581598064666614
7100000000.0 0.002307148401899978 -0.0005672593652081687 0.9974074300321782 -0.022740798521782866 0.9974073752869999 -0.022740838356873815 0.002307201898608602 -0.0005672755076825397
7200000000.0 0.0023107846611205994 -0.0005764201421074823 0.9973945752897241 -0.023059131162091656 0.9973945196641008 -0.0230591712019861 0.0023108380513305513 -0.0005764365167418889
7300000000.0 0.00231445618560897 -0.0005856266436718792 0.9973815684836836 -0.023377388405098527 0.9973815119710667 -0.02337742863630405 0.002314509467475787 -0.0005856432505298321
7400000000.0 0.0023181623819031414 -0.0005948792784780006 0.9973684106486047 -0.023695569654776608 0.9973683532426597 -0.023695610063709932 0.0023182155535707207 -0.0005948961176150743
7500000000.0 0.002321902652014369 -0.0006041784467331913 0.9973551028254999 -0.02401367433147513 0.9973550445201078 -0.02401371490446419 0.0023219557116131765 -0.0006041955181971476
7600000000.0 0.0023256763935554465 -0.0006135245402257951 0.9973416460615707 -0.024331701871999525 0.9973415868508299 -0.024331742595287923 0.0023257293392060425 -0.0006135418440547698
7700000000.0 0.0023294829998756613 -0.0006229179422740866 0.9973280414099345 -0.02464965172968387 0.9973279812881606 -0.02464969258943395 0.0023295358296848857 -0.0006229354784978657
7800000000.0 0.0023333218601890096 -0.000632359027682293 0.9973142899293482 -0.02496752337446101 0.9973142288910759 -0.024967564356757725 0.002333374572252059 -0.0006323767963211643
7900000000.0 0.002337192359707771 -0.0006418481626953238 0.9973003926839309 -0.025285316292925478 0.997300330723915 -0.02528535738377973 0.0023372449521086 -0.0006418661637598977
8000000000.0 0.002341093879775264 -0.0006513857049572387 0.9972863507428876 -0.02560302998839387 0.997286287856104 -0.025603071173745995 0.0023411463505856296 -0.0006514039384480067
8100000000.0 0.002345025797998287 -0.0006609720034707585 0.9972721651802314 -0.02592066398095803 0.9972721013618779 -0.025920705246681528 0.002345078145278013 -0.0006609904693782436
8200000000.0 0.002348987488380379 -0.0006706073985604516 0.9972578370745061 -0.026238217807535207 0.9972577723200028 -0.026238259139439474 0.0023490397101774917 -0.0006706260968643316
8300000000.0 0.0023529783214562075 -0.0006802922218367886 0.9972433675085075 -0.026555691021911017 0.9972433018134986 -0.026555732405746747 0.002353030415807057 -0.0006803111525058211
8400000000.0 0.002356997664423784 -0.0006900267961634627 0.9972287575690054 -0.026873083194780784 0.9972286909293596 -0.026873124616241528 0.0023570496293536256 -0.0006900459591550063
8500000000.0 0.0023610448812802745 -0.0006998114356255936 0.9972140083464647 -0.027190393913782696 0.9972139407582743 -0.027190435358510182 0.0023610967148020344 -0.0006998308308858346
8600000000.0 0.0023651193329555396 -0.0007096464455018655 0.9971991209347666 -0.02750762278352848 0.9971990523943516 -0.027507664237114073 0.002365171033070985 -0.0007096660729647253
8700000000.0 0.002369220377446827 -0.0007195321222367409 0.9971840964309323 -0.027824769425626582 0.997184026934837 -0.02782481087361776 0.0023692719421465522 -0.0007195519818241487
8800000000.0 0.002373347369952736 -0.0007294687534171074 0.9971689359348411 -0.028141833478703915 0.9971688654798373 -0.028141874906605944 0.002373398797215544 -0.0007294888450386677
8900000000.0 0.0023774996630088253 -0.0007394566177494878 0.9971536405489566 -0.0284588145984207 0.9971535691320428 -0.028458855991699675 0.0023775509508024897 -0.0007394769413017426
9000000000.0 0.0023816766066212147 -0.0007494959850398193 0.9971382113780441 -0.02877571245747906 0.997138138996447 -0.028775753801567442 0.0023817277529026375 -0.0007495165404059087
9100000000.0 0.0023858775484025003 -0.0007595871161758399 0.9971226495288985 -0.02909252674563066 0.9971225761800718 -0.02909256802592945 0.0023859285511177433 -0.0007596079032259053
9200000000.0 0.0023901018337058244 -0.0007697302631105576 0.997106956110064 -0.0294092571696752 0.997106881791689 -0.029409298371558656 0.002390152690789375 -0.0007697512817008751
9300000000.0 0.00239434880575876 -0.0007799256688500725 0.997091132231559 -0.029725903453458807 0.9970910569415466 -0.029725944562276813 0.002394399515134788 -0.000779946918822765
9400000000.0 0.0023986178057990486 -0.0007901735674409049 0.997075179004601 -0.030042465337862912 0.9970751027410891 -0.030042506338944966 0.0023986683653812644 -0.0007901950486234246
9500000000.0 0.0024029081732084012 -0.0008004741839603162 0.9970590975413309 -0.030358942580791266 0.9970590203026867 -0.030358983459450706 0.0024029585809001715 -0.0008004958961656016
9600000000.0 0.002407219245647119 -0.0008108277345104878 0.9970428889545403 -0.03067533495715236 0.9970428107393587 -0.03067537569868983 0.0024072694993405004 -0.0008108496775369569
9700000000.0 0.0024115503591860443 -0.0008212344262123904 0.9970265543573972 -0.030991642258836015 0.9970264751645027 -0.03099168284854198 0.0024116004567642057 -0.0008212565998426577
9800000000.0 0.0024159008484441005 -0.0008316944572033437 0.9970100948631774 -0.031307864294684816 0.9970100146916204 -0.031307904717845156 0.0024159507877789823 -0.000831716861204562
9900000000.0 0.0024202700467175777 -0.0008422080166354801 0.9969935115849876 -0.031624000890463994 0.9969934304340489 -0.031624041132361745 0.002420319825672004 -0.0008422306507586929
10000000000.0 0.0024246572861161084 -0.0008527752846780833 0.9969768056355015 -0.031940051888823005 0.9969767235046897 -0.03194009193474195 0.002424706902543105 -0.0008527981486580975
10100000000.0 0.0024290618976937437 -0.0008633964325192287 0.9969599781266891 -0.03225601714925412 0.9969598950157386 -0.03225605698448403 0.0024291113494366605 -0.000863419526074654
10200000000.0 0.002433483211583103 -0.0008740716223721618 0.9969430301695494 -0.03257189654804755 0.9969429460784232 -0.03257193615788629 0.0024335324964757004 -0.0008740949452047507
10300000000.0 0.00243792055712476 -0.0008848010074832171 0.9969259628738449 -0.03288768997824143 0.9969258778027333 -0.03288772934799849 0.0024379696729921706 -0.0008848245592772736
10400000000.0 0.002442373263001255 -0.0008955847321397063 0.996908777347838 -0.0332033973495641 0.9969086912971563 -0.03320343646456527 0.0024424222076591946 -0.0008956085125626986
10500000000.0 0.0024468406573667956 -0.00090642293168289 0.996891474698028 -0.03351901858837984 0.9968913876684186 -0.03351905743396945 0.002446889428621951 -0.0009064469403840673
10600000000.0 0.0024513220679772837 -0.0009173157325202436 0.9968740560288908 -0.03383455363762043 0.996873968021221 -0.03383459219916571 0.002451370663628389 -0.0009173399691310398
10700000000.0 0.0024558168223213473 -0.0009282632521416561 0.9968565224426178 -0.03415000245672096 0.9968564334579799 -0.03415004071961556 0.002455865240158231 -0.0009282877162755043
10800000000.0 0.002460324247749097 -0.0009392655991362884 0.9968388750388606 -0.034465365021546665 0.9968387850785707 -0.03446540297121237 0.0024603724855537454 -0.0009392902903878121
