#   Hz   S  RI   R   50
!
0.0 0.002458919981856984 0.0 0.9976148040633496 0.0 0.9976233734767156 0.0 0.0024501633032716196 0.0
100000000.0 0.0024589581316383576 -6.683163170640331e-06 0.9976146780768987 -0.00036757194116797675 0.9976232456856439 -0.0003677469579421526 0.002450202797116736 -6.531317698163934e-06
200000000.0 0.002459072573725368 -1.3367359552407822e-05 0.9976143001308512 -0.000735142124657724 0.997622862326518 -0.0007354920834023712 0.0024503212709345106 -1.306371756489454e-05
300000000.0 0.0024592632863488996 -2.0053622129799424e-05 0.9976136702651164 -0.0011027087932524069 0.9976222234416026 -0.0011032335443938114 0.0024505187015752623 -1.9598281524102903e-05
400000000.0 0.0024595302332341197 -2.6742983434138082e-05 0.9976127885461972 -0.0014702701906578282 0.9976213291013252 -0.001470969509919571 0.002450795050462406 -2.6136091010485706e-05
500000000.0 0.0024598733636092404 -3.34364753171863e-05 0.9976116550671656 -0.0018378245619633357 0.9976201794042492 -0.0018386981504672237 0.002451150263604608 -3.267822672512175e-05
600000000.0 0.002460292612220713 -4.013512872489516e-05 0.9976102699476374 -0.0022053701541021146 0.997618774477045 -0.002206417638502736 0.0024515842716096355 -3.922576839131383e-05
700000000.0 0.0024607878993483526 -4.683997347162296e-05 0.9976086333337277 -0.0025729052163110003 0.9976171144744457 -0.002574126148963678 0.0024520969897043514 -4.577979451072501e-05
800000000.0 0.0024613591308301343 -5.355203801456397e-05 0.9976067453980102 -0.0029404280005891365 0.9976151995791972 -0.002941821859751459 0.002452688317757173 -5.23413821200866e-05
900000000.0 0.00246200619808501 -6.0272349228654657e-05 0.9976046063394572 -0.003307936762155907 0.9976130300019981 -0.0033095029522223827 0.0024533581403081 -5.8911606548064595e-05
1000000000.0 0.0024627289781425274 -6.700193218212911e-05 0.9976022163833766 -0.0036754297599075527 0.997610605981429 -0.0036771676116775114 0.00245410632659699 -6.549154117322178e-05
1100000000.0 0.0024635273336770557 -7.374180991246671e-05 0.9975995757813413 -0.004042905256872256 0.997607927783875 -0.004044814027850873 0.002454932730603779 -7.208225718198841e-05
1200000000.0 0.002464401113043496 -8.049300320310086e-05 0.9975966848111055 -0.004410361520663927 0.9976049957034376 -0.004412440395396098 0.0024558371910869403 -7.868482332796239e-05
1300000000.0 0.002465350150319077 -8.725653036094061e-05 0.9975935437765198 -0.004777796823934132 0.9976018100618377 -0.004780044914371085 0.0024568195316274906 -8.530030569163649e-05
1400000000.0 0.0024663742653469696 -9.403340699460265e-05 0.9975901530074285 -0.005145209444822287 0.9975983712083082 -0.005147625790720781 0.0024578795606794764 -9.19297674413386e-05
1500000000.0 0.002467473263785762 -0.00010082464579349775 0.9975865128595678 -0.005512597667403732 0.997594679519483 -0.005515181236757339 0.0024590170716218243 -9.857426859467896e-05
1600000000.0 0.0024686469371605264 -0.00010763125630795794 0.99758262371445 -0.0058799597821354 0.9975907353992682 -0.005882709471638248 0.002460231842816247 -0.00010523486578175098
1700000000.0 0.002469895062919893 -0.00011445424473039762 0.9975784859792416 -0.006247294086299569 0.9975865392787114 -0.006250208721841925 0.002461523637666896 -0.00011191261200873721
1800000000.0 0.0024712174044950012 -0.00012129461367744066 0.997574100086633 -0.006614598884444776 0.9975820916158628 -0.006617677221639852 0.002462892204688468 -0.00011860855642322045
1900000000.0 0.002472613711362787 -0.00012815336197340935 0.9975694664946999 -0.006981872488823791 0.9975773928956184 -0.0069851132135665215 0.0024643372775726945 -0.0001253237440805907
2000000000.0 0.0024740837191138034 -0.00013503148443489083 0.9975645856867568 -0.007349113219829487 0.9975724436295681 -0.007352514948885736 0.002465858575263725 -0.00013205921571193818
2100000000.0 0.002475627149522317 -0.00014192997165650173 0.9975594581712018 -0.007716319406427021 0.9975672443558202 -0.007719880688054221 0.002467455802034681 -0.00013881600749315117
2200000000.0 0.0024772437106212204 -0.00014884980979847055 0.9975540844813562 -0.008083489386583044 0.9975617956388334 -0.00808720870118055 0.0024691286475695532 -0.0001455951508159243
2300000000.0 0.0024789330967796386 -0.00015579198037516897 0.9975484651752929 -0.00845062150769138 0.9975560980692241 -0.008454497268482054 0.0024708767870470945 -0.0001523976720600367
2400000000.0 0.0024806949887843256 -0.0001627574600454494 0.9975426008356584 -0.00881771412699621 0.997550152263578 -0.008821744680736291 0.0024726998812323936 -0.00015922459236744453
2500000000.0 0.0024825290539253917 -0.00016974722040433003 0.9975364920694854 -0.009184765612010192 0.9975439588642476 -0.009188949239729656 0.002474597576568853 -0.00016607692741772367
2600000000.0 0.002484434946085081 -0.00017676222777649866 0.9975301395080052 -0.009551774340929454 0.9975375185391403 -0.009556109258701411 0.0024765695052742756 -0.0001729556872064094
2700000000.0 0.0024864123058285677 -0.0001838034430115779 0.9975235438064401 -0.009918738703045334 0.9975308319815023 -0.009923223062783482 0.002478615285442855 -0.00017986187582389333
2800000000.0 0.002488460760500853 -0.00019087182128083502 0.9975167056438001 -0.010285657099150377 0.9975238999096939 -0.010290288989435336 0.002480734521149279 -0.00018679649123695742
2900000000.0 0.0024905799243253035 -0.00019796831187617 0.9975096257226655 -0.01065252794194237 0.9975167230669512 -0.010657305388875288 0.0024829268025566894 -0.0001937605250726593
3000000000.0 0.0024927693985055542 -0.00020509385801047305 0.9975023047689633 -0.01101934965642159 0.9975093022211478 -0.011024270624505658 0.002485191706028709 -0.00020075496240340085
3100000000.0 0.002495028771331873 -0.00021224939662049116 0.9974947435317387 -0.011386120680285616 0.9975016381645438 -0.0113911830733342 0.0024875287942451134 -0.00020778078153499226
3200000000.0 0.0024973576182889985 -0.00021943585817133359 0.9974869427829179 -0.011752839464317988 0.9974937317135306 -0.011758041126389215 0.002489937616321012 -0.00021483895379653952
3300000000.0 0.002499755502169635 -0.000226654166462926 0.9974789033170648 -0.012119504472773074 0.997485583708362 -0.012124843189131053 0.0024924177079278073 -0.00022193044333279852
3400000000.0 0.0025022219731887178 -0.00023390523843932345 0.9974706259511266 -0.01248611418375566 0.9974771950128853 -0.012491587681856653 0.002494968591422254 -0.00022905620689848464
3500000000.0 0.002504756569102961 -0.00024118998399886348 0.9974621115241805 -0.01285266708959525 0.9974685665142627 -0.012858273040098601 0.002497589775973694 -0.00023621719365573716
3600000000.0 0.0025073588153303986 -0.00024850930580847577 0.997453360897169 -0.013219161697215787 0.9974596991226811 -0.013224897715020448 0.0025002807576972063 -0.00024341434497328243
3700000000.0 0.002510028225078084 -0.00025586409911844757 0.9974443749526261 -0.013585596528499217 0.9974505937710606 -0.013591460173803867 0.0025030410197901896 -0.0002506485942293634
3800000000.0 0.0025127642994672386 -0.0002632552515805072 0.9974351545944031 -0.013951970120645191 0.997441251414755 -0.013957958900031106 0.0025058700326724102 -0.00025792086661479856
3900000000.0 0.002515566527664784 -0.0002706836430681206 0.9974257007473846 -0.014318281026522831 0.9974316730312414 -0.014324392394060893 0.0025087672541275583 -0.00026523207894179083
4000000000.0 0.0025184343870174345 -0.0002781501454994455 0.9974160143571974 -0.014684527815019279 0.9974218596198096 -0.014690759173398788 0.0025117321294495336 -0.00027258313945379147
4100000000.0 0.0025213673431871324 -0.00028565562266222154 0.9974060963899172 -0.015050709071381133 0.9974118122012383 -0.015057057773060205 0.002514764091591732 -0.0002799749476375635
4200000000.0 0.0025243648502903614 -0.0002932009300421174 0.9973959478317649 -0.01541682339754993 0.997401531817471 -0.015423286745927956 0.0025178625613187402 -0.00028740839403963736
4300000000.0 0.0025274263510415155 -0.0003007869146522281 0.9973855696888003 -0.015782869412492257 0.9973910195312807 -0.01578944466310254 0.002521026947361024 -0.0002948843600845961
4400000000.0 0.002530551276895169 -0.00030841441486747405 0.9973749629866087 -0.01614884575252373 0.9973802764259312 -0.016155530114246475 0.0025242566465741366 -0.0003024037178962953
4500000000.0 0.00253373904819617 -0.0003160842602590221 0.9973641287699824 -0.01651475107162593 0.9973693036048339 -0.016521541707920515 0.002527551044097333 -0.0003099673301228323
4600000000.0 0.002536989074327259 -0.00032379727143390467 0.9973530681025956 -0.016880584041758396 0.9973581021911924 -0.016887478071914593 0.0025309095135190333 -0.00031757604976384216
4700000000.0 0.002540300753862085 -0.00033155425987573683 0.9973417820666778 -0.017246343353162604 0.9973466733276503 -0.017253337853570423 0.002534331417042992 -0.00032523072000076753
4800000000.0 0.0025436734747220848 -0.00033935602778902783 0.9973302717626755 -0.01761202771466087 0.9973350181759247 -0.01761911972009814 0.002537816105655498 -0.0003329321740313637
4900000000.0 0.002547106614329444 -0.0003472033679463348 0.9973185383089156 -0.017977635853948203 0.9973231379164431 -0.017984822358884333 0.002541362919299805 -0.00034068123490563006
5000000000.0 0.0025505995397729847 -0.00035509706353753777 0.9973065828412602 -0.018343166517876885 0.9973110337479667 -0.018350444477794402 0.002544971187047026 -0.0003484787153667897
5100000000.0 0.002554151607964559 -0.000363037888023473 0.9972944065127561 -0.018708618472734882 0.9972987068872141 -0.018715984805465716 0.0025486402272765826 -0.00035632541769382614
5200000000.0 0.0025577621658055853 -0.0003710266049920793 0.9972820104932835 -0.01907399050451804 0.9972861585684788 -0.01908144209159504 0.002552369347851715 -0.00036422213354891627
5300000000.0 0.002561430550354633 -0.00037906396801568 0.9972693959691957 -0.01943928141919374 0.9972733900432411 -0.019446815107217415 0.0025561578463032127 -0.0003721696438269703
5400000000.0 0.0025651560889942485 -0.00038715072051500866 0.9972565641429565 -0.019804490042958867 0.9972604025797753 -0.019812102644976914 0.0025600050100111505 -0.00038016871850917627
5500000000.0 0.0025689380996021857 -0.00039528759562249227 0.997243516232777 -0.02016961522249002 0.9972471974627556 -0.02017730351939115 0.00256391011639419 -0.00038822011651921164
5600000000.0 0.0025727758907243955 -0.0004034753160513299 0.9972302534722394 -0.02053465582518724 0.9972337759928516 -0.020542416567106377 0.0025678724330930208 -0.00039632458558477764
5700000000.0 0.0025766687617487898 -0.00041171459396678134 0.9972167771099271 -0.020899610739410567 0.9972201394863254 -0.020907440647146523 0.00257189121816443 -0.0004044828620996366
5800000000.0 0.002580616003083273 -0.0004200061308602503 0.9972030884090444 -0.021264478874707442 0.9972062892746241 -0.021272374641151826 0.0025759657202708537 -0.0004126956709924282
5900000000.0 0.0025846168963315416 -0.0004283506174272971 0.9971891886470339 -0.021629259162035994 0.9971922267039643 -0.02163721745361205 0.002580095178876215 -0.00042096372559622194
6000000000.0 0.002588670714475703 -0.0004367487334482653 0.9971750791151937 -0.02199395055397761 0.9971779531349177 -0.022001968012089524 0.002584278824440391 -0.00042928772752295414
6100000000.0 0.0025927767220566373 -0.0004452011476729711 0.997160761118286 -0.022358552024945546 0.9971634699419909 -0.022366625267435894 0.0025885158786186097 -0.00043766836654206856
6200000000.0 0.00259693417535693 -0.0004537085177075202 0.9971462359741473 -0.022723062571382232 0.9971487785132018 -0.022731188193999136 0.002592805554458336 -0.00044610632046133313
6300000000.0 0.002601142322587135 -0.0004622714899058639 0.997131505013293 -0.023087481211952803 0.997133880249655 -0.023095655789822964 0.0025971470566037613 -0.0004546022550121442
6400000000.0 0.002605400404071318 -0.000470890699262813 0.9971165695785209 -0.023451806987727607 0.9971187765651113 -0.023460027076838835 0.0026015395814943183 -0.00046315682373888797
6500000000.0 0.002609707652434323 -0.00047956676931278265 0.9971014310245093 -0.023816038962360325 0.9971034688855566 -0.023824301101047805 0.002605982317573681 -0.000471770667890117
6600000000.0 0.002614063292792246 -0.0004883003120296015 0.9970860907174168 -0.02418017622225519 0.9970879586487688 -0.02418847693269604 0.0026104744454907612 -0.0004804444163159713
6700000000.0 0.0026184665429417205 -0.0004970919277313429 0.9970705500344742 -0.024544217876730404 0.9970722473038779 -0.024552553666439866 0.0026150151383099434 -0.0004891786853678062
6800000000.0 0.002622916613552725 -0.0005059422049868469 0.997054810363582 -0.02490816305816907 0.9970563363109294 -0.024916530421505125 0.0026196035617167763 -0.0004979740788016364
6900000000.0 0.002627412708360221 -0.0005148517205286113 0.997038873102895 -0.02527201092216785 0.9970402271404443 -0.025280406341834795 0.002624238874230366 -0.0005068311876852133
7000000000.0 0.002631954024359203 -0.0005238210391656253 0.9970227396604162 -0.025635760647672763 0.9970239212729717 -0.025644180596230567 0.0026289202274105456 -0.0005157505903100813
7100000000.0 0.002636539751998887 -0.0005328507137012379 0.9970064114535826 -0.025999411437109814 0.9970074201986484 -0.026007852378486577 0.0026336467660724723 -0.0005247328521057543
7200000000.0 0.0026411690753799007 -0.0005419412848552777 0.9969898899088507 -0.02636296251650859 0.9969907254167512 -0.026371420907511173 0.002638417628497943 -0.0005337785255584754
7300000000.0 0.002645841172449054 -0.0005510932811885065 0.9969731764612798 -0.026726413135615947 0.9969738384352477 -0.026734885427444212 0.0026432319466485506 -0.0005428881501336917
7400000000.0 0.00265055521519915 -0.0005603072190306422 0.9969562725541155 -0.027089762568003134 0.9969567607703492 -0.0270982452077625 0.002648088846381164 -0.0005520622522031129
7500000000.0 0.0026553103698662246 -0.0005695836024121835 0.9969391796383729 -0.027453010111165334 0.9969394939460603 -0.027461499543379144 0.0026529874476623363 -0.0005613013449736407
7600000000.0 0.0026601057971296343 -0.0005789229229990581 0.9969218991724151 -0.02781615508661152 0.9969220394937263 -0.027824647754734085 0.0026579268647845935 -0.0005706059284218393
7700000000.0 0.0026649406523106206 -0.000588325660032214 0.9969044326215347 -0.028179196839950002 0.9969043989515853 -0.028187689187873934 0.0026629062065827505 -0.0005799764892316681
7800000000.0 0.002669814085574221 -0.0005977922802687909 0.9968867814575333 -0.028542134740961473 0.9968865738643107 -0.02855062321452657 0.002667924576651035 -0.0005894135007358971
7900000000.0 0.0026747252421291624 -0.0006073232379280708 0.9968689471582998 -0.02890496818366883 0.996868565782564 -0.028913449232164157 0.0026729810735610796 -0.0005989174228613027
8000000000.0 0.00267967326242924 -0.0006169189746403869 0.996850931207388 -0.02926769658639656 0.9968503762625384 -0.029276166664060833 0.0026780747910788603 -0.0006084887020780033
8100000000.0 0.0026846572823756806 -0.0006265799193998113 0.9968327350935979 -0.02963031939182232 0.9968320068655071 -0.029638774959338084 0.0026832048183845054 -0.000618127771351641
8200000000.0 0.0026896764335188257 -0.0006363064885197482 0.9968143603105513 -0.029992836067021873 0.9968134591573703 -0.030001273593006476 0.00268837024028966 -0.0006278350501012666
8300000000.0 0.0026947298432607424 -0.0006460990855929193 0.9967958083562704 -0.030355246103505873 0.9967947347082038 -0.030363662065994466 0.0026935701374568434 -0.0006376109441592775
8400000000.0 0.002699816635056987 -0.0006559581014534726 0.9967770807327585 -0.030717549017248637 0.996775835091805 -0.03072593990517078 0.0026988035866183737 -0.0006474558457348636
8500000000.0 0.0027049359286198077 -0.0006658839141443493 0.9967581789455765 -0.031079744348709325 0.9967567618852431 -0.03108810666335951 0.0027040696607953203 -0.0006573701333835743
8600000000.0 0.0027100868401210886 -0.0006758768888858361 0.9967391045034233 -0.03144183166284504 0.9967375166684074 -0.03145016191934534 0.002709367429516596 -0.0006673541719777525
8700000000.0 0.0027152684823953804 -0.0006859373780495751 0.9967198589177192 -0.03180381054911774 0.9967181010235582 -0.03181210527787087 0.002714695959037926 -0.0006774083126826579
8800000000.0 0.002720479965140437 -0.0006960657211354163 0.9967004437021809 -0.03216568062149164 0.9966985165348773 -0.03217393636962496 0.0027200543125597528 -0.0006875328929363646
8900000000.0 0.0027257203951226235 -0.0007062622447506812 0.996680860372408 -0.03252744151842417 0.996678764788021 -0.03253565485122536 0.0027254415504481336 -0.0006977282364311911
9000000000.0 0.00273098887637725 -0.0007165272625937752 0.9966611104454666 -0.03288909290284958 0.9966588473696744 -0.032897260405190185 0.0027308567304501013 -0.0007079946531018008
9100000000.0 0.002736284510411924 -0.0007268610754419398 0.9966411954394712 -0.03325063446215332 0.9966387658671061 -0.03325875273990289 0.0027362989079138876 -0.0007183324391152941
9200000000.0 0.0027416063964074778 -0.0007372639711396174 0.9966211168731713 -0.033612065908142454 0.9966185218677245 -0.033620131589570015 0.0027417671360059057 -0.0007287418768644289
9300000000.0 0.00274695363141947 -0.0007477362245942174 0.9966008762655408 -0.033973386977004014 0.9965981169586395 -0.03398139671416787 0.0027472604659266263 -0.0007392232349664388
9400000000.0 0.0027523253105802034 -0.0007582780977711769 0.9965804751353635 -0.034334597429260164 0.9965775527262204 -0.03434254789938565 0.002752777947129002 -0.0007497767682640631
9500000000.0 0.0027577205272984605 -0.0007688898396945946 0.9965599150008285 -0.034695697049713425 0.9965568307556605 -0.03470358495655559 0.002758318627533899 -0.0007604027178293893
9600000000.0 0.002763138373458999 -0.0007795716864512119 0.9965391973791191 -0.035056685647386066 0.9965359526305424 -0.03506450772258083 0.0027638815537438847 -0.0007711013109745693
9700000000.0 0.002768577939623813 -0.0007903238611971183 0.9965183237860087 -0.03541756305545196 0.9965149199324048 -0.03542531605985081 0.002769465771259895 -0.0007818727612614014
9800000000.0 0.002774038315229 -0.0008011465741667932 0.9964972957354602 -0.03577832913116085 0.9964937342403151 -0.03578600985615188 0.002775070324693727 -0.0007927172685189464
9900000000.0 0.0027795185887842075 -0.0008120400226879108 0.9964761147392226 -0.036138983755754986 0.9964723971304389 -0.03614658902456806 0.002780694257982095 -0.0008036350188614328
10000000000.0 0.0027850178480686547 -0.0008230043911962657 0.9964547823064339 -0.03649952683438301 0.9964509101756186 -0.03650705350337809 0.002786336614597202 -0.0008146261847113923
10100000000.0 0.0027905351803293615 -0.0008340398512560165 0.9964332999432267 -0.03685995829599728 0.9964292749449515 -0.03686740325593925 0.0027919964377585145 -0.0008256909248257321
10200000000.0 0.002796069672475516 -0.0008451465615833016 0.9964116691523335 -0.037220278093258 0.9964074930033716 -0.03722763827056975 0.0027976727706435383 -0.0008368293843248675
10300000000.0 0.002801620411273484 -0.0008563246680702679 0.9963898914326977 -0.03758048620241758 0.9963855659112342 -0.03758775856041995 0.002803364656595214 -0.0008480416947263725
10400000000.0 0.002807186483540954 -0.0008675743038156304 0.9963679682790875 -0.03794058262320658 0.9963634952239054 -0.03794776416333772 0.0028090711393311697 -0.0008593279739789498
10500000000.0 0.0028127669763396987 -0.0008788955891566522 0.9963459011817095 -0.03830056737870919 0.9963412824913533 -0.03830765514172642 0.002814791263150317 -0.0008706883265057309
10600000000.0 0.002818360977166119 -0.0008902886317032409 0.9963236916258312 -0.038660440515233326 0.9963189292577445 -0.0386674315823955 0.002820524073136613 -0.0008821228432440648
10700000000.0 0.0028239675741435545 -0.000901753526377953 0.9963013410914003 -0.03902020210217513 0.9962964370610421 -0.03902709359640652 0.0028262686153650656 -0.0008936316016923293
10800000000.0 0.0028295858562105594 -0.0009132903554544143 0.9962788510526727 -0.03937985223187456 0.9962738074326097 -0.03938664131890781 0.00283202393710336 -0.0009052146659599644
