#   Hz   S  RI   R   50
!
0.0 0.0005686611393349031 0.0 0.9994118889990606 0.0 0.9994101504355504 0.0 0.0005703700873261386 0.0
100000000.0 0.0005686620113933516 -1.672475728701885e-05 0.9994118820456509 -8.378538465368295e-05 0.9994101436478408 -8.375972987520603e-05 0.0005703708779704119 -1.674094396788313e-05
200000000.0 0.0005686646274036285 -3.3449542841869225e-05 0.9994118611857618 -0.0001675706862244314 0.9994101232850208 -0.00016751938108672653 0.0005703732497471895 -3.348191448618639e-05
300000000.0 0.000568668986868519 -5.017438492958865e-05 0.9994118264204112 -0.0002513558216396602 0.9994100893480212 -0.00025127887498034313 0.0005703772021895727 -5.022293810276472e-05
400000000.0 0.0005686750889600896 -6.689931180966593e-05 0.9994117777512983 -0.0003351407078474849 0.9994100418383888 -0.00033503813292090406 0.0005703827345172424 -6.696404136042618e-05
500000000.0 0.000568682932518908 -8.362435173323093e-05 0.9994117151807986 -0.0004189252618270902 0.9994099807582911 -0.00041879707630171017 0.0005703898456395781 -8.370525079431565e-05
600000000.0 0.0005686925160558969 -0.00010034953294024078 0.9994116387119687 -0.0005027094005990351 0.9994099061105147 -0.0005025556265540421 0.0005703985341545792 -0.00010044659292938163
700000000.0 0.0005687038377491623 -0.00011707488365683271 0.9994115483485411 -0.0005864930412355596 0.9994098178984627 -0.0005863137051567382 0.0005704087983484346 -0.00011718809427787757
800000000.0 0.0005687168954480864 -0.00013380043209236344 0.9994114440949253 -0.0006702761008710933 0.999409716126157 -0.0006700712336454992 0.0005704206361961373 -0.0001339297813367972
900000000.0 0.0005687316866713934 -0.00015052620643675794 0.9994113259562094 -0.0007540584967122275 0.9994096007982363 -0.000753828133622523 0.0005704340453627453 -0.0001506716805853269
1000000000.0 0.0005687482086076507 -0.00016725223485775946 0.9994111939381554 -0.000837840146048336 0.9994094719199551 -0.0008375843267657574 0.0005704490232020682 -0.00016741381848238356
1100000000.0 0.0005687664581163782 -0.0001839785454979741 0.9994110480471999 -0.0009216209662617367 0.9994093294971838 -0.0009213397348386558 0.000570465566757805 -0.00018415622146393076
1200000000.0 0.0005687864317267861 -0.0002007051664724251 0.9994108882904548 -0.0010054008748378138 0.9994091735364055 -0.0010050942796992247 0.0005704836727641358 -0.00020089891594057957
1300000000.0 0.0005688081256413345 -0.00021743212586544005 0.9994107146757032 -0.0010891797893754415 0.9994090040447193 -0.0010888478833097177 0.0005705033376463584 -0.00021764192829504145
1400000000.0 0.0005688315357333041 -0.00023415945172817462 0.9994105272113987 -0.0011729576275973633 0.9994088210298343 -0.0011726004677457622 0.0005705245575195552 -0.0002343852848796699
1500000000.0 0.000568856657547193 -0.00025088717207581593 0.999410325906666 -0.0012567343073598767 0.9994086245000716 -0.0012563519552060986 0.000570547328191741 -0.00025112901201379003
1600000000.0 0.0005688834863033721 -0.0002676153148846189 0.9994101107712977 -0.0013405097466633485 0.9994084144643613 -0.001340102268021409 0.0005705716451618389 -0.00026787313598137933
1700000000.0 0.0005689120168927127 -0.0002843439080895203 0.9994098818157517 -0.0014242838636624633 0.9994081909322415 -0.0014238513286641485 0.0005705975036233344 -0.00028461768302830983
1800000000.0 0.0005689422438823145 -0.00030107297958114997 0.9994096390511527 -0.0015080565766760852 0.9994079539138566 -0.0015075990597574504 0.0005706248984605693 -0.0003013626793602693
1900000000.0 0.000568974161513614 -0.0003178025572031822 0.9994093824892862 -0.0015918278041974871 0.9994077034199572 -0.0015913453840846095 0.0005706538242541096 -0.0003181081511397547
2000000000.0 0.0005690077637039678 -0.0003345326687496486 0.9994091121426006 -0.0016755974649041777 0.9994074394618947 -0.0016750902245981217 0.0005706842752777896 -0.0003348541244841231
2100000000.0 0.0005690430440466665 -0.00035126334196229294 0.9994088280242018 -0.0017593654776682985 0.9994071620516248 -0.0017588335044289223 0.0005707162455015853 -0.00035160062546264276
2200000000.0 0.0005690799958128037 -0.0003679946045278203 0.9994085301478528 -0.00184313176156642 0.9994068712016998 -0.0018425751468960862 0.0005707497285914172 -0.00036834768009440846
2300000000.0 0.000569118611951968 -0.00038472648407506075 0.9994082185279719 -0.0019268962358890184 0.9994065669252709 -0.0019263150755146642 0.0005707847179099619 -0.0003850953143455719
2400000000.0 0.0005691588850920318 -0.00040145900817259103 0.9994078931796276 -0.0020106588201513095 0.999406249236083 -0.0020100532140063768 0.0005708212065174376 -0.00040184355412734723
2500000000.0 0.0005692008075413751 -0.00041819220432588776 0.999407554118539 -0.0020944194341021537 0.9994059181484757 -0.0020937894863072987 0.0005708591871741422 -0.00041859242529283493
2600000000.0 0.0005692443712901715 -0.0004349260999746027 0.9994072013610729 -0.0021781779977344184 0.9994055736773774 -0.002177523816577843 0.0005708986523392304 -0.00043534195363536957
2700000000.0 0.0005692895680085814 -0.0004516607224904599 0.9994068349242382 -0.0022619344312947848 0.9994052158383057 -0.0022612561292109736 0.0005709395941712597 -0.00045209216488580756
2800000000.0 0.0005693363890524946 -0.00046839609917351173 0.9994064548256864 -0.002345688655293004 0.999404844647364 -0.0023449863488416637 0.0005709820045326874 -0.00046884308470976826
2900000000.0 0.0005693848254609553 -0.00048513225725066824 0.9994060610837078 -0.002429440590511699 0.9994044601212381 -0.0024287144003557483 0.0005710258749863081 -0.0004855947387060134
3000000000.0 0.000569434867957508 -0.0005018692238727407 0.9994056537172263 -0.002513190158016606 0.9994040622771944 -0.002512440208898135 0.0005710711968004858 -0.0005023471524031621
3100000000.0 0.0005694865069538445 -0.0005186070261113654 0.9994052327458005 -0.0025969372791650115 0.9994036511330763 -0.002596163699882501 0.0005711179609468347 -0.0005191003512581004
3200000000.0 0.0005695397325494398 -0.0005353456909569441 0.9994047981896146 -0.002680681875616252 0.9994032267073029 -0.002679884798999235 0.0005711661581045092 -0.0005358543606529948
3300000000.0 0.0005695945345316404 -0.0005520852453162314 0.9994043500694818 -0.002764423869340556 0.9994027890188646 -0.0027636034322247646 0.0005712157786587237 -0.0005526092058935888
3400000000.0 0.0005696509023795514 -0.00056882571600899 0.9994038884068355 -0.002848163182628343 0.9994023380873195 -0.0028473195258294725 0.0005712668127026331 -0.0005693649122062218
3500000000.0 0.0005697088252632745 -0.0005855671297664133 0.9994034132237279 -0.002931899738100282 0.9994018739327921 -0.0029310330063870714 0.0005713192500400047 -0.0005861215047360993
3600000000.0 0.000569768292047037 -0.0006023095132279384 0.9994029245428268 -0.0030156334587159326 0.9994013965759696 -0.0030147438007820803 0.0005713730801851308 -0.000602879008544371
3700000000.0 0.0005698292912885433 -0.000619052892939044 0.9994024223874101 -0.003099364267782665 0.9994009060380962 -0.003098451836219786 0.0005714282923645767 -0.0006196374486064447
3800000000.0 0.000569891811242086 -0.0006357972953487228 0.9994019067813652 -0.0031830920889654043 0.9994004023409735 -0.0031821570402329065 0.0005714848755180534 -0.0006363968498092975
3900000000.0 0.0005699558398607028 -0.0006525427468066678 0.9994013777491808 -0.003266816846295432 0.9993998855069531 -0.003265859340691418 0.0005715428183008039 -0.0006531572369493478
4000000000.0 0.0005700213647944394 -0.0006692892735616681 0.9994008353159448 -0.0033505384641796653 0.9993993555589383 -0.003349558665809399 0.0005716021090839 -0.0006699186347303242
4100000000.0 0.00057008837339591 -0.0006860369017579979 0.9994002795073424 -0.0034342568674088016 0.9993988125203731 -0.003433254944155077 0.0005716627359568404 -0.000686681067760569
4200000000.0 0.0005701568527185962 -0.0007027856574343623 0.9993997103496484 -0.0035179719811668153 0.9993982564152445 -0.0035169481046568108 0.000571724686727424 -0.0007034445605519127
4300000000.0 0.0005702267895212397 -0.000719535566520078 0.9993991278697244 -0.003601683731039641 0.9993976872680769 -0.0036006380766128946 0.0005717879489256691 -0.0007202091375158054
4400000000.0 0.0005702981702676398 -0.0007362866548336645 0.9993985320950151 -0.0036853920430235565 0.9993971051039267 -0.003684324789698568 0.0005718525098031812 -0.0007369748229627303
4500000000.0 0.000570370981128836 -0.0007530389480803045 0.999397923053542 -0.003769096843534462 0.9993965099483813 -0.0037680081739747983 0.0005719183563355715 -0.0007537416410989883
4600000000.0 0.0005704452079852867 -0.0007697924718493467 0.9993973007739013 -0.003852798059415045 0.9993959018275504 -0.0038516881598953394 0.0005719854752239094 -0.0007705096160252949
4700000000.0 0.0005705208364283456 -0.0007865472516115696 0.9993966652852551 -0.0039364956179450475 0.9993952807680674 -0.0039353646783144925 0.0005720538528978363 -0.0007872787717337804
4800000000.0 0.0005705978517620408 -0.0008033033127182172 0.9993960166173325 -0.004020189446848205 0.9993946467970806 -0.004019037660495873 0.0005721234755138786 -0.0008040491321070662
4900000000.0 0.0005706762390047989 -0.0008200606803968932 0.9993953548004191 -0.004103879474301246 0.999393999942252 -0.004102707038118783 0.0005721943289611698 -0.0008208207209147511
5000000000.0 0.0005707559828918614 -0.0008368193797512001 0.9993946798653558 -0.004187565628941589 0.9993933402317499 -0.0041863727432866205 0.0005722663988598971 -0.0008375935618126725
5100000000.0 0.0005708370678773521 -0.0008535794357562822 0.9993939918435326 -0.004271247839875983 0.9993926676942484 -0.00427003470853368 0.0005723396705653319 -0.0008543676783397146
5200000000.0 0.0005709194781342982 -0.0008703408732592131 0.9993932907668818 -0.00435492603668874 0.9993919823589186 -0.0043536928668335894 0.0005724141291684093 -0.0008711430939168165
5300000000.0 0.0005710031975592709 -0.000887103716974506 0.999392576667877 -0.0044386001494479445 0.9993912842554264 -0.004437347151605645 0.0005724897594980725 -0.0008879198318440169
5400000000.0 0.0005710882097729502 -0.0009038679914831674 0.9993918495795228 -0.004522270108715853 0.9993905734139285 -0.004520997496722168 0.0005725665461229504 -0.0009046979152991225
5500000000.0 0.0005711744981227723 -0.0009206337212301364 0.9993911095353538 -0.0046059358455546795 0.9993898498650652 -0.004604643836516439 0.0005726444733530324 -0.0009214773673354355
5600000000.0 0.0005712620456836459 -0.0009374009305226468 0.9993903565694255 -0.004689597291535306 0.9993891136399581 -0.00468828610578884 0.0005727235252423895 -0.000938258210879794
5700000000.0 0.0005713508352623904 -0.0009541696435268962 0.9993895907163124 -0.004773254378744282 0.9993883647702024 -0.004771924239814347 0.0005728036855907134 -0.0009550404687305407
5800000000.0 0.0005714408493972906 -0.0009709398842679589 0.9993888120110993 -0.004856907039791404 0.9993876032878656 -0.004855558174349821 0.0005728849379443531 -0.0009718241635561205
5900000000.0 0.0005715320703631164 -0.000987711676625115 0.9993880204893779 -0.004940555207817314 0.9993868292254784 -0.004939187845639697 0.0005729672655999427 -0.0009886093178922749
6000000000.0 0.0005716244801698432 -0.001004485044332874 0.999387216187239 -0.005024198816500944 0.999386042616034 -0.005022813190423569 0.0005730506516051602 -0.0010053959541414428
6100000000.0 0.0005717180605687044 -0.0010212600109755735 0.9993863991412698 -0.0051078378000657555 0.9993852434929782 -0.005106434145942812 0.0005731350787618358 -0.0010221840945694753
6200000000.0 0.0005718127930508758 -0.0010380365999886406 0.9993855693885441 -0.005191472093287702 0.9993844318902075 -0.005190050649947171 0.0005732205296271386 -0.0010389737613047576
6300000000.0 0.0005719086588527638 -0.0010548148346543312 0.9993847269666193 -0.0052751016315023816 0.9993836078420631 -0.005273662640700471 0.000573306986515778 -0.0010557649763361526
6400000000.0 0.0005720056389559711 -0.001071594738100976 0.9993838719135298 -0.005358726350610974 0.9993827713833259 -0.005357270056987834 0.0005733944315036054 -0.001072557761511315
6500000000.0 0.00057210371409134 -0.0010883763333001644 0.9993830042677805 -0.005442346187087693 0.9993819225492097 -0.005440872838121768 0.0005734828464269846 -0.0010893521385346124
6600000000.0 0.000572202864740638 -0.0011051596430655694 0.9993821240683404 -0.005525961077986005 0.9993810613753558 -0.005524470923948156 0.0005735722128882944 -0.0011061481289654296
6700000000.0 0.0005723030711380934 -0.0011219446900513955 0.9993812313546375 -0.005609570960945792 0.9993801878978308 -0.005608064254852098 0.0005736625122545259 -0.0011229457542173383
6800000000.0 0.0005724043132744913 -0.0011387314967492282 0.9993803261665511 -0.005693175774199148 0.999379302153116 -0.005691652771764989 0.000573753725663787 -0.0011397450355545584
6900000000.0 0.0005725065708980712 -0.001155520085487491 0.9993794085444067 -0.0057767754565777 0.9993784041781059 -0.005775236416168898 0.0005738458340231941 -0.0011565459940924142
7000000000.0 0.0005726098235187528 -0.0011723104784289796 0.9993784785289695 -0.005860369947517284 0.9993774940100997 -0.00585881513010327 0.0005739388180138871 -0.0011733486507941521
7100000000.0 0.0005727140504086603 -0.0011891026975692567 0.9993775361614368 -0.005943959187065888 0.9993765716867978 -0.0059423888561711815 0.0005740326580926815 -0.0011901530264698563
7200000000.0 0.0005728192306052065 -0.0012058967647353102 0.9993765814834339 -0.006027543115887909 0.9993756372462951 -0.006025957537543229 0.0005741273344947801 -0.0012069591417750998
7300000000.0 0.0005729253429153601 -0.0012226927015828084 0.999375614537005 -0.006111121675271045 0.9993746907270735 -0.0061095211179645805 0.0005742228272351419 -0.0012237670172088628
7400000000.0 0.0005730323659151018 -0.0012394905295959816 0.9993746353646069 -0.0061946948071329245 0.9993737321679996 -0.006193079541759969 0.0005743191161117506 -0.0012405766731120654
7500000000.0 0.000573140277955434 -0.0012562902700840087 0.9993736440091057 -0.006278262454024246 0.9993727616083159 -0.006276632753838351 0.0005744161807068989 -0.0012573881296667326
7600000000.0 0.0005732490571611607 -0.001273091944181335 0.9993726405137643 -0.006361824559137546 0.9993717790876354 -0.006360180699699354 0.000574514000391486 -0.0012742014068933937
7700000000.0 0.0005733586814375484 -0.0012898955728449077 0.9993716249222414 -0.006445381066309552 0.9993707846459362 -0.006443723325436571 0.0005746125543256304 -0.0012910165246505687
7800000000.0 0.0005734691284698959 -0.0013067011768532536 0.999370597278582 -0.006528931920028826 0.9993697783235549 -0.006527260577745072 0.0005747118214621208 -0.0013078335026325378
7900000000.0 0.0005735803757277279 -0.0013235087768035001 0.9993695576272088 -0.006612477065440541 0.9993687601611817 -0.0066107924039228985 0.0005748117805479735 -0.0013246523603687387
8000000000.0 0.0005736924004670023 -0.0013403183931122021 0.9993685060129204 -0.0066960164483499274 0.9993677301998524 -0.006694318751879703 0.000574912410128541 -0.0013414731172214861
8100000000.0 0.0005738051797327589 -0.0013571300460116355 0.9993674424808779 -0.006779550015230362 0.9993666884809427 -0.006777839570138247 0.0005750136885475875 -0.001358295792385379
8200000000.0 0.0005739186903617457 -0.0013739437555502039 0.9993663670766049 -0.00686307771322436 0.9993656350461642 -0.006861354807840674 0.0005751155939529983 -0.0013751204048853827
8300000000.0 0.0005740329089856188 -0.001390759541589449 0.9993652798459733 -0.006946599490151819 0.9993645699375546 -0.006944864414752694 0.0005752181042960931 -0.0013919469735758413
8400000000.0 0.0005741478120333683 -0.0014075774238033888 0.999364180835203 -0.007030115294513402 0.9993634931974741 -0.007028368341267138 0.0005753211973364349 -0.0014087755171388972
8500000000.0 0.0005742633757341142 -0.0014243974216772198 0.9993630700908493 -0.007113625075493922 0.999362404868598 -0.0071118665384092795 0.0005754248506430575 -0.0014256060540838382
8600000000.0 0.0005743795761199704 -0.0014412195545056492 0.9993619476598006 -0.007197128782968596 0.9993613049939103 -0.007195358957840698 0.0005755290415977529 -0.0014424386027448053
8700000000.0 0.0005744963890284494 -0.0014580438413919143 0.9993608135892666 -0.007280626367506047 0.9993601936166977 -0.007278845551863058 0.0005756337473974978 -0.0014592731812806635
8800000000.0 0.0005746137901058888 -0.0014748703012466642 0.9993596679267749 -0.0073641177803737395 0.9993590707805434 -0.007362326273421636 0.0005757389450572958 -0.001476109807672845
8900000000.0 0.0005747317548102125 -0.0014916989527851228 0.9993585107201619 -0.007447602973539524 0.99935793652932 -0.007445801076110648 0.000575844611412239 -0.0014929484997252141
9000000000.0 0.0005748502584133681 -0.001508529814528601 0.9993573420175652 -0.0075310818996789765 0.9993567909071825 -0.00752926991417512 0.0005759507231208169 -0.001509789275061955
9100000000.0 0.0005749692760041354 -0.0015253629048007557 0.9993561618674187 -0.007614554512176757 0.9993556339585646 -0.007612732742515688 0.000576057256666959 -0.0015266321511269614
9200000000.0 0.0005750887824916011 -0.0015421982417285992 0.9993549703184424 -0.007698020765130817 0.999354465728168 -0.00769618951669175 0.0005761641883627926 -0.0015434771451830016
9300000000.0 0.0005752087526070472 -0.0015590358432386855 0.9993537674196359 -0.007781480613356738 0.99935328626096 -0.007779640192924557 0.0005762714943522315 -0.0015603242743095248
9400000000.0 0.0005753291609087391 -0.0015758757270585306 0.9993525532202735 -0.007864934012390298 0.9993520956021633 -0.007863084728101544 0.0005763791506119566 -0.001577173555403031
9500000000.0 0.0005754499817820699 -0.0015927179107149522 0.999351327769893 -0.007948380918491045 0.9993508937972527 -0.007946523079777945 0.0005764871329558558 -0.0015940250051756013
9600000000.0 0.0005755711894455298 -0.00160956241153131 0.9993500911182912 -0.008031821288645753 0.9993496808919464 -0.008029955206180878 0.0005765954170368538 -0.0016108786401533405
9700000000.0 0.0005756927579504055 -0.0016264092466290526 0.9993488433155152 -0.008115255080571364 0.9993484569321992 -0.00811338106621245 0.0005767039783491412 -0.001627734476676002
9800000000.0 0.0005758146611864398 -0.0016432584329251073 0.9993475844118558 -0.008198682252717538 0.9993472219641971 -0.00819680061945177 0.0005768127922323516 -0.0016445925308963087
9900000000.0 0.0005759368728838817 -0.001660109987130846 0.9993463144578391 -0.008282102764270192 0.9993459760343512 -0.008280213826158234 0.0005769218338730389 -0.001661452818777763
10000000000.0 0.000576059366615417 -0.00167696392575183 0.9993450335042187 -0.008365516575154363 0.9993447191892884 -0.008363620647273874 0.0005770310783075132 -0.0016783153560953163
10100000000.0 0.000576182115801095 -0.001693820265087163 0.999343741601971 -0.008448923646035361 0.9993434514758469 -0.00844702104442684 0.0005771405004254246 -0.0016951801584340095
10200000000.0 0.0005763050937087698 -0.001710679021227464 0.9993424388022837 -0.008532323938323035 0.999342172941069 -0.008530414979931757 0.000577250074971861 -0.0017120472411878847
10300000000.0 0.0005764282734603418 -0.0017275402100549438 0.9993411251565523 -0.008615717414172304 0.9993408836321943 -0.008613802416794164 0.0005773597765502805 -0.0017289166195587667
10400000000.0 0.0005765516280312323 -0.0017444038472425412 0.9993398007163697 -0.008699104036487841 0.9993395835966532 -0.008697183318711397 0.0005774695796249176 -0.0017457883085572887
10500000000.0 0.0005766751302560113 -0.0017612699482524863 0.9993384655335198 -0.008782483768923472 0.9993382728820599 -0.008780557650075245 0.0005775794585245887 -0.0017626623229994353
10600000000.0 0.0005767987528300458 -0.0017781385283368691 0.9993371196599704 -0.008865856575886186 0.9993369515362058 -0.00886392537597319 0.0005776893874441821 -0.0017795386775089658
10700000000.0 0.0005769224683134342 -0.0017950096025348018 0.999335763147864 -0.008949222422537201 0.9993356196070525 -0.008947286462191393 0.0005777993404483833 -0.0017964173865135254
