#   Hz   S  RI   R   50
!
0.000000e+00 1.452756e-02 0.000000e+00 9.855443e-01 0.000000e+00 9.855434e-01 0.000000e+00 1.452791e-02 0.000000e+00
1.000000e+08 1.452795e-02 2.439408e-05 9.855431e-01 -1.284382e-03 9.855422e-01 -1.284086e-03 1.452823e-02 -1.054161e-05
2.000000e+08 1.452911e-02 4.877193e-05 9.855394e-01 -2.568742e-03 9.855385e-01 -2.568149e-03 1.452918e-02 -2.109909e-05
3.000000e+08 1.453105e-02 7.311734e-05 9.855332e-01 -3.853057e-03 9.855323e-01 -3.852168e-03 1.453078e-02 -3.168829e-05
4.000000e+08 1.453375e-02 9.741412e-05 9.855246e-01 -5.137305e-03 9.855237e-01 -5.136121e-03 1.453302e-02 -4.232504e-05
5.000000e+08 1.453723e-02 1.216461e-04 9.855135e-01 -6.421465e-03 9.855127e-01 -6.419984e-03 1.453589e-02 -5.302514e-05
6.000000e+08 1.454148e-02 1.457973e-04 9.855000e-01 -7.705513e-03 9.854991e-01 -7.703737e-03 1.453939e-02 -6.380431e-05
7.000000e+08 1.454650e-02 1.698515e-04 9.854840e-01 -8.989429e-03 9.854831e-01 -8.987357e-03 1.454353e-02 -7.467823e-05
8.000000e+08 1.455228e-02 1.937929e-04 9.854655e-01 -1.027319e-02 9.854647e-01 -1.027082e-02 1.454830e-02 -8.566250e-05
9.000000e+08 1.455882e-02 2.176056e-04 9.854447e-01 -1.155677e-02 9.854438e-01 -1.155411e-02 1.455369e-02 -9.677262e-05
1.000000e+09 1.456612e-02 2.412737e-04 9.854213e-01 -1.284016e-02 9.854205e-01 -1.283720e-02 1.455970e-02 -1.080240e-04
1.100000e+09 1.457417e-02 2.647818e-04 9.853956e-01 -1.412333e-02 9.853948e-01 -1.412007e-02 1.456634e-02 -1.194319e-04
1.200000e+09 1.458297e-02 2.881143e-04 9.853674e-01 -1.540625e-02 9.853666e-01 -1.540270e-02 1.457358e-02 -1.310115e-04
1.300000e+09 1.459251e-02 3.112557e-04 9.853367e-01 -1.668891e-02 9.853360e-01 -1.668507e-02 1.458144e-02 -1.427778e-04
1.400000e+09 1.460280e-02 3.341908e-04 9.853037e-01 -1.797129e-02 9.853029e-01 -1.796716e-02 1.458990e-02 -1.547457e-04
1.500000e+09 1.461382e-02 3.569047e-04 9.852683e-01 -1.925337e-02 9.852675e-01 -1.924894e-02 1.459896e-02 -1.669299e-04
1.600000e+09 1.462556e-02 3.793824e-04 9.852304e-01 -2.053512e-02 9.852297e-01 -2.053040e-02 1.460861e-02 -1.793449e-04
1.700000e+09 1.463803e-02 4.016092e-04 9.851901e-01 -2.181653e-02 9.851894e-01 -2.181151e-02 1.461885e-02 -1.920051e-04
1.800000e+09 1.465122e-02 4.235705e-04 9.851475e-01 -2.309757e-02 9.851468e-01 -2.309226e-02 1.462967e-02 -2.049245e-04
1.900000e+09 1.466511e-02 4.452522e-04 9.851025e-01 -2.437823e-02 9.851018e-01 -2.437262e-02 1.464106e-02 -2.181173e-04
2.000000e+09 1.467970e-02 4.666401e-04 9.850551e-01 -2.565849e-02 9.850544e-01 -2.565259e-02 1.465302e-02 -2.315970e-04
2.100000e+09 1.469499e-02 4.877203e-04 9.850053e-01 -2.693832e-02 9.850047e-01 -2.693213e-02 1.466554e-02 -2.453771e-04
2.200000e+09 1.471096e-02 5.084793e-04 9.849532e-01 -2.821772e-02 9.849526e-01 -2.821123e-02 1.467860e-02 -2.594710e-04
2.300000e+09 1.472761e-02 5.289036e-04 9.848988e-01 -2.949665e-02 9.848982e-01 -2.948987e-02 1.469221e-02 -2.738917e-04
2.400000e+09 1.474493e-02 5.489801e-04 9.848420e-01 -3.077511e-02 9.848414e-01 -3.076804e-02 1.470635e-02 -2.886519e-04
2.500000e+09 1.476291e-02 5.686961e-04 9.847829e-01 -3.205307e-02 9.847824e-01 -3.204570e-02 1.472101e-02 -3.037641e-04
2.600000e+09 1.478154e-02 5.880388e-04 9.847215e-01 -3.333052e-02 9.847210e-01 -3.332286e-02 1.473619e-02 -3.192405e-04
2.700000e+09 1.480080e-02 6.069960e-04 9.846578e-01 -3.460744e-02 9.846573e-01 -3.459949e-02 1.475187e-02 -3.350931e-04
2.800000e+09 1.482070e-02 6.255557e-04 9.845918e-01 -3.588381e-02 9.845914e-01 -3.587557e-02 1.476805e-02 -3.513336e-04
2.900000e+09 1.484122e-02 6.437061e-04 9.845236e-01 -3.715962e-02 9.845232e-01 -3.715109e-02 1.478471e-02 -3.679733e-04
3.000000e+09 1.486236e-02 6.614358e-04 9.844531e-01 -3.843486e-02 9.844527e-01 -3.842604e-02 1.480185e-02 -3.850232e-04
3.100000e+09 1.488409e-02 6.787337e-04 9.843803e-01 -3.970950e-02 9.843800e-01 -3.970039e-02 1.481945e-02 -4.024942e-04
3.200000e+09 1.490641e-02 6.955889e-04 9.843053e-01 -4.098353e-02 9.843050e-01 -4.097413e-02 1.483751e-02 -4.203967e-04
3.300000e+09 1.492931e-02 7.119911e-04 9.842281e-01 -4.225694e-02 9.842278e-01 -4.224725e-02 1.485600e-02 -4.387408e-04
3.400000e+09 1.495277e-02 7.279300e-04 9.841487e-01 -4.352971e-02 9.841485e-01 -4.351973e-02 1.487493e-02 -4.575364e-04
3.500000e+09 1.497680e-02 7.433957e-04 9.840671e-01 -4.480183e-02 9.840669e-01 -4.479157e-02 1.489428e-02 -4.767928e-04
3.600000e+09 1.500136e-02 7.583789e-04 9.839834e-01 -4.607329e-02 9.839832e-01 -4.606274e-02 1.491404e-02 -4.965193e-04
3.700000e+09 1.502646e-02 7.728702e-04 9.838975e-01 -4.734408e-02 9.838973e-01 -4.733324e-02 1.493419e-02 -5.167246e-04
3.800000e+09 1.505208e-02 7.868609e-04 9.838094e-01 -4.861417e-02 9.838093e-01 -4.860304e-02 1.495472e-02 -5.374173e-04
3.900000e+09 1.507820e-02 8.003425e-04 9.837192e-01 -4.988357e-02 9.837191e-01 -4.987215e-02 1.497563e-02 -5.586054e-04
4.000000e+09 1.510483e-02 8.133068e-04 9.836269e-01 -5.115225e-02 9.836268e-01 -5.114055e-02 1.499690e-02 -5.802968e-04
4.100000e+09 1.513193e-02 8.257461e-04 9.835325e-01 -5.242021e-02 9.835325e-01 -5.240822e-02 1.501851e-02 -6.024989e-04
4.200000e+09 1.515951e-02 8.376528e-04 9.834360e-01 -5.368744e-02 9.834360e-01 -5.367516e-02 1.504046e-02 -6.252187e-04
4.300000e+09 1.518754e-02 8.490198e-04 9.833374e-01 -5.495392e-02 9.833375e-01 -5.494136e-02 1.506272e-02 -6.484630e-04
4.400000e+09 1.521603e-02 8.598405e-04 9.832368e-01 -5.621966e-02 9.832369e-01 -5.620681e-02 1.508530e-02 -6.722382e-04
4.500000e+09 1.524494e-02 8.701085e-04 9.831342e-01 -5.748463e-02 9.831343e-01 -5.747150e-02 1.510817e-02 -6.965504e-04
4.600000e+09 1.527427e-02 8.798175e-04 9.830295e-01 -5.874883e-02 9.830297e-01 -5.873542e-02 1.513133e-02 -7.214052e-04
4.700000e+09 1.530401e-02 8.889621e-04 9.829228e-01 -6.001226e-02 9.829231e-01 -5.999855e-02 1.515475e-02 -7.468079e-04
4.800000e+09 1.533415e-02 8.975368e-04 9.828142e-01 -6.127490e-02 9.828144e-01 -6.126091e-02 1.517844e-02 -7.727636e-04
4.900000e+09 1.536466e-02 9.055366e-04 9.827035e-01 -6.253674e-02 9.827039e-01 -6.252247e-02 1.520236e-02 -7.992768e-04
5.000000e+09 1.539554e-02 9.129569e-04 9.825909e-01 -6.379779e-02 9.825913e-01 -6.378324e-02 1.522652e-02 -8.263518e-04
5.100000e+09 1.542678e-02 9.197934e-04 9.824764e-01 -6.505803e-02 9.824768e-01 -6.504319e-02 1.525089e-02 -8.539926e-04
5.200000e+09 1.545835e-02 9.260421e-04 9.823599e-01 -6.631746e-02 9.823604e-01 -6.630234e-02 1.527546e-02 -8.822028e-04
5.300000e+09 1.549026e-02 9.316994e-04 9.822416e-01 -6.757608e-02 9.822421e-01 -6.756067e-02 1.530023e-02 -9.109856e-04
5.400000e+09 1.552248e-02 9.367620e-04 9.821213e-01 -6.883387e-02 9.821219e-01 -6.881818e-02 1.532517e-02 -9.403438e-04
5.500000e+09 1.555500e-02 9.412271e-04 9.819992e-01 -7.009084e-02 9.819998e-01 -7.007487e-02 1.535028e-02 -9.702802e-04
5.600000e+09 1.558781e-02 9.450920e-04 9.818752e-01 -7.134698e-02 9.818759e-01 -7.133072e-02 1.537554e-02 -1.000797e-03
5.700000e+09 1.562089e-02 9.483544e-04 9.817494e-01 -7.260228e-02 9.817501e-01 -7.258574e-02 1.540093e-02 -1.031896e-03
5.800000e+09 1.565424e-02 9.510124e-04 9.816217e-01 -7.385675e-02 9.816225e-01 -7.383993e-02 1.542645e-02 -1.063578e-03
5.900000e+09 1.568784e-02 9.530644e-04 9.814923e-01 -7.511038e-02 9.814931e-01 -7.509327e-02 1.545208e-02 -1.095846e-03
6.000000e+09 1.572167e-02 9.545091e-04 9.813610e-01 -7.636316e-02 9.813619e-01 -7.634578e-02 1.547781e-02 -1.128699e-03
6.100000e+09 1.575572e-02 9.553455e-04 9.812279e-01 -7.761511e-02 9.812289e-01 -7.759744e-02 1.550362e-02 -1.162139e-03
6.200000e+09 1.578999e-02 9.555730e-04 9.810931e-01 -7.886621e-02 9.810941e-01 -7.884826e-02 1.552950e-02 -1.196166e-03
6.300000e+09 1.582445e-02 9.551911e-04 9.809566e-01 -8.011646e-02 9.809576e-01 -8.009823e-02 1.555545e-02 -1.230780e-03
6.400000e+09 1.585910e-02 9.541998e-04 9.808183e-01 -8.136587e-02 9.808194e-01 -8.134735e-02 1.558144e-02 -1.265980e-03
6.500000e+09 1.589392e-02 9.525993e-04 9.806782e-01 -8.261443e-02 9.806794e-01 -8.259563e-02 1.560746e-02 -1.301766e-03
6.600000e+09 1.592890e-02 9.503901e-04 9.805365e-01 -8.386214e-02 9.805377e-01 -8.384306e-02 1.563351e-02 -1.338137e-03
6.700000e+09 1.596403e-02 9.475731e-04 9.803931e-01 -8.510901e-02 9.803944e-01 -8.508965e-02 1.565957e-02 -1.375092e-03
6.800000e+09 1.599929e-02 9.441494e-04 9.802480e-01 -8.635503e-02 9.802493e-01 -8.633539e-02 1.568562e-02 -1.412630e-03
6.900000e+09 1.603468e-02 9.401201e-04 9.801012e-01 -8.760020e-02 9.801026e-01 -8.758028e-02 1.571166e-02 -1.450748e-03
7.000000e+09 1.607018e-02 9.354871e-04 9.799528e-01 -8.884454e-02 9.799543e-01 -8.882433e-02 1.573766e-02 -1.489444e-03
7.100000e+09 1.610578e-02 9.302522e-04 9.798028e-01 -9.008803e-02 9.798043e-01 -9.006754e-02 1.576363e-02 -1.528717e-03
7.200000e+09 1.614146e-02 9.244174e-04 9.796511e-01 -9.133068e-02 9.796527e-01 -9.130991e-02 1.578955e-02 -1.568564e-03
7.300000e+09 1.617722e-02 9.179852e-04 9.794978e-01 -9.257250e-02 9.794995e-01 -9.255145e-02 1.581541e-02 -1.608982e-03
7.400000e+09 1.621305e-02 9.109581e-04 9.793430e-01 -9.381348e-02 9.793447e-01 -9.379215e-02 1.584119e-02 -1.649968e-03
7.500000e+09 1.624893e-02 9.033391e-04 9.791865e-01 -9.505363e-02 9.791883e-01 -9.503201e-02 1.586689e-02 -1.691519e-03
7.600000e+09 1.628485e-02 8.951312e-04 9.790285e-01 -9.629295e-02 9.790304e-01 -9.627105e-02 1.589249e-02 -1.733632e-03
7.700000e+09 1.632081e-02 8.863378e-04 9.788689e-01 -9.753145e-02 9.788708e-01 -9.750927e-02 1.591798e-02 -1.776302e-03
7.800000e+09 1.635678e-02 8.769622e-04 9.787078e-01 -9.876913e-02 9.787098e-01 -9.874666e-02 1.594335e-02 -1.819526e-03
7.900000e+09 1.639277e-02 8.670083e-04 9.785452e-01 -1.000060e-01 9.785472e-01 -9.998324e-02 1.596860e-02 -1.863300e-03
8.000000e+09 1.642876e-02 8.564799e-04 9.783810e-01 -1.012420e-01 9.783831e-01 -1.012190e-01 1.599370e-02 -1.907619e-03
8.100000e+09 1.646473e-02 8.453811e-04 9.782153e-01 -1.024773e-01 9.782175e-01 -1.024540e-01 1.601866e-02 -1.952479e-03
8.200000e+09 1.650069e-02 8.337164e-04 9.780481e-01 -1.037117e-01 9.780504e-01 -1.036881e-01 1.604346e-02 -1.997875e-03
8.300000e+09 1.653662e-02 8.214900e-04 9.778795e-01 -1.049454e-01 9.778818e-01 -1.049215e-01 1.606808e-02 -2.043803e-03
8.400000e+09 1.657250e-02 8.087067e-04 9.777093e-01 -1.061782e-01 9.777117e-01 -1.061540e-01 1.609253e-02 -2.090257e-03
8.500000e+09 1.660834e-02 7.953714e-04 9.775377e-01 -1.074103e-01 9.775402e-01 -1.073858e-01 1.611679e-02 -2.137232e-03
8.600000e+09 1.664412e-02 7.814888e-04 9.773646e-01 -1.086415e-01 9.773672e-01 -1.086168e-01 1.614086e-02 -2.184723e-03
8.700000e+09 1.667984e-02 7.670643e-04 9.771901e-01 -1.098720e-01 9.771928e-01 -1.098470e-01 1.616471e-02 -2.232724e-03
8.800000e+09 1.671547e-02 7.521030e-04 9.770142e-01 -1.111018e-01 9.770169e-01 -1.110764e-01 1.618835e-02 -2.281229e-03
8.900000e+09 1.675103e-02 7.366104e-04 9.768368e-01 -1.123307e-01 9.768396e-01 -1.123051e-01 1.621177e-02 -2.330233e-03
9.000000e+09 1.678649e-02 7.205919e-04 9.766580e-01 -1.135589e-01 9.766609e-01 -1.135330e-01 1.623495e-02 -2.379730e-03
9.100000e+09 1.682185e-02 7.040533e-04 9.764778e-01 -1.147864e-01 9.764808e-01 -1.147602e-01 1.625789e-02 -2.429714e-03
9.200000e+09 1.685710e-02 6.870003e-04 9.762962e-01 -1.160131e-01 9.762992e-01 -1.159866e-01 1.628058e-02 -2.480178e-03
9.300000e+09 1.689223e-02 6.694388e-04 9.761132e-01 -1.172390e-01 9.761163e-01 -1.172123e-01 1.630302e-02 -2.531117e-03
9.400000e+09 1.692724e-02 6.513749e-04 9.759288e-01 -1.184643e-01 9.759320e-01 -1.184372e-01 1.632519e-02 -2.582523e-03
9.500000e+09 1.696212e-02 6.328145e-04 9.757431e-01 -1.196888e-01 9.757464e-01 -1.196614e-01 1.634709e-02 -2.634391e-03
9.600000e+09 1.699686e-02 6.137640e-04 9.755559e-01 -1.209126e-01 9.755593e-01 -1.208849e-01 1.636871e-02 -2.686713e-03
9.700000e+09 1.703145e-02 5.942295e-04 9.753674e-01 -1.221356e-01 9.753709e-01 -1.221077e-01 1.639005e-02 -2.739484e-03
9.800000e+09 1.706589e-02 5.742174e-04 9.751776e-01 -1.233580e-01 9.751812e-01 -1.233298e-01 1.641109e-02 -2.792696e-03
9.900000e+09 1.710017e-02 5.537341e-04 9.749864e-01 -1.245797e-01 9.749901e-01 -1.245512e-01 1.643183e-02 -2.846342e-03
1.000000e+10 1.713429e-02 5.327862e-04 9.747939e-01 -1.258006e-01 9.747976e-01 -1.257718e-01 1.645227e-02 -2.900416e-03
1.010000e+10 1.716823e-02 5.113801e-04 9.746000e-01 -1.270209e-01 9.746038e-01 -1.269918e-01 1.647239e-02 -2.954910e-03
1.020000e+10 1.720200e-02 4.895226e-04 9.744048e-01 -1.282405e-01 9.744087e-01 -1.282111e-01 1.649220e-02 -3.009818e-03
1.030000e+10 1.723558e-02 4.672201e-04 9.742082e-01 -1.294595e-01 9.742123e-01 -1.294298e-01 1.651168e-02 -3.065133e-03
1.040000e+10 1.726898e-02 4.444796e-04 9.740104e-01 -1.306778e-01 9.740145e-01 -1.306478e-01 1.653084e-02 -3.120846e-03
1.050000e+10 1.730218e-02 4.213076e-04 9.738112e-01 -1.318954e-01 9.738155e-01 -1.318651e-01 1.654966e-02 -3.176952e-03
1.060000e+10 1.733518e-02 3.977110e-04 9.736107e-01 -1.331123e-01 9.736151e-01 -1.330818e-01 1.656814e-02 -3.233443e-03
1.070000e+10 1.736797e-02 3.736967e-04 9.734089e-01 -1.343287e-01 9.734134e-01 -1.342978e-01 1.658627e-02 -3.290312e-03
1.080000e+10 1.740056e-02 3.492713e-04 9.732059e-01 -1.355444e-01 9.732104e-01 -1.355132e-01 1.660406e-02 -3.347551e-03
1.090000e+10 1.743293e-02 3.244418e-04 9.730015e-01 -1.367594e-01 9.730061e-01 -1.367280e-01 1.662149e-02 -3.405153e-03
1.100000e+10 1.746509e-02 2.992150e-04 9.727958e-01 -1.379739e-01 9.728005e-01 -1.379421e-01 1.663857e-02 -3.463111e-03
1.110000e+10 1.749702e-02 2.735978e-04 9.725888e-01 -1.391877e-01 9.725937e-01 -1.391556e-01 1.665528e-02 -3.521418e-03
1.120000e+10 1.752873e-02 2.475971e-04 9.723805e-01 -1.404009e-01 9.723855e-01 -1.403685e-01 1.667163e-02 -3.580066e-03
1.130000e+10 1.756021e-02 2.212198e-04 9.721710e-01 -1.416135e-01 9.721761e-01 -1.415809e-01 1.668760e-02 -3.639048e-03
1.140000e+10 1.759145e-02 1.944727e-04 9.719602e-01 -1.428256e-01 9.719654e-01 -1.427926e-01 1.670320e-02 -3.698357e-03
1.150000e+10 1.762246e-02 1.673628e-04 9.717481e-01 -1.440370e-01 9.717534e-01 -1.440037e-01 1.671843e-02 -3.757985e-03
1.160000e+10 1.765323e-02 1.398968e-04 9.715347e-01 -1.452479e-01 9.715401e-01 -1.452143e-01 1.673327e-02 -3.817925e-03
1.170000e+10 1.768375e-02 1.120815e-04 9.713200e-01 -1.464582e-01 9.713256e-01 -1.464243e-01 1.674773e-02 -3.878170e-03
1.180000e+10 1.771403e-02 8.392395e-05 9.711041e-01 -1.476679e-01 9.711098e-01 -1.476337e-01 1.676181e-02 -3.938713e-03
1.190000e+10 1.774406e-02 5.543076e-05 9.708869e-01 -1.488770e-01 9.708927e-01 -1.488425e-01 1.677549e-02 -3.999546e-03
1.200000e+10 1.777383e-02 2.660874e-05 9.706684e-01 -1.500857e-01 9.706743e-01 -1.500509e-01 1.678879e-02 -4.060662e-03
1.210000e+10 1.780336e-02 -2.535362e-06 9.704487e-01 -1.512937e-01 9.704547e-01 -1.512586e-01 1.680169e-02 -4.122054e-03
1.220000e+10 1.783262e-02 -3.199486e-05 9.702276e-01 -1.525012e-01 9.702338e-01 -1.524658e-01 1.681419e-02 -4.183714e-03
1.230000e+10 1.786163e-02 -6.176309e-05 9.700054e-01 -1.537082e-01 9.700117e-01 -1.536725e-01 1.682630e-02 -4.245637e-03
1.240000e+10 1.789038e-02 -9.183342e-05 9.697818e-01 -1.549147e-01 9.697883e-01 -1.548787e-01 1.683800e-02 -4.307814e-03
1.250000e+10 1.791887e-02 -1.221993e-04 9.695570e-01 -1.561206e-01 9.695636e-01 -1.560843e-01 1.684931e-02 -4.370238e-03
1.260000e+10 1.794709e-02 -1.528541e-04 9.693309e-01 -1.573261e-01 9.693377e-01 -1.572894e-01 1.686021e-02 -4.432903e-03
1.270000e+10 1.797505e-02 -1.837915e-04 9.691036e-01 -1.585310e-01 9.691105e-01 -1.584940e-01 1.687070e-02 -4.495802e-03
1.280000e+10 1.800274e-02 -2.150050e-04 9.688750e-01 -1.597354e-01 9.688820e-01 -1.596981e-01 1.688079e-02 -4.558928e-03
1.290000e+10 1.803016e-02 -2.464882e-04 9.686451e-01 -1.609393e-01 9.686523e-01 -1.609017e-01 1.689048e-02 -4.622273e-03
1.300000e+10 1.805732e-02 -2.782347e-04 9.684140e-01 -1.621428e-01 9.684213e-01 -1.621049e-01 1.689975e-02 -4.685832e-03
1.310000e+10 1.808420e-02 -3.102385e-04 9.681816e-01 -1.633457e-01 9.681891e-01 -1.633075e-01 1.690861e-02 -4.749597e-03
1.320000e+10 1.811082e-02 -3.424931e-04 9.679480e-01 -1.645481e-01 9.679556e-01 -1.645096e-01 1.691707e-02 -4.813562e-03
1.330000e+10 1.813716e-02 -3.749926e-04 9.677130e-01 -1.657501e-01 9.677208e-01 -1.657113e-01 1.692511e-02 -4.877721e-03
1.340000e+10 1.816323e-02 -4.077308e-04 9.674769e-01 -1.669516e-01 9.674848e-01 -1.669125e-01 1.693275e-02 -4.942066e-03
1.350000e+10 1.818903e-02 -4.407017e-04 9.672394e-01 -1.681527e-01 9.672475e-01 -1.681132e-01 1.693997e-02 -5.006591e-03
1.360000e+10 1.821456e-02 -4.738995e-04 9.670007e-01 -1.693533e-01 9.670089e-01 -1.693135e-01 1.694678e-02 -5.071291e-03
1.370000e+10 1.823982e-02 -5.073182e-04 9.667607e-01 -1.705534e-01 9.667691e-01 -1.705133e-01 1.695318e-02 -5.136157e-03
1.380000e+10 1.826480e-02 -5.409521e-04 9.665194e-01 -1.717531e-01 9.665280e-01 -1.717126e-01 1.695916e-02 -5.201186e-03
1.390000e+10 1.828951e-02 -5.747954e-04 9.662769e-01 -1.729523e-01 9.662856e-01 -1.729115e-01 1.696474e-02 -5.266369e-03
1.400000e+10 1.831395e-02 -6.088426e-04 9.660330e-01 -1.741511e-01 9.660420e-01 -1.741100e-01 1.696990e-02 -5.331701e-03
1.410000e+10 1.833811e-02 -6.430880e-04 9.657880e-01 -1.753494e-01 9.657971e-01 -1.753080e-01 1.697465e-02 -5.397177e-03
1.420000e+10 1.836200e-02 -6.775262e-04 9.655416e-01 -1.765473e-01 9.655509e-01 -1.765056e-01 1.697900e-02 -5.462789e-03
1.430000e+10 1.838563e-02 -7.121518e-04 9.652939e-01 -1.777448e-01 9.653034e-01 -1.777028e-01 1.698293e-02 -5.528533e-03
1.440000e+10 1.840898e-02 -7.469594e-04 9.650450e-01 -1.789419e-01 9.650547e-01 -1.788995e-01 1.698645e-02 -5.594402e-03
1.450000e+10 1.843206e-02 -7.819439e-04 9.647948e-01 -1.801385e-01 9.648046e-01 -1.800958e-01 1.698957e-02 -5.660391e-03
1.460000e+10 1.845487e-02 -8.171000e-04 9.645433e-01 -1.813347e-01 9.645533e-01 -1.812917e-01 1.699227e-02 -5.726494e-03
1.470000e+10 1.847741e-02 -8.524226e-04 9.642905e-01 -1.825305e-01 9.643008e-01 -1.824872e-01 1.699457e-02 -5.792706e-03
1.480000e+10 1.849968e-02 -8.879069e-04 9.640365e-01 -1.837259e-01 9.640469e-01 -1.836822e-01 1.699646e-02 -5.859020e-03
1.490000e+10 1.852169e-02 -9.235479e-04 9.637811e-01 -1.849208e-01 9.637917e-01 -1.848769e-01 1.699795e-02 -5.925433e-03
1.500000e+10 1.854343e-02 -9.593407e-04 9.635244e-01 -1.861154e-01 9.635353e-01 -1.860711e-01 1.699904e-02 -5.991938e-03
1.510000e+10 1.856491e-02 -9.952806e-04 9.632665e-01 -1.873096e-01 9.632775e-01 -1.872650e-01 1.699972e-02 -6.058530e-03
1.520000e+10 1.858612e-02 -1.031363e-03 9.630072e-01 -1.885033e-01 9.630185e-01 -1.884584e-01 1.700000e-02 -6.125204e-03
1.530000e+10 1.860707e-02 -1.067583e-03 9.627467e-01 -1.896967e-01 9.627581e-01 -1.896514e-01 1.699988e-02 -6.191955e-03
1.540000e+10 1.862776e-02 -1.103937e-03 9.624848e-01 -1.908896e-01 9.624965e-01 -1.908441e-01 1.699936e-02 -6.258779e-03
1.550000e+10 1.864819e-02 -1.140420e-03 9.622217e-01 -1.920822e-01 9.622335e-01 -1.920363e-01 1.699845e-02 -6.325670e-03
1.560000e+10 1.866836e-02 -1.177027e-03 9.619572e-01 -1.932744e-01 9.619693e-01 -1.932282e-01 1.699714e-02 -6.392623e-03
1.570000e+10 1.868827e-02 -1.213755e-03 9.616914e-01 -1.944662e-01 9.617037e-01 -1.944196e-01 1.699543e-02 -6.459634e-03
1.580000e+10 1.870793e-02 -1.250599e-03 9.614243e-01 -1.956576e-01 9.614369e-01 -1.956107e-01 1.699334e-02 -6.526699e-03
1.590000e+10 1.872733e-02 -1.287556e-03 9.611559e-01 -1.968486e-01 9.611687e-01 -1.968014e-01 1.699085e-02 -6.593812e-03
1.600000e+10 1.874649e-02 -1.324621e-03 9.608862e-01 -1.980392e-01 9.608992e-01 -1.979917e-01 1.698798e-02 -6.660969e-03
1.610000e+10 1.876539e-02 -1.361790e-03 9.606151e-01 -1.992294e-01 9.606284e-01 -1.991816e-01 1.698471e-02 -6.728166e-03
1.620000e+10 1.878404e-02 -1.399061e-03 9.603428e-01 -2.004193e-01 9.603562e-01 -2.003711e-01 1.698107e-02 -6.795399e-03
1.630000e+10 1.880245e-02 -1.436428e-03 9.600691e-01 -2.016088e-01 9.600828e-01 -2.015603e-01 1.697704e-02 -6.862664e-03
