#   Hz   S  RI   R   50
!
0.000000e+00 2.311254e-03 0.000000e+00 9.977418e-01 0.000000e+00 9.977348e-01 0.000000e+00 2.255403e-03 0.000000e+00
1.000000e+08 2.311215e-03 -1.554071e-04 9.977415e-01 -4.854108e-04 9.977345e-01 -4.901390e-04 2.255457e-03 -1.517761e-04
2.000000e+08 2.311099e-03 -3.108179e-04 9.977408e-01 -9.708154e-04 9.977338e-01 -9.802714e-04 2.255620e-03 -3.035558e-04
3.000000e+08 2.310905e-03 -4.662364e-04 9.977396e-01 -1.456207e-03 9.977326e-01 -1.470391e-03 2.255892e-03 -4.553427e-04
4.000000e+08 2.310634e-03 -6.216661e-04 9.977380e-01 -1.941581e-03 9.977309e-01 -1.960490e-03 2.256272e-03 -6.071403e-04
5.000000e+08 2.310284e-03 -7.771110e-04 9.977359e-01 -2.426929e-03 9.977287e-01 -2.450564e-03 2.256761e-03 -7.589524e-04
6.000000e+08 2.309855e-03 -9.325748e-04 9.977333e-01 -2.912246e-03 9.977260e-01 -2.940605e-03 2.257356e-03 -9.107824e-04
7.000000e+08 2.309348e-03 -1.088061e-03 9.977303e-01 -3.397525e-03 9.977228e-01 -3.430607e-03 2.258059e-03 -1.062634e-03
8.000000e+08 2.308760e-03 -1.243574e-03 9.977268e-01 -3.882761e-03 9.977192e-01 -3.920563e-03 2.258868e-03 -1.214510e-03
9.000000e+08 2.308092e-03 -1.399116e-03 9.977228e-01 -4.367947e-03 9.977151e-01 -4.410468e-03 2.259783e-03 -1.366415e-03
1.000000e+09 2.307343e-03 -1.554693e-03 9.977183e-01 -4.853077e-03 9.977105e-01 -4.900314e-03 2.260802e-03 -1.518353e-03
1.100000e+09 2.306512e-03 -1.710306e-03 9.977134e-01 -5.338145e-03 9.977054e-01 -5.390096e-03 2.261925e-03 -1.670325e-03
1.200000e+09 2.305598e-03 -1.865961e-03 9.977081e-01 -5.823146e-03 9.976998e-01 -5.879807e-03 2.263151e-03 -1.822337e-03
1.300000e+09 2.304599e-03 -2.021660e-03 9.977023e-01 -6.308073e-03 9.976938e-01 -6.369442e-03 2.264478e-03 -1.974391e-03
1.400000e+09 2.303516e-03 -2.177407e-03 9.976960e-01 -6.792920e-03 9.976873e-01 -6.858993e-03 2.265905e-03 -2.126491e-03
1.500000e+09 2.302345e-03 -2.333206e-03 9.976893e-01 -7.277682e-03 9.976803e-01 -7.348456e-03 2.267432e-03 -2.278639e-03
1.600000e+09 2.301087e-03 -2.489059e-03 9.976821e-01 -7.762354e-03 9.976728e-01 -7.837824e-03 2.269056e-03 -2.430841e-03
1.700000e+09 2.299740e-03 -2.644971e-03 9.976744e-01 -8.246928e-03 9.976649e-01 -8.327091e-03 2.270775e-03 -2.583097e-03
1.800000e+09 2.298302e-03 -2.800945e-03 9.976664e-01 -8.731401e-03 9.976565e-01 -8.816252e-03 2.272589e-03 -2.735413e-03
1.900000e+09 2.296771e-03 -2.956983e-03 9.976578e-01 -9.215767e-03 9.976477e-01 -9.305301e-03 2.274496e-03 -2.887791e-03
2.000000e+09 2.295147e-03 -3.113090e-03 9.976489e-01 -9.700019e-03 9.976383e-01 -9.794233e-03 2.276493e-03 -3.040233e-03
2.100000e+09 2.293427e-03 -3.269268e-03 9.976394e-01 -1.018415e-02 9.976286e-01 -1.028304e-02 2.278580e-03 -3.192744e-03
2.200000e+09 2.291610e-03 -3.425521e-03 9.976296e-01 -1.066817e-02 9.976184e-01 -1.077172e-02 2.280753e-03 -3.345326e-03
2.300000e+09 2.289693e-03 -3.581851e-03 9.976193e-01 -1.115205e-02 9.976077e-01 -1.126027e-02 2.283011e-03 -3.497982e-03
2.400000e+09 2.287675e-03 -3.738262e-03 9.976086e-01 -1.163580e-02 9.975966e-01 -1.174868e-02 2.285352e-03 -3.650716e-03
2.500000e+09 2.285554e-03 -3.894756e-03 9.975975e-01 -1.211941e-02 9.975850e-01 -1.223694e-02 2.287774e-03 -3.803529e-03
2.600000e+09 2.283328e-03 -4.051337e-03 9.975859e-01 -1.260289e-02 9.975730e-01 -1.272506e-02 2.290274e-03 -3.956424e-03
2.700000e+09 2.280994e-03 -4.208007e-03 9.975739e-01 -1.308621e-02 9.975606e-01 -1.321302e-02 2.292850e-03 -4.109405e-03
2.800000e+09 2.278550e-03 -4.364769e-03 9.975615e-01 -1.356938e-02 9.975477e-01 -1.370083e-02 2.295500e-03 -4.262474e-03
2.900000e+09 2.275995e-03 -4.521625e-03 9.975487e-01 -1.405240e-02 9.975344e-01 -1.418847e-02 2.298221e-03 -4.415634e-03
3.000000e+09 2.273326e-03 -4.678578e-03 9.975355e-01 -1.453526e-02 9.975207e-01 -1.467595e-02 2.301010e-03 -4.568886e-03
3.100000e+09 2.270540e-03 -4.835631e-03 9.975218e-01 -1.501796e-02 9.975065e-01 -1.516326e-02 2.303866e-03 -4.722234e-03
3.200000e+09 2.267635e-03 -4.992785e-03 9.975078e-01 -1.550049e-02 9.974920e-01 -1.565039e-02 2.306785e-03 -4.875680e-03
3.300000e+09 2.264609e-03 -5.150044e-03 9.974934e-01 -1.598284e-02 9.974770e-01 -1.613735e-02 2.309765e-03 -5.029226e-03
3.400000e+09 2.261459e-03 -5.307409e-03 9.974785e-01 -1.646503e-02 9.974616e-01 -1.662412e-02 2.312803e-03 -5.182874e-03
3.500000e+09 2.258182e-03 -5.464883e-03 9.974633e-01 -1.694703e-02 9.974458e-01 -1.711071e-02 2.315896e-03 -5.336627e-03
3.600000e+09 2.254776e-03 -5.622468e-03 9.974477e-01 -1.742886e-02 9.974296e-01 -1.759711e-02 2.319041e-03 -5.490486e-03
3.700000e+09 2.251239e-03 -5.780165e-03 9.974317e-01 -1.791050e-02 9.974130e-01 -1.808332e-02 2.322236e-03 -5.644454e-03
3.800000e+09 2.247567e-03 -5.937977e-03 9.974153e-01 -1.839195e-02 9.973961e-01 -1.856933e-02 2.325477e-03 -5.798532e-03
3.900000e+09 2.243758e-03 -6.095905e-03 9.973986e-01 -1.887322e-02 9.973787e-01 -1.905515e-02 2.328762e-03 -5.952723e-03
4.000000e+09 2.239809e-03 -6.253951e-03 9.973815e-01 -1.935429e-02 9.973609e-01 -1.954076e-02 2.332087e-03 -6.107027e-03
4.100000e+09 2.235718e-03 -6.412117e-03 9.973640e-01 -1.983517e-02 9.973428e-01 -2.002618e-02 2.335450e-03 -6.261448e-03
4.200000e+09 2.231481e-03 -6.570404e-03 9.973462e-01 -2.031585e-02 9.973243e-01 -2.051138e-02 2.338847e-03 -6.415985e-03
4.300000e+09 2.227096e-03 -6.728814e-03 9.973280e-01 -2.079633e-02 9.973054e-01 -2.099638e-02 2.342275e-03 -6.570642e-03
4.400000e+09 2.222560e-03 -6.887348e-03 9.973094e-01 -2.127661e-02 9.972862e-01 -2.148117e-02 2.345732e-03 -6.725419e-03
4.500000e+09 2.217870e-03 -7.046007e-03 9.972905e-01 -2.175668e-02 9.972666e-01 -2.196574e-02 2.349213e-03 -6.880317e-03
4.600000e+09 2.213023e-03 -7.204793e-03 9.972713e-01 -2.223655e-02 9.972467e-01 -2.245011e-02 2.352717e-03 -7.035338e-03
4.700000e+09 2.208016e-03 -7.363706e-03 9.972517e-01 -2.271622e-02 9.972264e-01 -2.293425e-02 2.356239e-03 -7.190484e-03
4.800000e+09 2.202846e-03 -7.522748e-03 9.972318e-01 -2.319567e-02 9.972057e-01 -2.341818e-02 2.359776e-03 -7.345754e-03
4.900000e+09 2.197511e-03 -7.681919e-03 9.972115e-01 -2.367492e-02 9.971847e-01 -2.390190e-02 2.363326e-03 -7.501151e-03
5.000000e+09 2.192007e-03 -7.841221e-03 9.971910e-01 -2.415396e-02 9.971634e-01 -2.438539e-02 2.366885e-03 -7.656675e-03
5.100000e+09 2.186332e-03 -8.000654e-03 9.971701e-01 -2.463278e-02 9.971417e-01 -2.486866e-02 2.370450e-03 -7.812328e-03
5.200000e+09 2.180482e-03 -8.160218e-03 9.971489e-01 -2.511140e-02 9.971197e-01 -2.535172e-02 2.374017e-03 -7.968109e-03
5.300000e+09 2.174455e-03 -8.319915e-03 9.971274e-01 -2.558980e-02 9.970974e-01 -2.583455e-02 2.377583e-03 -8.124020e-03
5.400000e+09 2.168248e-03 -8.479744e-03 9.971055e-01 -2.606799e-02 9.970748e-01 -2.631715e-02 2.381146e-03 -8.280061e-03
5.500000e+09 2.161857e-03 -8.639707e-03 9.970834e-01 -2.654596e-02 9.970519e-01 -2.679954e-02 2.384702e-03 -8.436233e-03
5.600000e+09 2.155280e-03 -8.799802e-03 9.970610e-01 -2.702372e-02 9.970286e-01 -2.728170e-02 2.388247e-03 -8.592536e-03
5.700000e+09 2.148514e-03 -8.960032e-03 9.970382e-01 -2.750127e-02 9.970051e-01 -2.776364e-02 2.391779e-03 -8.748971e-03
5.800000e+09 2.141556e-03 -9.120395e-03 9.970152e-01 -2.797860e-02 9.969812e-01 -2.824536e-02 2.395294e-03 -8.905538e-03
5.900000e+09 2.134403e-03 -9.280892e-03 9.969919e-01 -2.845572e-02 9.969571e-01 -2.872685e-02 2.398789e-03 -9.062237e-03
6.000000e+09 2.127052e-03 -9.441522e-03 9.969683e-01 -2.893263e-02 9.969326e-01 -2.920812e-02 2.402261e-03 -9.219069e-03
6.100000e+09 2.119501e-03 -9.602286e-03 9.969445e-01 -2.940933e-02 9.969079e-01 -2.968917e-02 2.405706e-03 -9.376033e-03
6.200000e+09 2.111746e-03 -9.763183e-03 9.969203e-01 -2.988581e-02 9.968829e-01 -3.017000e-02 2.409123e-03 -9.533131e-03
6.300000e+09 2.103784e-03 -9.924214e-03 9.968959e-01 -3.036208e-02 9.968576e-01 -3.065061e-02 2.412506e-03 -9.690361e-03
6.400000e+09 2.095613e-03 -1.008538e-02 9.968712e-01 -3.083814e-02 9.968320e-01 -3.113100e-02 2.415854e-03 -9.847723e-03
6.500000e+09 2.087231e-03 -1.024667e-02 9.968463e-01 -3.131399e-02 9.968062e-01 -3.161117e-02 2.419164e-03 -1.000522e-02
6.600000e+09 2.078633e-03 -1.040810e-02 9.968211e-01 -3.178963e-02 9.967801e-01 -3.209112e-02 2.422431e-03 -1.016285e-02
6.700000e+09 2.069818e-03 -1.056966e-02 9.967956e-01 -3.226506e-02 9.967537e-01 -3.257085e-02 2.425654e-03 -1.032060e-02
6.800000e+09 2.060782e-03 -1.073135e-02 9.967699e-01 -3.274029e-02 9.967271e-01 -3.305037e-02 2.428829e-03 -1.047850e-02
6.900000e+09 2.051524e-03 -1.089317e-02 9.967440e-01 -3.321531e-02 9.967002e-01 -3.352968e-02 2.431954e-03 -1.063652e-02
7.000000e+09 2.042040e-03 -1.105511e-02 9.967178e-01 -3.369013e-02 9.966731e-01 -3.400877e-02 2.435024e-03 -1.079467e-02
7.100000e+09 2.032328e-03 -1.121719e-02 9.966913e-01 -3.416475e-02 9.966457e-01 -3.448766e-02 2.438039e-03 -1.095295e-02
7.200000e+09 2.022385e-03 -1.137939e-02 9.966647e-01 -3.463916e-02 9.966181e-01 -3.496633e-02 2.440993e-03 -1.111136e-02
7.300000e+09 2.012209e-03 -1.154172e-02 9.966378e-01 -3.511338e-02 9.965902e-01 -3.544480e-02 2.443886e-03 -1.126991e-02
7.400000e+09 2.001797e-03 -1.170418e-02 9.966106e-01 -3.558740e-02 9.965621e-01 -3.592306e-02 2.446714e-03 -1.142858e-02
7.500000e+09 1.991146e-03 -1.186675e-02 9.965833e-01 -3.606123e-02 9.965338e-01 -3.640112e-02 2.449474e-03 -1.158737e-02
7.600000e+09 1.980255e-03 -1.202946e-02 9.965557e-01 -3.653487e-02 9.965052e-01 -3.687898e-02 2.452164e-03 -1.174630e-02
7.700000e+09 1.969120e-03 -1.219228e-02 9.965279e-01 -3.700831e-02 9.964764e-01 -3.735664e-02 2.454780e-03 -1.190535e-02
7.800000e+09 1.957740e-03 -1.235522e-02 9.964998e-01 -3.748157e-02 9.964474e-01 -3.783411e-02 2.457321e-03 -1.206452e-02
7.900000e+09 1.946112e-03 -1.251828e-02 9.964716e-01 -3.795464e-02 9.964182e-01 -3.831138e-02 2.459784e-03 -1.222382e-02
8.000000e+09 1.934234e-03 -1.268146e-02 9.964431e-01 -3.842753e-02 9.963887e-01 -3.878846e-02 2.462166e-03 -1.238324e-02
8.100000e+09 1.922104e-03 -1.284476e-02 9.964145e-01 -3.890023e-02 9.963591e-01 -3.926535e-02 2.464464e-03 -1.254278e-02
8.200000e+09 1.909718e-03 -1.300817e-02 9.963856e-01 -3.937276e-02 9.963292e-01 -3.974205e-02 2.466677e-03 -1.270245e-02
8.300000e+09 1.897076e-03 -1.317169e-02 9.963565e-01 -3.984511e-02 9.962991e-01 -4.021857e-02 2.468802e-03 -1.286223e-02
8.400000e+09 1.884176e-03 -1.333533e-02 9.963272e-01 -4.031729e-02 9.962688e-01 -4.069491e-02 2.470837e-03 -1.302213e-02
8.500000e+09 1.871014e-03 -1.349908e-02 9.962977e-01 -4.078930e-02 9.962383e-01 -4.117107e-02 2.472779e-03 -1.318215e-02
8.600000e+09 1.857589e-03 -1.366293e-02 9.962681e-01 -4.126113e-02 9.962076e-01 -4.164706e-02 2.474626e-03 -1.334229e-02
8.700000e+09 1.843900e-03 -1.382689e-02 9.962382e-01 -4.173281e-02 9.961767e-01 -4.212287e-02 2.476376e-03 -1.350254e-02
8.800000e+09 1.829943e-03 -1.399095e-02 9.962081e-01 -4.220432e-02 9.961456e-01 -4.259851e-02 2.478027e-03 -1.366290e-02
8.900000e+09 1.815718e-03 -1.415512e-02 9.961779e-01 -4.267566e-02 9.961143e-01 -4.307399e-02 2.479577e-03 -1.382338e-02
9.000000e+09 1.801222e-03 -1.431939e-02 9.961474e-01 -4.314686e-02 9.960828e-01 -4.354930e-02 2.481023e-03 -1.398397e-02
9.100000e+09 1.786454e-03 -1.448376e-02 9.961168e-01 -4.361790e-02 9.960511e-01 -4.402445e-02 2.482364e-03 -1.414466e-02
9.200000e+09 1.771412e-03 -1.464822e-02 9.960859e-01 -4.408878e-02 9.960193e-01 -4.449944e-02 2.483597e-03 -1.430547e-02
9.300000e+09 1.756094e-03 -1.481278e-02 9.960549e-01 -4.455952e-02 9.959872e-01 -4.497427e-02 2.484722e-03 -1.446638e-02
9.400000e+09 1.740499e-03 -1.497744e-02 9.960237e-01 -4.503011e-02 9.959550e-01 -4.544896e-02 2.485735e-03 -1.462739e-02
9.500000e+09 1.724624e-03 -1.514219e-02 9.959924e-01 -4.550056e-02 9.959225e-01 -4.592350e-02 2.486636e-03 -1.478851e-02
9.600000e+09 1.708469e-03 -1.530702e-02 9.959608e-01 -4.597087e-02 9.958899e-01 -4.639789e-02 2.487422e-03 -1.494973e-02
9.700000e+09 1.692033e-03 -1.547194e-02 9.959291e-01 -4.644104e-02 9.958571e-01 -4.687213e-02 2.488092e-03 -1.511106e-02
9.800000e+09 1.675312e-03 -1.563695e-02 9.958972e-01 -4.691108e-02 9.958241e-01 -4.734624e-02 2.488645e-03 -1.527248e-02
9.900000e+09 1.658307e-03 -1.580205e-02 9.958651e-01 -4.738099e-02 9.957910e-01 -4.782021e-02 2.489078e-03 -1.543400e-02
1.000000e+10 1.641015e-03 -1.596722e-02 9.958329e-01 -4.785077e-02 9.957576e-01 -4.829405e-02 2.489390e-03 -1.559561e-02
1.010000e+10 1.623436e-03 -1.613247e-02 9.958004e-01 -4.832043e-02 9.957241e-01 -4.876776e-02 2.489580e-03 -1.575732e-02
1.020000e+10 1.605568e-03 -1.629780e-02 9.957678e-01 -4.878996e-02 9.956904e-01 -4.924134e-02 2.489646e-03 -1.591912e-02
1.030000e+10 1.587410e-03 -1.646321e-02 9.957350e-01 -4.925938e-02 9.956566e-01 -4.971480e-02 2.489587e-03 -1.608101e-02
1.040000e+10 1.568961e-03 -1.662869e-02 9.957021e-01 -4.972868e-02 9.956225e-01 -5.018813e-02 2.489402e-03 -1.624299e-02
1.050000e+10 1.550220e-03 -1.679424e-02 9.956690e-01 -5.019787e-02 9.955883e-01 -5.066135e-02 2.489089e-03 -1.640506e-02
1.060000e+10 1.531185e-03 -1.695985e-02 9.956357e-01 -5.066695e-02 9.955539e-01 -5.113446e-02 2.488647e-03 -1.656721e-02
1.070000e+10 1.511856e-03 -1.712554e-02 9.956022e-01 -5.113592e-02 9.955193e-01 -5.160745e-02 2.488075e-03 -1.672945e-02
1.080000e+10 1.492231e-03 -1.729129e-02 9.955686e-01 -5.160478e-02 9.954846e-01 -5.208033e-02 2.487372e-03 -1.689178e-02
1.090000e+10 1.472310e-03 -1.745710e-02 9.955348e-01 -5.207355e-02 9.954497e-01 -5.255311e-02 2.486536e-03 -1.705418e-02
1.100000e+10 1.452092e-03 -1.762297e-02 9.955008e-01 -5.254222e-02 9.954146e-01 -5.302579e-02 2.485568e-03 -1.721666e-02
1.110000e+10 1.431576e-03 -1.778890e-02 9.954667e-01 -5.301079e-02 9.953794e-01 -5.349836e-02 2.484465e-03 -1.737922e-02
1.120000e+10 1.410761e-03 -1.795488e-02 9.954324e-01 -5.347927e-02 9.953439e-01 -5.397084e-02 2.483227e-03 -1.754185e-02
1.130000e+10 1.389647e-03 -1.812092e-02 9.953979e-01 -5.394766e-02 9.953083e-01 -5.444323e-02 2.481853e-03 -1.770456e-02
1.140000e+10 1.368232e-03 -1.828700e-02 9.953632e-01 -5.441597e-02 9.952726e-01 -5.491553e-02 2.480342e-03 -1.786735e-02
1.150000e+10 1.346516e-03 -1.845314e-02 9.953284e-01 -5.488419e-02 9.952366e-01 -5.538774e-02 2.478693e-03 -1.803020e-02
1.160000e+10 1.324499e-03 -1.861933e-02 9.952934e-01 -5.535233e-02 9.952005e-01 -5.585986e-02 2.476906e-03 -1.819312e-02
1.170000e+10 1.302179e-03 -1.878556e-02 9.952583e-01 -5.582039e-02 9.951642e-01 -5.633190e-02 2.474981e-03 -1.835611e-02
1.180000e+10 1.279557e-03 -1.895183e-02 9.952230e-01 -5.628838e-02 9.951278e-01 -5.680387e-02 2.472915e-03 -1.851916e-02
1.190000e+10 1.256632e-03 -1.911814e-02 9.951875e-01 -5.675629e-02 9.950911e-01 -5.727575e-02 2.470709e-03 -1.868228e-02
1.200000e+10 1.233402e-03 -1.928449e-02 9.951518e-01 -5.722413e-02 9.950543e-01 -5.774757e-02 2.468362e-03 -1.884547e-02
1.210000e+10 1.209869e-03 -1.945087e-02 9.951160e-01 -5.769191e-02 9.950173e-01 -5.821931e-02 2.465874e-03 -1.900871e-02
1.220000e+10 1.186031e-03 -1.961729e-02 9.950800e-01 -5.815962e-02 9.949802e-01 -5.869098e-02 2.463244e-03 -1.917201e-02
1.230000e+10 1.161888e-03 -1.978374e-02 9.950438e-01 -5.862726e-02 9.949429e-01 -5.916259e-02 2.460471e-03 -1.933537e-02
1.240000e+10 1.137440e-03 -1.995022e-02 9.950074e-01 -5.909485e-02 9.949054e-01 -5.963414e-02 2.457556e-03 -1.949879e-02
1.250000e+10 1.112687e-03 -2.011673e-02 9.949709e-01 -5.956237e-02 9.948677e-01 -6.010562e-02 2.454498e-03 -1.966226e-02
1.260000e+10 1.087628e-03 -2.028327e-02 9.949342e-01 -6.002985e-02 9.948298e-01 -6.057705e-02 2.451296e-03 -1.982578e-02
1.270000e+10 1.062263e-03 -2.044982e-02 9.948974e-01 -6.049727e-02 9.947918e-01 -6.104842e-02 2.447951e-03 -1.998935e-02
1.280000e+10 1.036592e-03 -2.061640e-02 9.948603e-01 -6.096463e-02 9.947536e-01 -6.151974e-02 2.444462e-03 -2.015298e-02
1.290000e+10 1.010615e-03 -2.078300e-02 9.948231e-01 -6.143195e-02 9.947152e-01 -6.199100e-02 2.440828e-03 -2.031665e-02
1.300000e+10 9.843311e-04 -2.094961e-02 9.947857e-01 -6.189922e-02 9.946766e-01 -6.246222e-02 2.437051e-03 -2.048037e-02
1.310000e+10 9.577412e-04 -2.111624e-02 9.947482e-01 -6.236645e-02 9.946379e-01 -6.293339e-02 2.433129e-03 -2.064413e-02
1.320000e+10 9.308448e-04 -2.128288e-02 9.947104e-01 -6.283363e-02 9.945990e-01 -6.340452e-02 2.429062e-03 -2.080794e-02
1.330000e+10 9.036421e-04 -2.144954e-02 9.946725e-01 -6.330078e-02 9.945599e-01 -6.387560e-02 2.424851e-03 -2.097179e-02
1.340000e+10 8.761329e-04 -2.161620e-02 9.946344e-01 -6.376788e-02 9.945206e-01 -6.434664e-02 2.420495e-03 -2.113567e-02
1.350000e+10 8.483174e-04 -2.178287e-02 9.945961e-01 -6.423495e-02 9.944811e-01 -6.481765e-02 2.415994e-03 -2.129960e-02
1.360000e+10 8.201956e-04 -2.194954e-02 9.945576e-01 -6.470199e-02 9.944414e-01 -6.528861e-02 2.411349e-03 -2.146357e-02
1.370000e+10 7.917677e-04 -2.211622e-02 9.945190e-01 -6.516899e-02 9.944016e-01 -6.575955e-02 2.406560e-03 -2.162757e-02
1.380000e+10 7.630338e-04 -2.228290e-02 9.944801e-01 -6.563596e-02 9.943615e-01 -6.623045e-02 2.401625e-03 -2.179160e-02
1.390000e+10 7.339941e-04 -2.244958e-02 9.944411e-01 -6.610290e-02 9.943213e-01 -6.670132e-02 2.396547e-03 -2.195567e-02
1.400000e+10 7.046487e-04 -2.261625e-02 9.944019e-01 -6.656981e-02 9.942809e-01 -6.717216e-02 2.391324e-03 -2.211977e-02
1.410000e+10 6.749979e-04 -2.278292e-02 9.943625e-01 -6.703670e-02 9.942403e-01 -6.764297e-02 2.385957e-03 -2.228391e-02
1.420000e+10 6.450419e-04 -2.294959e-02 9.943229e-01 -6.750356e-02 9.941995e-01 -6.811376e-02 2.380447e-03 -2.244807e-02
1.430000e+10 6.147810e-04 -2.311624e-02 9.942832e-01 -6.797040e-02 9.941585e-01 -6.858452e-02 2.374792e-03 -2.261225e-02
1.440000e+10 5.842154e-04 -2.328289e-02 9.942432e-01 -6.843721e-02 9.941173e-01 -6.905526e-02 2.368995e-03 -2.277647e-02
1.450000e+10 5.533456e-04 -2.344953e-02 9.942030e-01 -6.890401e-02 9.940759e-01 -6.952598e-02 2.363054e-03 -2.294071e-02
1.460000e+10 5.221718e-04 -2.361615e-02 9.941627e-01 -6.937079e-02 9.940343e-01 -6.999668e-02 2.356970e-03 -2.310497e-02
1.470000e+10 4.906944e-04 -2.378276e-02 9.941221e-01 -6.983755e-02 9.939925e-01 -7.046736e-02 2.350744e-03 -2.326926e-02
1.480000e+10 4.589137e-04 -2.394935e-02 9.940814e-01 -7.030429e-02 9.939506e-01 -7.093802e-02 2.344376e-03 -2.343356e-02
1.490000e+10 4.268303e-04 -2.411592e-02 9.940405e-01 -7.077102e-02 9.939084e-01 -7.140867e-02 2.337866e-03 -2.359789e-02
1.500000e+10 3.944444e-04 -2.428247e-02 9.939993e-01 -7.123773e-02 9.938660e-01 -7.187930e-02 2.331215e-03 -2.376224e-02
1.510000e+10 3.617565e-04 -2.444900e-02 9.939580e-01 -7.170443e-02 9.938234e-01 -7.234992e-02 2.324422e-03 -2.392660e-02
1.520000e+10 3.287672e-04 -2.461551e-02 9.939165e-01 -7.217112e-02 9.937806e-01 -7.282052e-02 2.317489e-03 -2.409098e-02
1.530000e+10 2.954768e-04 -2.478199e-02 9.938747e-01 -7.263780e-02 9.937376e-01 -7.329112e-02 2.310416e-03 -2.425538e-02
1.540000e+10 2.618858e-04 -2.494845e-02 9.938328e-01 -7.310447e-02 9.936944e-01 -7.376170e-02 2.303204e-03 -2.441979e-02
1.550000e+10 2.279948e-04 -2.511487e-02 9.937906e-01 -7.357112e-02 9.936510e-01 -7.423227e-02 2.295852e-03 -2.458421e-02
1.560000e+10 1.938043e-04 -2.528127e-02 9.937483e-01 -7.403777e-02 9.936074e-01 -7.470284e-02 2.288361e-03 -2.474865e-02
1.570000e+10 1.593148e-04 -2.544764e-02 9.937057e-01 -7.450442e-02 9.935635e-01 -7.517339e-02 2.280732e-03 -2.491309e-02
1.580000e+10 1.245269e-04 -2.561398e-02 9.936630e-01 -7.497105e-02 9.935195e-01 -7.564394e-02 2.272966e-03 -2.507755e-02
1.590000e+10 8.944117e-05 -2.578028e-02 9.936200e-01 -7.543768e-02 9.934752e-01 -7.611449e-02 2.265063e-03 -2.524202e-02
1.600000e+10 5.405813e-05 -2.594654e-02 9.935768e-01 -7.590430e-02 9.934307e-01 -7.658502e-02 2.257023e-03 -2.540649e-02
1.610000e+10 1.837841e-05 -2.611277e-02 9.935334e-01 -7.637092e-02 9.933860e-01 -7.705555e-02 2.248847e-03 -2.557097e-02
1.620000e+10 -1.759738e-05 -2.627897e-02 9.934898e-01 -7.683754e-02 9.933411e-01 -7.752608e-02 2.240535e-03 -2.573546e-02
