#   Hz   S  RI   R   50
!
1000000000.0 0.7339581361323465 0.5570580337881698
1005000000.0 0.7366173282457343 0.5543982117077907
1010000000.0 0.7392522102635484 0.5517424927356709
1015000000.0 0.74186294721466 0.5490907952664935
1020000000.0 0.7444496993762212 0.5464430459364625
1025000000.0 0.7470126227242289 0.5437991793324561
1030000000.0 0.7495518693581057 0.5411591377002593
1035000000.0 0.7520675879001932 0.5385228706525912
1040000000.0 0.7545599238710221 0.5358903348775887
1045000000.0 0.7570290200412967 0.5332614938484102
1050000000.0 0.7594750167613966 0.5306363175345225
1055000000.0 0.7618980522693166 0.5280147821152514
1060000000.0 0.7642982629778281 0.5253968696960772
1065000000.0 0.7666757837417468 0.5227825680281798
1070000000.0 0.7690307481060773 0.5201718702316427
1075000000.0 0.7713632885358674 0.5175647745227329
1080000000.0 0.773673536628542 0.514961283945615
1085000000.0 0.7759616233094927 0.5123614061088239
1090000000.0 0.7782276790116786 0.509765152926817
1095000000.0 0.780471833839966 0.5071725403668452
1100000000.0 0.7826942177209408 0.5045835882014084
1105000000.0 0.784894960538887 0.5019983197664831
1110000000.0 0.7870741922586217 0.49941676172572347
1115000000.0 0.7892320430358519 0.4968389438407796
1120000000.0 0.7913686433156975 0.49426489874787616
1125000000.0 0.7934841239200218 0.4916946617407524
1130000000.0 0.7955786161241737 0.4891282705600569
1135000000.0 0.7976522517237336 0.48656576518925676
1140000000.0 0.7997051630918418 0.48400718765712364
1145000000.0 0.8017374832276677 0.48145258184680023
1150000000.0 0.8037493457965471 0.4789019933114793
1155000000.0 0.8057408851623158 0.476355469096685
1160000000.0 0.8077122364123338 0.47381305756912556
1165000000.0 0.8096635353756823 0.47127480825210016
1170000000.0 0.8115949186349991 0.46874077166739375
1175000000.0 0.8135065235323901 0.4662109991836185
1180000000.0 0.815398488169855 0.46368554287091507
1185000000.0 0.817270951404623 0.4611644553619425
1190000000.0 0.8191240528397999 0.4586477897190681
1195000000.0 0.8209579328106995 0.456135599307644
1200000000.0 0.8227727323672123 0.4536279376752869
1205000000.0 0.8245685932525568 0.45112485843702466
1210000000.0 0.8263456578787413 0.4486264151662086
1215000000.0 0.8281040692990365 0.4461326612910575
1220000000.0 0.8298439711777608 0.4436436499967051
1225000000.0 0.8315655077576595 0.44115943413262293
1230000000.0 0.8332688238251267 0.4386800661252752
1235000000.0 0.8349540646735469 0.436205597895872
1240000000.0 0.8366213760649616 0.43373608078307496
1245000000.0 0.8382709041903094 0.43127156547051626
1250000000.0 0.8399027956284414 0.42881210191898234
1255000000.0 0.8415171973041019 0.42635773930311666
1260000000.0 0.8431142564450713 0.4239085259525047
1265000000.0 0.8446941205386449 0.421464509296979
1270000000.0 0.8462569372875993 0.41902573581601377
1275000000.0 0.8478028545658145 0.4165922509920572
1280000000.0 0.8493320203736795 0.4141640992676579
1285000000.0 0.8508445827934273 0.4117413240062441
1290000000.0 0.8523406899445073 0.4093239674564145
1295000000.0 0.8538204899391213 0.40691207071960217
1300000000.0 0.8552841308380192 0.4045056737209706
1305000000.0 0.856731760606661 0.4021048151834127
1310000000.0 0.8581635270718169 0.39970953260451325
1315000000.0 0.8595795778787066 0.39731986223635346
1320000000.0 0.8609800604487415 0.3949358390680176
1325000000.0 0.8623651219379301 0.39255749681069
1330000000.0 0.8637349091960264 0.39018486788521234
1335000000.0 0.8650895687264543 0.38781798341198076
1340000000.0 0.8664292466470748 0.3854568732030752
1345000000.0 0.8677540886518293 0.3831015657565001
1350000000.0 0.8690642399732987 0.38075208825242973
1355000000.0 0.8703598453462148 0.3784084665513501
1360000000.0 0.8716410489719464 0.3760707251939961
1365000000.0 0.872907994483996 0.3737388874029813
1370000000.0 0.8741608249145122 0.37141297508602394
1375000000.0 0.8753996826618493 0.36909300884067625
1380000000.0 0.8766247094591757 0.3667790079604628
1385000000.0 0.8778360463441478 0.3644709904423441
1390000000.0 0.8790338336296527 0.36216897299541984
1395000000.0 0.880218210875626 0.3598729710507885
1400000000.0 0.8813893168619429 0.35758299877248506
1405000000.0 0.8825472895623844 0.35529906906942493
1410000000.0 0.8836922661196712 0.35302119360827733
1415000000.0 0.8848243828215664 0.3507493828272005
1420000000.0 0.8859437750780284 0.3484836459503708
1425000000.0 0.8870505773994198 0.3462239910032453
1430000000.0 0.888144923375743 0.34397042482849105
1435000000.0 0.8892269456569082 0.34172295310252737
1440000000.0 0.8902967759340079 0.33948158035262305
1445000000.0 0.8913545449215851 0.3372463099744947
1450000000.0 0.8924003823408865 0.3350171442503591
1455000000.0 0.8934344169040713 0.33279408436738217
1460000000.0 0.8944567762993694 0.33057713043649173
1465000000.0 0.8954675871771628 0.32836628151149655
1470000000.0 0.8964669751369765 0.3261615356084799
1475000000.0 0.8974550647153521 0.3239628897254247
1480000000.0 0.8984319793745914 0.32177033986203013
1485000000.0 0.8993978414923454 0.31958388103968904
1490000000.0 0.9003527723520259 0.3174035073215899
1495000000.0 0.9012968921340239 0.31522921183291086
1500000000.0 0.9022303199077094 0.31306098678107985
1505000000.0 0.9031531736241887 0.3108988234760678
1510000000.0 0.9040655701098044 0.3087427123506918
1515000000.0 0.9049676250603531 0.30659264298090333
1520000000.0 0.9058594530359925 0.30444860410603436
1525000000.0 0.906741167456832 0.3023105836489871
1530000000.0 0.9076128805991668 0.3001785687363376
1535000000.0 0.9084747035923494 0.2980525457183414
1540000000.0 0.9093267464162665 0.29593250018882233
1545000000.0 0.9101691178994102 0.2938184170049231
1550000000.0 0.9110019257175114 0.29171028030670954
1555000000.0 0.9118252763927244 0.28960807353660745
1560000000.0 0.9126392752933408 0.2875117794586663
1565000000.0 0.9134440266340056 0.28542138017762964
1570000000.0 0.9142396334764267 0.2833368571578086
1575000000.0 0.9150261977305507 0.2812581912417442
1580000000.0 0.9158038201561886 0.2791853626686489
1585000000.0 0.9165726003650737 0.27711835109262384
1590000000.0 0.9173326368233322 0.2750571356006363
1595000000.0 0.9180840268543498 0.27300169473026037
1600000000.0 0.9188268666420149 0.27095200648716633
1605000000.0 0.9195612512343256 0.26890804836235754
1610000000.0 0.920287274547338 0.26686979734915156
1615000000.0 0.921005029369445 0.26483722995989734
1620000000.0 0.9217146073659656 0.2628103222424275
1625000000.0 0.9224160990840345 0.26078904979624445
1630000000.0 0.9231095939577686 0.2587733877884355
1635000000.0 0.9237951803137072 0.25676331096931443
1640000000.0 0.9244729453764997 0.2547587936877915
1645000000.0 0.925142975274837 0.25275980990646935
1650000000.0 0.925805355047606 0.2507663332164621
1655000000.0 0.9264601686502607 0.2487783368519423
1660000000.0 0.9271074989613899 0.24679579370441077
1665000000.0 0.9277474277894759 0.24481867633669396
1670000000.0 0.9283800358798308 0.2428469569966686
1675000000.0 0.9290054029216935 0.24088060763071262
1680000000.0 0.9296236075554859 0.23891959989688819
1685000000.0 0.93023472738021 0.23696390517785446
1690000000.0 0.930838838960976 0.2350134945935141
1695000000.0 0.9314360178366597 0.23306833901339624
1700000000.0 0.9320263385276666 0.231128409068777
1705000000.0 0.9326098745438043 0.22919367516454062
1710000000.0 0.9331866983922495 0.22726410749078418
1715000000.0 0.9337568815855993 0.2253396760341699
1720000000.0 0.9343204946500067 0.22342035058902487
1725000000.0 0.9348776071333785 0.2215061007681964
1730000000.0 0.9354282876136425 0.2195968960136615
1735000000.0 0.9359726037070677 0.21769270560689644
1740000000.0 0.9365106220766316 0.2157934986790103
1745000000.0 0.9370424084404319 0.21389924422064532
1750000000.0 0.9375680275801305 0.2120099110916478
1755000000.0 0.9380875433494281 0.2101254680305136
1760000000.0 0.93860101868256 0.20824588366361108
1765000000.0 0.9391085156028127 0.20637112651418868
1770000000.0 0.939610095231046 0.2045011650111667
1775000000.0 0.9401058177942272 0.20263596749772053
1780000000.0 0.9405957426339653 0.20077550223965787
1785000000.0 0.9410799282150396 0.19891973743359476
1790000000.0 0.9415584321339232 0.19706864121493364
1795000000.0 0.942031311127294 0.19522218166564886
1800000000.0 0.9424986210805292 0.19338032682188364
1805000000.0 0.9429604170361781 0.19154304468135902
1810000000.0 0.9434167532024151 0.18971030321060603
1815000000.0 0.9438676829614612 0.18788207035201723
1820000000.0 0.9443132588779786 0.1860583140307292
1825000000.0 0.9447535327074287 0.18423900216133388
1830000000.0 0.9451885554043953 0.18242410265442516
1835000000.0 0.9456183771308688 0.18061358342298858
1840000000.0 0.9460430472644865 0.17880741238862968
1845000000.0 0.9464626144067301 0.17700555748765398
1850000000.0 0.9468771263910755 0.1752079866769981
1855000000.0 0.9472866302910956 0.17341466794001376
1860000000.0 0.9476911724285088 0.17162556929211456
1865000000.0 0.9480907983811778 0.16984065878628513
1870000000.0 0.9484855529910524 0.1680599045184564
1875000000.0 0.9488754803720573 0.16628327463275458
1880000000.0 0.9492606239179214 0.16451073732662244
1885000000.0 0.9496410263099474 0.16274226085582216
1890000000.0 0.9500167295247238 0.16097781353931773
1895000000.0 0.9503877748417731 0.1592173637640457
1900000000.0 0.9507542028511381 0.15746087998957464
1905000000.0 0.9511160534609074 0.15570833075265902
1910000000.0 0.9514733659046737 0.15395968467168855
1915000000.0 0.9518261787489284 0.15221491045103877
1920000000.0 0.9521745299003924 0.1504739768853261
1925000000.0 0.9525184566132788 0.1487368528635698
1930000000.0 0.9528579954964912 0.147003507373264
1935000000.0 0.9531931825207545 0.14527390950436472
1940000000.0 0.9535240530256784 0.14354802845319373
1945000000.0 0.9538506417267547 0.14182583352626352
1950000000.0 0.9541729827222882 0.140107294144025
1955000000.0 0.9544911095002593 0.13839237984454425
1960000000.0 0.9548050549451171 0.13668106028710583
1965000000.0 0.9551148513445133 0.13497330525575393
1970000000.0 0.9554205303959599 0.13326908466276413
1975000000.0 0.9557221232134274 0.1315683685520603
1980000000.0 0.9560196603338745 0.12987112710256812
1985000000.0 0.9563131717237099 0.12817733063151704
1990000000.0 0.956602686785193 0.12648694959768833
1995000000.0 0.9568882343627687 0.12479995460461497
2000000000.0 0.9571698427493335 0.12311631640373365
2005000000.0 0.9574475396924463 0.12143600589749355
2010000000.0 0.95772135240047 0.11975899414242337
2015000000.0 0.9579913075486526 0.11808525235216097
2020000000.0 0.958257431285148 0.11641475190044465
2025000000.0 0.9585197492369772 0.1147474643240736
2030000000.0 0.9587782865159281 0.11308336132583487
2035000000.0 0.9590330677243964 0.11142241477740436
2040000000.0 0.959284116961173 0.10976459672221896
2045000000.0 0.9595314578271703 0.10810987937832683
2050000000.0 0.9597751134310957 0.10645823514121629
2055000000.0 0.9600151063950709 0.10480963658662408
2060000000.0 0.9602514588601988 0.10316405647332842
2065000000.0 0.9604841924920761 0.10152146774592706
2070000000.0 0.9607133284862586 0.09988184353760193
2075000000.0 0.9609388875736771 0.0982451571728745
2080000000.0 0.9611608900260025 0.09661138217035321
2085000000.0 0.9613793556609717 0.09498049224547281
2090000000.0 0.9615943038476603 0.09335246131323265
2095000000.0 0.9618057535117184 0.09172726349092984
2100000000.0 0.9620137231405623 0.09010487310089446
2105000000.0 0.9622182307885285 0.08848526467322453
2110000000.0 0.9624192940819851 0.08686841294852639
2115000000.0 0.9626169302244131 0.08525429288065911
2120000000.0 0.9628111560014474 0.08364287963948634
2125000000.0 0.9630019877858869 0.08203414861363796
2130000000.0 0.9631894415426749 0.08042807541328066
2135000000.0 0.9633735328338495 0.07882463587290243
2140000000.0 0.9635542768234656 0.07722380605410954
2145000000.0 0.9637316882824931 0.07562556224843947
2150000000.0 0.9639057815936931 0.0740298809801916
2155000000.0 0.9640765707564705 0.07243673900927383
2160000000.0 0.9642440693917098 0.07084611333407279
2165000000.0 0.9644082907465942 0.06925798119434087
2170000000.0 0.9645692476994102 0.06767232007410968
2175000000.0 0.9647269527643394 0.06608910770462514
2180000000.0 0.9648814180962417 0.06450832206730785
2185000000.0 0.9650326554954319 0.06292994139674013
2190000000.0 0.9651806764124506 0.061353944183680724
2195000000.0 0.9653254919528321 0.05978030917810708
2200000000.0 0.9654671128818767 0.05820901539228778
2205000000.0 0.9656055496294212 0.05664004210388434
2210000000.0 0.9657408122946189 0.055073368859086806
2215000000.0 0.9658729106507272 0.05350897547577787
2220000000.0 0.9660018541499057 0.05194684204673373
2225000000.0 0.9661276519280313 0.05038694894285474
2230000000.0 0.9662503128095288 0.048829276816434355
2235000000.0 0.9663698453122206 0.047273806604459886
2240000000.0 0.9664862576522061 0.0457205195319494
2245000000.0 0.9665995577487603 0.044169397115325464
2250000000.0 0.9667097532292671 0.042620421165823895
2255000000.0 0.9668168514341859 0.04107357379293891
2260000000.0 0.9669208594220544 0.03952883740790552
2265000000.0 0.9670217839745291 0.03798619472721799
2270000000.0 0.9671196316014753 0.03644562877618561
2275000000.0 0.9672144085460996 0.03490712289252341
2280000000.0 0.9673061207901368 0.03337066072998162
2285000000.0 0.9673947740590912 0.031836226262009035
2290000000.0 0.9674803738275347 0.030303803785453384
2295000000.0 0.9675629253244697 0.028773377924295643
2300000000.0 0.9676424335387619 0.02724493363341992
2305000000.0 0.9677189032246382 0.025718456202416248
2310000000.0 0.9677923389072641 0.024193931259416712
2315000000.0 0.9678627448883994 0.022671344774962406
2320000000.0 0.9679301252521395 0.021150683065902665
2325000000.0 0.9679944838707428 0.01963193279932184
2330000000.0 0.9680558244105534 0.018115080996494382
2335000000.0 0.9681141503380205 0.01660011503686749
2340000000.0 0.9681694649258215 0.015087022662065918
2345000000.0 0.9682217712590914 0.013575791979921035
2350000000.0 0.9682710722417653 0.012066411468520577
2355000000.0 0.9683173706030397 0.0105588699802738
2360000000.0 0.9683606689039529 0.009053156745994892
2365000000.0 0.9684009695440977 0.007549261378998474
2370000000.0 0.9684382747684647 0.006047173879205064
2375000000.0 0.9684725866744257 0.004546884637252734
2380000000.0 0.9685039072188593 0.0030483844386121864
2385000000.0 0.9685322382254298 0.0015516644677039588
2390000000.0 0.9685575813920188 5.671631200821276e-05
2395000000.0 0.9685799382983197 -0.0014364680338307411
2400000000.0 0.9685993104135993 -0.002927896163913936
2405000000.0 0.9686156991046326 -0.004417575257012901
2410000000.0 0.9686291056438181 -0.0059055120725176055
2415000000.0 0.9686395312174775 -0.007391712946412323
2420000000.0 0.9686469769343483 -0.008876183787282086
2425000000.0 0.9686514438342736 -0.010358930072358103
2430000000.0 0.9686529328970988 -0.011839956843610914
2435000000.0 0.968651445051777 -0.013319268703888896
2440000000.0 0.9686469811856945 -0.014796869813120303
2445000000.0 0.9686395421542193 -0.016272763884577227
2450000000.0 0.9686291287904809 -0.01774695418121368
2455000000.0 0.968615741915389 -0.019219443512084846
2460000000.0 0.9685993823478974 -0.020690234228854142
2465000000.0 0.9685800509155168 -0.02215932822240048
2470000000.0 0.9685577484650881 -0.023626726919531323
2475000000.0 0.9685324758738232 -0.025092431279814132
2480000000.0 0.9685042340606136 -0.026556441792534562
2485000000.0 0.9684730239976223 -0.028018758473793575
2490000000.0 0.9684388467221595 -0.029479380863753377
2495000000.0 0.9684017033488547 -0.03093830802404486
2500000000.0 0.9683615950821245 -0.03239553853534886
2505000000.0 0.9683185232289515 -0.0338510704951633
2510000000.0 0.9682724892119761 -0.03530490151576964
2515000000.0 0.9682234945829074 -0.036757028722415236
2520000000.0 0.968171541036264 -0.03820744875172198
2525000000.0 0.9681166304234474 -0.03965615775033874
2530000000.0 0.9680587647671572 -0.041103151373855756
2535000000.0 0.9679979462761507 -0.042548424785993265
2540000000.0 0.9679341773603597 -0.04399197265808331
2545000000.0 0.9678674606463628 -0.045433789168863516
2550000000.0 0.9677977989932265 -0.04687386800460225
2555000000.0 0.9677251955087123 -0.048312202359572745
2560000000.0 0.9676496535658661 -0.04974878493689474
2565000000.0 0.9675711768199826 -0.051183607949770976
2570000000.0 0.9674897692259611 -0.05261666312313144
2575000000.0 0.9674054350560488 -0.05404794169571742
2580000000.0 0.9673181789179804 -0.05547743442262092
2585000000.0 0.9672280057735151 -0.05690513157830776
2590000000.0 0.967134920957376 -0.058331022960148894
2595000000.0 0.9670389301965941 -0.05975509789248443
2600000000.0 0.9669400396302614 -0.06117734523125089
2605000000.0 0.9668382558296864 -0.06259775336919354
2610000000.0 0.9667335858189682 -0.06401631024170085
2615000000.0 0.9666260370959737 -0.06543300333328135
2620000000.0 0.9665156176537291 -0.06684781968472082
2625000000.0 0.9664023360022188 -0.06826074590094883
2630000000.0 0.9662862011905945 -0.06967176815964632
2635000000.0 0.9661672228297837 -0.07108087222063003
2640000000.0 0.9660454111155099 -0.07248804343604502
2645000000.0 0.9659207768516951 -0.07389326676140584
2650000000.0 0.9657933314742715 -0.07529652676751727
2655000000.0 0.9656630870753617 -0.07669780765331671
2660000000.0 0.9655300564278502 -0.07809709325967325
2665000000.0 0.9653942530103115 -0.07949436708418761
2670000000.0 0.9652556910323054 -0.08088961229702833
2675000000.0 0.9651143854600122 -0.0822828117578472
2680000000.0 0.9649703520422054 -0.08367394803382318
2685000000.0 0.9648236073365416 -0.0850630034188617
2690000000.0 0.96467416873615 -0.08644995995401748
2695000000.0 0.9645220544965111 -0.08783479944916393
2700000000.0 0.9643672837625936 -0.08921750350596672
2705000000.0 0.9642098765962386 -0.0905980535422108
2710000000.0 0.9640498540037613 -0.0919764308175171
2715000000.0 0.9638872379637432 -0.09335261646051371
2720000000.0 0.9637220514549912 -0.09472659149749424
2725000000.0 0.9635543184846291 -0.09609833688262835
2730000000.0 0.9633840641162945 -0.09746783352976376
2735000000.0 0.9632113144983965 -0.09883506234587808
2740000000.0 0.9630360968924044 -0.10020000426623071
2745000000.0 0.9628584397011272 -0.10156264029126282
2750000000.0 0.9626783724969302 -0.10292295152530963
2755000000.0 0.9624959260498545 -0.10428091921715915
2760000000.0 0.9623111323555845 -0.10563652480253254
2765000000.0 0.9621240246632082 -0.10698974994851888
2770000000.0 0.9619346375027187 -0.10834057660003273
2775000000.0 0.9617430067121958 -0.10968898702834097
2780000000.0 0.9615491694646057 -0.11103496388170807
2785000000.0 0.9613531642941479 -0.11237849023822184
2790000000.0 0.9611550311220842 -0.11371954966084136
2795000000.0 0.9609548112819775 -0.11505812625472667
2800000000.0 0.9607525475442502 -0.11639420472689045
2805000000.0 0.960548284139998 -0.11772777044823494
2810000000.0 0.9603420667839508 -0.11905880951800439
2815000000.0 0.960133942696515 -0.12038730883071475
2820000000.0 0.9599239606247781 -0.12171325614560057
2825000000.0 0.9597121708623927 -0.12303664015861356
2830000000.0 0.9594986252682275 -0.12435745057703025
2835000000.0 0.9592833772836797 -0.12567567819668907
2840000000.0 0.9590664819485328 -0.12699131498191024
2845000000.0 0.9588479959152413 -0.12830435414811808
2850000000.0 0.9586279774615258 -0.12961479024720135
2855000000.0 0.9584064865011411 -0.13092261925564255
2860000000.0 0.9581835845926842 -0.13222783866542784
2865000000.0 0.9579593349463159 -0.13353044757777455
2870000000.0 0.9577338024282367 -0.13483044679966896
2875000000.0 0.9575070535627864 -0.13612783894324795
2880000000.0 0.9572791565319929 -0.13742262852800777
2885000000.0 0.9570501811724362 -0.1387148220858637
2890000000.0 0.9568201989692435 -0.14000442826903298
2895000000.0 0.9565892830470577 -0.14129145796074616
2900000000.0 0.956357508157814 -0.14257592438876368
2905000000.0 0.9561249506651232 -0.1438578432416701
2910000000.0 0.9558916885251122 -0.14513723278792745
2915000000.0 0.9556578012634994 -0.14641411399763155
