#   Hz   S  RI   R   50
!
0.000000e+00 9.653957e-03 0.000000e+00 9.906000e-01 0.000000e+00 9.905627e-01 0.000000e+00 9.621943e-03 0.000000e+00
1.000000e+08 9.655338e-03 2.601033e-05 9.905955e-01 -2.380818e-03 9.905583e-01 -2.380157e-03 9.623458e-03 2.444898e-05
2.000000e+08 9.659477e-03 5.193015e-05 9.905822e-01 -4.761508e-03 9.905451e-01 -4.760191e-03 9.628002e-03 4.880299e-05
3.000000e+08 9.666370e-03 7.766907e-05 9.905599e-01 -7.141945e-03 9.905230e-01 -7.139980e-03 9.635570e-03 7.296719e-05
4.000000e+08 9.676010e-03 1.031369e-04 9.905288e-01 -9.522002e-03 9.904922e-01 -9.519401e-03 9.646154e-03 9.684698e-05
5.000000e+08 9.688386e-03 1.282439e-04 9.904887e-01 -1.190155e-02 9.904525e-01 -1.189833e-02 9.659742e-03 1.203481e-04
6.000000e+08 9.703484e-03 1.529006e-04 9.904399e-01 -1.428047e-02 9.904041e-01 -1.427665e-02 9.676322e-03 1.433769e-04
7.000000e+08 9.721289e-03 1.770184e-04 9.903822e-01 -1.665864e-02 9.903469e-01 -1.665424e-02 9.695874e-03 1.658401e-04
8.000000e+08 9.741779e-03 2.005090e-04 9.903156e-01 -1.903592e-02 9.902810e-01 -1.903098e-02 9.718379e-03 1.876455e-04
9.000000e+08 9.764933e-03 2.232853e-04 9.902404e-01 -2.141221e-02 9.902063e-01 -2.140675e-02 9.743813e-03 2.087013e-04
1.000000e+09 9.790726e-03 2.452607e-04 9.901563e-01 -2.378737e-02 9.901231e-01 -2.378143e-02 9.772148e-03 2.289171e-04
1.100000e+09 9.819128e-03 2.663501e-04 9.900636e-01 -2.616129e-02 9.900311e-01 -2.615491e-02 9.803357e-03 2.482033e-04
1.200000e+09 9.850110e-03 2.864690e-04 9.899622e-01 -2.853385e-02 9.899306e-01 -2.852708e-02 9.837405e-03 2.664717e-04
1.300000e+09 9.883636e-03 3.055346e-04 9.898522e-01 -3.090493e-02 9.898215e-01 -3.089781e-02 9.874258e-03 2.836351e-04
1.400000e+09 9.919672e-03 3.234650e-04 9.897336e-01 -3.327442e-02 9.897040e-01 -3.326700e-02 9.913876e-03 2.996079e-04
1.500000e+09 9.958176e-03 3.401801e-04 9.896065e-01 -3.564221e-02 9.895779e-01 -3.563455e-02 9.956220e-03 3.143061e-04
1.600000e+09 9.999109e-03 3.556011e-04 9.894710e-01 -3.800819e-02 9.894435e-01 -3.800033e-02 1.000125e-02 3.276471e-04
1.700000e+09 1.004242e-02 3.696508e-04 9.893270e-01 -4.037225e-02 9.893007e-01 -4.036426e-02 1.004891e-02 3.395502e-04
1.800000e+09 1.008808e-02 3.822539e-04 9.891747e-01 -4.273428e-02 9.891497e-01 -4.272622e-02 1.009915e-02 3.499363e-04
1.900000e+09 1.013602e-02 3.933366e-04 9.890141e-01 -4.509418e-02 9.889904e-01 -4.508611e-02 1.015193e-02 3.587284e-04
2.000000e+09 1.018619e-02 4.028272e-04 9.888454e-01 -4.745185e-02 9.888229e-01 -4.744385e-02 1.020719e-02 3.658513e-04
2.100000e+09 1.023855e-02 4.106559e-04 9.886685e-01 -4.980720e-02 9.886474e-01 -4.979932e-02 1.026488e-02 3.712319e-04
2.200000e+09 1.029304e-02 4.167549e-04 9.884835e-01 -5.216012e-02 9.884638e-01 -5.215245e-02 1.032493e-02 3.747994e-04
2.300000e+09 1.034960e-02 4.210584e-04 9.882906e-01 -5.451053e-02 9.882723e-01 -5.450314e-02 1.038728e-02 3.764851e-04
2.400000e+09 1.040816e-02 4.235029e-04 9.880897e-01 -5.685834e-02 9.880730e-01 -5.685130e-02 1.045188e-02 3.762224e-04
2.500000e+09 1.046867e-02 4.240271e-04 9.878810e-01 -5.920346e-02 9.878658e-01 -5.919684e-02 1.051866e-02 3.739474e-04
2.600000e+09 1.053107e-02 4.225720e-04 9.876646e-01 -6.154581e-02 9.876509e-01 -6.153970e-02 1.058755e-02 3.695984e-04
2.700000e+09 1.059529e-02 4.190809e-04 9.874406e-01 -6.388531e-02 9.874284e-01 -6.387979e-02 1.065849e-02 3.631162e-04
2.800000e+09 1.066126e-02 4.134995e-04 9.872090e-01 -6.622189e-02 9.871984e-01 -6.621703e-02 1.073139e-02 3.544442e-04
2.900000e+09 1.072891e-02 4.057758e-04 9.869699e-01 -6.855547e-02 9.869609e-01 -6.855136e-02 1.080620e-02 3.435282e-04
3.000000e+09 1.079818e-02 3.958607e-04 9.867234e-01 -7.088598e-02 9.867160e-01 -7.088271e-02 1.088285e-02 3.303169e-04
3.100000e+09 1.086899e-02 3.837071e-04 9.864696e-01 -7.321336e-02 9.864638e-01 -7.321100e-02 1.096124e-02 3.147613e-04
3.200000e+09 1.094128e-02 3.692708e-04 9.862086e-01 -7.553755e-02 9.862045e-01 -7.553619e-02 1.104132e-02 2.968154e-04
3.300000e+09 1.101496e-02 3.525101e-04 9.859406e-01 -7.785849e-02 9.859380e-01 -7.785821e-02 1.112301e-02 2.764357e-04
3.400000e+09 1.108997e-02 3.333858e-04 9.856655e-01 -8.017612e-02 9.856645e-01 -8.017700e-02 1.120622e-02 2.535815e-04
3.500000e+09 1.116623e-02 3.118615e-04 9.853835e-01 -8.249040e-02 9.853841e-01 -8.249252e-02 1.129088e-02 2.282151e-04
3.600000e+09 1.124366e-02 2.879033e-04 9.850947e-01 -8.480127e-02 9.850969e-01 -8.480471e-02 1.137690e-02 2.003012e-04
3.700000e+09 1.132219e-02 2.614801e-04 9.847992e-01 -8.710869e-02 9.848029e-01 -8.711354e-02 1.146422e-02 1.698075e-04
3.800000e+09 1.140173e-02 2.325633e-04 9.844971e-01 -8.941262e-02 9.845023e-01 -8.941896e-02 1.155275e-02 1.367044e-04
3.900000e+09 1.148222e-02 2.011270e-04 9.841884e-01 -9.171303e-02 9.841952e-01 -9.172094e-02 1.164241e-02 1.009653e-04
4.000000e+09 1.156358e-02 1.671481e-04 9.838734e-01 -9.400987e-02 9.838816e-01 -9.401943e-02 1.173311e-02 6.256607e-05
4.100000e+09 1.164572e-02 1.306061e-04 9.835520e-01 -9.630313e-02 9.835617e-01 -9.631442e-02 1.182479e-02 2.148565e-05
4.200000e+09 1.172857e-02 9.148302e-05 9.832244e-01 -9.859277e-02 9.832356e-01 -9.860586e-02 1.191734e-02 -2.229439e-05
4.300000e+09 1.181205e-02 4.976368e-05 9.828907e-01 -1.008788e-01 9.829033e-01 -1.008937e-01 1.201070e-02 -6.878966e-05
4.400000e+09 1.189608e-02 5.435474e-06 9.825510e-01 -1.031611e-01 9.825649e-01 -1.031780e-01 1.210478e-02 -1.180131e-04
4.500000e+09 1.198058e-02 -4.151161e-05 9.822054e-01 -1.054398e-01 9.822205e-01 -1.054587e-01 1.219950e-02 -1.699748e-04
4.600000e+09 1.206547e-02 -9.108500e-05 9.818540e-01 -1.077148e-01 9.818703e-01 -1.077358e-01 1.229478e-02 -2.246823e-04
4.700000e+09 1.215068e-02 -1.432896e-04 9.814968e-01 -1.099861e-01 9.815143e-01 -1.100093e-01 1.239054e-02 -2.821404e-04
4.800000e+09 1.223613e-02 -1.981276e-04 9.811340e-01 -1.122537e-01 9.811527e-01 -1.122791e-01 1.248669e-02 -3.423513e-04
4.900000e+09 1.232174e-02 -2.555991e-04 9.807657e-01 -1.145176e-01 9.807854e-01 -1.145453e-01 1.258317e-02 -4.053145e-04
5.000000e+09 1.240743e-02 -3.157013e-04 9.803919e-01 -1.167778e-01 9.804127e-01 -1.168078e-01 1.267988e-02 -4.710273e-04
5.100000e+09 1.249313e-02 -3.784293e-04 9.800128e-01 -1.190343e-01 9.800345e-01 -1.190667e-01 1.277675e-02 -5.394840e-04
5.200000e+09 1.257876e-02 -4.437757e-04 9.796284e-01 -1.212872e-01 9.796510e-01 -1.213220e-01 1.287370e-02 -6.106769e-04
5.300000e+09 1.266426e-02 -5.117308e-04 9.792389e-01 -1.235363e-01 9.792623e-01 -1.235736e-01 1.297066e-02 -6.845955e-04
5.400000e+09 1.274953e-02 -5.822825e-04 9.788443e-01 -1.257818e-01 9.788684e-01 -1.258216e-01 1.306755e-02 -7.612273e-04
5.500000e+09 1.283452e-02 -6.554168e-04 9.784447e-01 -1.280236e-01 9.784695e-01 -1.280660e-01 1.316429e-02 -8.405573e-04
5.600000e+09 1.291915e-02 -7.311172e-04 9.780402e-01 -1.302618e-01 9.780656e-01 -1.303068e-01 1.326081e-02 -9.225681e-04
5.700000e+09 1.300335e-02 -8.093651e-04 9.776309e-01 -1.324964e-01 9.776568e-01 -1.325441e-01 1.335704e-02 -1.007241e-03
5.800000e+09 1.308705e-02 -8.901402e-04 9.772169e-01 -1.347274e-01 9.772433e-01 -1.347777e-01 1.345290e-02 -1.094553e-03
5.900000e+09 1.317018e-02 -9.734197e-04 9.767982e-01 -1.369548e-01 9.768249e-01 -1.370079e-01 1.354834e-02 -1.184482e-03
6.000000e+09 1.325268e-02 -1.059179e-03 9.763749e-01 -1.391787e-01 9.764019e-01 -1.392345e-01 1.364327e-02 -1.277002e-03
6.100000e+09 1.333447e-02 -1.147392e-03 9.759471e-01 -1.413991e-01 9.759744e-01 -1.414577e-01 1.373762e-02 -1.372085e-03
6.200000e+09 1.341550e-02 -1.238030e-03 9.755149e-01 -1.436160e-01 9.755423e-01 -1.436774e-01 1.383135e-02 -1.469703e-03
6.300000e+09 1.349570e-02 -1.331064e-03 9.750783e-01 -1.458294e-01 9.751058e-01 -1.458937e-01 1.392437e-02 -1.569823e-03
6.400000e+09 1.357501e-02 -1.426462e-03 9.746375e-01 -1.480395e-01 9.746649e-01 -1.481065e-01 1.401663e-02 -1.672414e-03
6.500000e+09 1.365337e-02 -1.524189e-03 9.741924e-01 -1.502462e-01 9.742197e-01 -1.503161e-01 1.410806e-02 -1.777440e-03
6.600000e+09 1.373073e-02 -1.624213e-03 9.737431e-01 -1.524496e-01 9.737702e-01 -1.525223e-01 1.419861e-02 -1.884866e-03
6.700000e+09 1.380701e-02 -1.726496e-03 9.732898e-01 -1.546497e-01 9.733166e-01 -1.547252e-01 1.428822e-02 -1.994654e-03
6.800000e+09 1.388218e-02 -1.831000e-03 9.728324e-01 -1.568465e-01 9.728589e-01 -1.569249e-01 1.437683e-02 -2.106765e-03
6.900000e+09 1.395617e-02 -1.937687e-03 9.723710e-01 -1.590402e-01 9.723971e-01 -1.591213e-01 1.446439e-02 -2.221158e-03
7.000000e+09 1.402894e-02 -2.046516e-03 9.719057e-01 -1.612306e-01 9.719312e-01 -1.613147e-01 1.455084e-02 -2.337793e-03
7.100000e+09 1.410043e-02 -2.157446e-03 9.714366e-01 -1.634180e-01 9.714615e-01 -1.635048e-01 1.463613e-02 -2.456626e-03
7.200000e+09 1.417059e-02 -2.270433e-03 9.709636e-01 -1.656023e-01 9.709878e-01 -1.656919e-01 1.472022e-02 -2.577614e-03
7.300000e+09 1.423938e-02 -2.385435e-03 9.704868e-01 -1.677836e-01 9.705103e-01 -1.678760e-01 1.480306e-02 -2.700711e-03
7.400000e+09 1.430676e-02 -2.502406e-03 9.700063e-01 -1.699620e-01 9.700290e-01 -1.700571e-01 1.488459e-02 -2.825872e-03
7.500000e+09 1.437267e-02 -2.621301e-03 9.695222e-01 -1.721374e-01 9.695439e-01 -1.722353e-01 1.496479e-02 -2.953049e-03
7.600000e+09 1.443709e-02 -2.742073e-03 9.690343e-01 -1.743099e-01 9.690551e-01 -1.744105e-01 1.504360e-02 -3.082195e-03
7.700000e+09 1.449996e-02 -2.864675e-03 9.685429e-01 -1.764797e-01 9.685626e-01 -1.765829e-01 1.512099e-02 -3.213262e-03
7.800000e+09 1.456125e-02 -2.989058e-03 9.680479e-01 -1.786467e-01 9.680664e-01 -1.787525e-01 1.519692e-02 -3.346200e-03
7.900000e+09 1.462093e-02 -3.115175e-03 9.675493e-01 -1.808109e-01 9.675666e-01 -1.809194e-01 1.527135e-02 -3.480960e-03
8.000000e+09 1.467895e-02 -3.242976e-03 9.670472e-01 -1.829725e-01 9.670633e-01 -1.830836e-01 1.534425e-02 -3.617491e-03
8.100000e+09 1.473530e-02 -3.372411e-03 9.665417e-01 -1.851315e-01 9.665564e-01 -1.852451e-01 1.541559e-02 -3.755743e-03
8.200000e+09 1.478993e-02 -3.503430e-03 9.660326e-01 -1.872880e-01 9.660460e-01 -1.874040e-01 1.548534e-02 -3.895665e-03
8.300000e+09 1.484282e-02 -3.635982e-03 9.655201e-01 -1.894419e-01 9.655320e-01 -1.895603e-01 1.555346e-02 -4.037205e-03
8.400000e+09 1.489394e-02 -3.770017e-03 9.650043e-01 -1.915934e-01 9.650146e-01 -1.917142e-01 1.561993e-02 -4.180311e-03
8.500000e+09 1.494326e-02 -3.905483e-03 9.644850e-01 -1.937424e-01 9.644938e-01 -1.938656e-01 1.568473e-02 -4.324932e-03
8.600000e+09 1.499077e-02 -4.042329e-03 9.639623e-01 -1.958891e-01 9.639695e-01 -1.960146e-01 1.574784e-02 -4.471016e-03
8.700000e+09 1.503644e-02 -4.180503e-03 9.634362e-01 -1.980336e-01 9.634417e-01 -1.981612e-01 1.580923e-02 -4.618510e-03
8.800000e+09 1.508025e-02 -4.319954e-03 9.629068e-01 -2.001757e-01 9.629106e-01 -2.003055e-01 1.586888e-02 -4.767362e-03
8.900000e+09 1.512218e-02 -4.460630e-03 9.623741e-01 -2.023157e-01 9.623760e-01 -2.024476e-01 1.592677e-02 -4.917521e-03
9.000000e+09 1.516222e-02 -4.602480e-03 9.618380e-01 -2.044535e-01 9.618381e-01 -2.045875e-01 1.598290e-02 -5.068934e-03
9.100000e+09 1.520035e-02 -4.745452e-03 9.612985e-01 -2.065892e-01 9.612968e-01 -2.067251e-01 1.603725e-02 -5.221549e-03
9.200000e+09 1.523655e-02 -4.889495e-03 9.607557e-01 -2.087228e-01 9.607521e-01 -2.088607e-01 1.608980e-02 -5.375315e-03
9.300000e+09 1.527082e-02 -5.034558e-03 9.602096e-01 -2.108545e-01 9.602041e-01 -2.109942e-01 1.614054e-02 -5.530181e-03
9.400000e+09 1.530315e-02 -5.180590e-03 9.596602e-01 -2.129841e-01 9.596526e-01 -2.131256e-01 1.618946e-02 -5.686096e-03
9.500000e+09 1.533352e-02 -5.327540e-03 9.591074e-01 -2.151119e-01 9.590978e-01 -2.152551e-01 1.623657e-02 -5.843009e-03
9.600000e+09 1.536193e-02 -5.475359e-03 9.585512e-01 -2.172377e-01 9.585397e-01 -2.173826e-01 1.628184e-02 -6.000870e-03
9.700000e+09 1.538838e-02 -5.623996e-03 9.579917e-01 -2.193618e-01 9.579781e-01 -2.195083e-01 1.632529e-02 -6.159629e-03
9.800000e+09 1.541286e-02 -5.773402e-03 9.574289e-01 -2.214840e-01 9.574132e-01 -2.216320e-01 1.636689e-02 -6.319237e-03
9.900000e+09 1.543536e-02 -5.923528e-03 9.568627e-01 -2.236045e-01 9.568449e-01 -2.237540e-01 1.640666e-02 -6.479646e-03
1.000000e+10 1.545590e-02 -6.074326e-03 9.562931e-01 -2.257233e-01 9.562733e-01 -2.258741e-01 1.644460e-02 -6.640808e-03
1.010000e+10 1.547446e-02 -6.225748e-03 9.557201e-01 -2.278404e-01 9.556982e-01 -2.279925e-01 1.648069e-02 -6.802675e-03
1.020000e+10 1.549105e-02 -6.377747e-03 9.551438e-01 -2.299558e-01 9.551197e-01 -2.301092e-01 1.651496e-02 -6.965201e-03
1.030000e+10 1.550567e-02 -6.530276e-03 9.545640e-01 -2.320697e-01 9.545378e-01 -2.322243e-01 1.654739e-02 -7.128339e-03
1.040000e+10 1.551833e-02 -6.683290e-03 9.539808e-01 -2.341820e-01 9.539524e-01 -2.343377e-01 1.657801e-02 -7.292045e-03
1.050000e+10 1.552903e-02 -6.836743e-03 9.533941e-01 -2.362927e-01 9.533636e-01 -2.364495e-01 1.660681e-02 -7.456275e-03
1.060000e+10 1.553778e-02 -6.990590e-03 9.528040e-01 -2.384020e-01 9.527714e-01 -2.385597e-01 1.663380e-02 -7.620983e-03
1.070000e+10 1.554458e-02 -7.144789e-03 9.522103e-01 -2.405098e-01 9.521756e-01 -2.406684e-01 1.665899e-02 -7.786129e-03
1.080000e+10 1.554945e-02 -7.299296e-03 9.516132e-01 -2.426161e-01 9.515764e-01 -2.427755e-01 1.668239e-02 -7.951670e-03
1.090000e+10 1.555239e-02 -7.454068e-03 9.510125e-01 -2.447210e-01 9.509736e-01 -2.448812e-01 1.670402e-02 -8.117564e-03
1.100000e+10 1.555343e-02 -7.609066e-03 9.504083e-01 -2.468245e-01 9.503673e-01 -2.469855e-01 1.672388e-02 -8.283773e-03
1.110000e+10 1.555255e-02 -7.764248e-03 9.498005e-01 -2.489267e-01 9.497574e-01 -2.490883e-01 1.674198e-02 -8.450256e-03
1.120000e+10 1.554979e-02 -7.919576e-03 9.491891e-01 -2.510275e-01 9.491440e-01 -2.511897e-01 1.675835e-02 -8.616977e-03
1.130000e+10 1.554516e-02 -8.075009e-03 9.485741e-01 -2.531270e-01 9.485270e-01 -2.532897e-01 1.677300e-02 -8.783897e-03
1.140000e+10 1.553867e-02 -8.230512e-03 9.479555e-01 -2.552252e-01 9.479063e-01 -2.553883e-01 1.678594e-02 -8.950980e-03
1.150000e+10 1.553033e-02 -8.386046e-03 9.473332e-01 -2.573221e-01 9.472820e-01 -2.574856e-01 1.679719e-02 -9.118191e-03
1.160000e+10 1.552016e-02 -8.541576e-03 9.467071e-01 -2.594177e-01 9.466540e-01 -2.595816e-01 1.680677e-02 -9.285496e-03
1.170000e+10 1.550819e-02 -8.697068e-03 9.460774e-01 -2.615120e-01 9.460223e-01 -2.616763e-01 1.681469e-02 -9.452863e-03
1.180000e+10 1.549442e-02 -8.852488e-03 9.454439e-01 -2.636052e-01 9.453870e-01 -2.637696e-01 1.682098e-02 -9.620258e-03
1.190000e+10 1.547887e-02 -9.007802e-03 9.448066e-01 -2.656971e-01 9.447478e-01 -2.658617e-01 1.682565e-02 -9.787651e-03
1.200000e+10 1.546158e-02 -9.162978e-03 9.441655e-01 -2.677877e-01 9.441049e-01 -2.679526e-01 1.682872e-02 -9.955011e-03
1.210000e+10 1.544254e-02 -9.317987e-03 9.435206e-01 -2.698772e-01 9.434582e-01 -2.700421e-01 1.683022e-02 -1.012231e-02
1.220000e+10 1.542179e-02 -9.472798e-03 9.428718e-01 -2.719655e-01 9.428077e-01 -2.721305e-01 1.683017e-02 -1.028952e-02
1.230000e+10 1.539935e-02 -9.627382e-03 9.422192e-01 -2.740526e-01 9.421534e-01 -2.742176e-01 1.682858e-02 -1.045662e-02
1.240000e+10 1.537524e-02 -9.781711e-03 9.415626e-01 -2.761385e-01 9.414951e-01 -2.763034e-01 1.682548e-02 -1.062357e-02
1.250000e+10 1.534947e-02 -9.935758e-03 9.409021e-01 -2.782232e-01 9.408330e-01 -2.783881e-01 1.682089e-02 -1.079036e-02
1.260000e+10 1.532208e-02 -1.008950e-02 9.402376e-01 -2.803067e-01 9.401670e-01 -2.804715e-01 1.681484e-02 -1.095695e-02
1.270000e+10 1.529308e-02 -1.024291e-02 9.395691e-01 -2.823891e-01 9.394970e-01 -2.825537e-01 1.680734e-02 -1.112334e-02
1.280000e+10 1.526250e-02 -1.039596e-02 9.388966e-01 -2.844702e-01 9.388230e-01 -2.846347e-01 1.679843e-02 -1.128949e-02
1.290000e+10 1.523035e-02 -1.054863e-02 9.382201e-01 -2.865502e-01 9.381450e-01 -2.867145e-01 1.678811e-02 -1.145538e-02
1.300000e+10 1.519668e-02 -1.070090e-02 9.375394e-01 -2.886290e-01 9.374630e-01 -2.887931e-01 1.677643e-02 -1.162101e-02
1.310000e+10 1.516148e-02 -1.085275e-02 9.368547e-01 -2.907066e-01 9.367770e-01 -2.908705e-01 1.676339e-02 -1.178634e-02
1.320000e+10 1.512480e-02 -1.100416e-02 9.361658e-01 -2.927830e-01 9.360868e-01 -2.929467e-01 1.674904e-02 -1.195136e-02
1.330000e+10 1.508665e-02 -1.115511e-02 9.354728e-01 -2.948582e-01 9.353926e-01 -2.950216e-01 1.673337e-02 -1.211605e-02
1.340000e+10 1.504707e-02 -1.130558e-02 9.347756e-01 -2.969322e-01 9.346942e-01 -2.970953e-01 1.671644e-02 -1.228040e-02
1.350000e+10 1.500606e-02 -1.145556e-02 9.340743e-01 -2.990050e-01 9.339917e-01 -2.991678e-01 1.669825e-02 -1.244440e-02
1.360000e+10 1.496366e-02 -1.160502e-02 9.333686e-01 -3.010766e-01 9.332851e-01 -3.012390e-01 1.667883e-02 -1.260803e-02
1.370000e+10 1.491989e-02 -1.175396e-02 9.326588e-01 -3.031469e-01 9.325742e-01 -3.033090e-01 1.665820e-02 -1.277127e-02
1.380000e+10 1.487478e-02 -1.190236e-02 9.319447e-01 -3.052160e-01 9.318591e-01 -3.053778e-01 1.663640e-02 -1.293412e-02
1.390000e+10 1.482835e-02 -1.205020e-02 9.312262e-01 -3.072838e-01 9.311398e-01 -3.074453e-01 1.661343e-02 -1.309657e-02
1.400000e+10 1.478062e-02 -1.219748e-02 9.305035e-01 -3.093504e-01 9.304162e-01 -3.095115e-01 1.658934e-02 -1.325860e-02
1.410000e+10 1.473162e-02 -1.234418e-02 9.297764e-01 -3.114156e-01 9.296883e-01 -3.115764e-01 1.656413e-02 -1.342021e-02
1.420000e+10 1.468136e-02 -1.249029e-02 9.290450e-01 -3.134796e-01 9.289562e-01 -3.136400e-01 1.653783e-02 -1.358139e-02
1.430000e+10 1.462989e-02 -1.263581e-02 9.283092e-01 -3.155422e-01 9.282197e-01 -3.157024e-01 1.651047e-02 -1.374213e-02
1.440000e+10 1.457721e-02 -1.278072e-02 9.275690e-01 -3.176035e-01 9.274788e-01 -3.177633e-01 1.648207e-02 -1.390243e-02
1.450000e+10 1.452335e-02 -1.292501e-02 9.268244e-01 -3.196635e-01 9.267336e-01 -3.198230e-01 1.645265e-02 -1.406228e-02
1.460000e+10 1.446834e-02 -1.306868e-02 9.260754e-01 -3.217221e-01 9.259841e-01 -3.218813e-01 1.642223e-02 -1.422167e-02
1.470000e+10 1.441219e-02 -1.321172e-02 9.253220e-01 -3.237792e-01 9.252301e-01 -3.239382e-01 1.639083e-02 -1.438060e-02
1.480000e+10 1.435494e-02 -1.335413e-02 9.245641e-01 -3.258350e-01 9.244717e-01 -3.259937e-01 1.635849e-02 -1.453907e-02
1.490000e+10 1.429660e-02 -1.349590e-02 9.238017e-01 -3.278894e-01 9.237089e-01 -3.280478e-01 1.632520e-02 -1.469708e-02
1.500000e+10 1.423719e-02 -1.363702e-02 9.230348e-01 -3.299423e-01 9.229417e-01 -3.301005e-01 1.629101e-02 -1.485462e-02
1.510000e+10 1.417673e-02 -1.377750e-02 9.222634e-01 -3.319937e-01 9.221700e-01 -3.321517e-01 1.625593e-02 -1.501169e-02
1.520000e+10 1.411526e-02 -1.391732e-02 9.214875e-01 -3.340436e-01 9.213938e-01 -3.342015e-01 1.621997e-02 -1.516830e-02
1.530000e+10 1.405278e-02 -1.405649e-02 9.207071e-01 -3.360920e-01 9.206131e-01 -3.362497e-01 1.618316e-02 -1.532443e-02
1.540000e+10 1.398932e-02 -1.419501e-02 9.199222e-01 -3.381389e-01 9.198280e-01 -3.382965e-01 1.614552e-02 -1.548010e-02
1.550000e+10 1.392490e-02 -1.433287e-02 9.191327e-01 -3.401843e-01 9.190383e-01 -3.403417e-01 1.610706e-02 -1.563530e-02
1.560000e+10 1.385954e-02 -1.447007e-02 9.183387e-01 -3.422280e-01 9.182442e-01 -3.423854e-01 1.606781e-02 -1.579004e-02
1.570000e+10 1.379325e-02 -1.460662e-02 9.175402e-01 -3.442701e-01 9.174455e-01 -3.444275e-01 1.602778e-02 -1.594431e-02
1.580000e+10 1.372606e-02 -1.474251e-02 9.167370e-01 -3.463107e-01 9.166423e-01 -3.464681e-01 1.598698e-02 -1.609812e-02
1.590000e+10 1.365799e-02 -1.487774e-02 9.159293e-01 -3.483495e-01 9.158345e-01 -3.485070e-01 1.594544e-02 -1.625148e-02
1.600000e+10 1.358904e-02 -1.501232e-02 9.151170e-01 -3.503867e-01 9.150222e-01 -3.505443e-01 1.590317e-02 -1.640439e-02
1.610000e+10 1.351925e-02 -1.514625e-02 9.143002e-01 -3.524222e-01 9.142054e-01 -3.525799e-01 1.586019e-02 -1.655685e-02
1.620000e+10 1.344863e-02 -1.527953e-02 9.134787e-01 -3.544560e-01 9.133840e-01 -3.546138e-01 1.581651e-02 -1.670886e-02
1.630000e+10 1.337719e-02 -1.541217e-02 9.126527e-01 -3.564880e-01 9.125580e-01 -3.566460e-01 1.577215e-02 -1.686043e-02
