#   Hz   S  RI   R   50
!
0.0 0.004823755928088483 0.0 0.9953822533527695 0.0 0.9954356925057437 0.0 0.004771804829772515 0.0
100000000.0 0.00482394700939266 1.9373668503500907e-06 0.9953816412317603 -0.000812216799991945 0.9954350456706355 -0.0008141779846071773 0.004772015253914242 3.341599013684411e-06
200000000.0 0.004824520177521726 3.867429356176471e-06 0.9953798050218776 -0.0016244203359431363 0.9954331053604988 -0.001628340287430131 0.0047726464345540206 6.674801174205137e-06
300000000.0 0.0048254752051673944 5.782886687229411e-06 0.9953767451824388 -0.002436597351850447 0.9954298721607246 -0.0024424712376814885 0.004773698096399521 9.991214130887868e-06
400000000.0 0.004826811713634312 7.676445039189329e-06 0.9953724624785945 -0.0032487346077790693 0.9954253470464101 -0.003256555186556555 0.004775169780834344 1.328245453414863e-05
500000000.0 0.00482852917306547 9.540821140082423e-06 0.9953669579807591 -0.004060818887879309 0.9954195313815177 -0.004070576518197144 0.004777060846228448 1.6540152526523706e-05
600000000.0 0.004830626902761513 1.1368745748944407e-05 0.9953602330638182 -0.0048728370083824905 0.9954124269177109 -0.004884519660622401 0.004779370468370207 1.9755956222267166e-05
700000000.0 0.004833104071585581 1.315296714385838e-05 0.995352289406105 -0.005684775825569345 0.995404035792851 -0.005698369096615899 0.004782097641018654 2.292153617160511e-05
800000000.0 0.004835959698458662 1.4886254597097283e-05 0.9953431289881558 -0.00649662224370359 0.9953943605291703 -0.006512109374557533 0.004785241176582319 2.602858980618607e-05
900000000.0 0.004839192652950906 1.6561401834850804e-05 0.9953327540912443 -0.00730836322292418 0.9953834040311111 -0.007325725119190546 0.004788799706914392 2.906884586154048e-05
1000000000.0 0.004842801655949337 1.8171230478278792e-05 0.995321167295686 -0.008119985787089532 0.9953711695828453 -0.008139201042311823 0.004792771684231287 3.203406877330165e-05
1100000000.0 0.00484678528042563 1.9708593464576996e-05 0.9953083714789325 -0.008931477031566555 0.9953576608454692 -0.00895252195337554 0.004797155382150621 3.491606304320624e-05
1200000000.0 0.004851141952283614 2.1166378444288277e-05 0.9952943698134391 -0.009742824130958385 0.9953428818538792 -0.00976567276999963 0.004801948896844826 3.7706677571344824e-05
1300000000.0 0.0048558699512953035 2.2537511153285244e-05 0.9952791657643195 -0.010554014346764071 0.9953268370133341 -0.010578638528364848 0.004807150148315499 4.0397809951208804e-05
1400000000.0 0.004860967412124422 2.3814958756499664e-05 0.9952627630867894 -0.01136503503496346 0.9953095310957047 -0.011391404393495733 0.004812756881778899 4.298141072325828e-05
1500000000.0 0.004866432325432605 2.499173316122149e-05 0.9952451658233944 -0.01217587365352093 0.9952909692354175 -0.01220395566941403 0.004818766669171323 4.54494875855688e-05
1600000000.0 0.004872262539069267 2.6060894297482596e-05 0.9952263783010309 -0.012986517769802386 0.9952711569250947 -0.013016277809155043 0.00482517691076041 4.779410955476481e-05
1700000000.0 0.004878455759343985 2.701555336301155e-05 0.9952064051277634 -0.013796955067898232 0.9952501000109006 -0.01382835642463593 0.004831984836872392 5.0007411077551465e-05
1800000000.0 0.00488500955238393 2.7848876031159816e-05 0.9951852511894387 -0.01460717335584689 0.9952278046875934 -0.01464017729636816 0.004839187509727741 5.208159608697446e-05
1900000000.0 0.004891921345565118 2.855408561831002e-05 0.9951629216460983 -0.015417160572753084 0.9952042774932923 -0.015451726383004169 0.004846781825380033 5.400894200125699e-05
2000000000.0 0.004899188429027094 2.9124466210036486e-05 0.9951394219282018 -0.016226904795793928 0.9951795253039646 -0.01626298983070872 0.004854764515762677 5.578180366196144e-05
2100000000.0 0.004906807957264906 2.9553365742514596e-05 0.9951147577326498 -0.017036394247109406 0.9951535553276389 -0.01707395398234777 0.004863132150842376 5.739261720861558e-05
2200000000.0 0.004914776950794491 2.9834199038035046e-05 0.9950889350186289 -0.01784561730056801 0.9951263750983531 -0.017884605386484093 0.0048718811408636955 5.883390388613448e-05
2300000000.0 0.00492309229789526 2.996045079204855e-05 0.9950619600032667 -0.01865456248840655 0.9950979924698408 -0.018694930806174195 0.004881007738700854 6.009827378315647e-05
2400000000.0 0.004931750756423123 2.9925678509601456e-05 0.9950338391571092 -0.01946321850773493 0.9950684156089665 -0.01950491722755581 0.004890508042301024 6.1178429497616e-05
2500000000.0 0.004940748955699107 2.9723515390573623e-05 0.9950045791994246 -0.02027157422690329 0.9950376529889114 -0.020314551868220957 0.004900377997221476 6.206716972776776e-05
2600000000.0 0.004950083398461756 2.9347673159091808e-05 0.9949741870933339 -0.021079618691725442 0.9950057133821283 -0.021123822185364682 0.004910613399259017 6.275739278498175e-05
2700000000.0 0.00495975046289316 2.8791944838699873e-05 0.9949426700407804 -0.021887341131554112 0.99497260585306 -0.021932715883704327 0.004921209897164644 6.324210002681679e-05
2800000000.0 0.004969746404705196 2.8050207468203032e-05 0.9949100354773345 -0.02269473096520323 0.9949383397506422 -0.022741220923161796 0.004932162995446738 6.351439920779004e-05
2900000000.0 0.004980067359297177 2.7116424759679526e-05 0.9948762910668445 -0.02350177780671276 0.9949029247005862 -0.023549325526302296 0.0049434680572552365 6.356750774488702e-05
3000000000.0 0.0049907093439699995 2.598464969396976e-05 0.9948414446959383 -0.024308471470952563 0.9948663705974632 -0.024357018185523226 0.004955120307344766 6.339475589653723e-05
3100000000.0 0.0050016682602022425 2.4649027054512887e-05 0.9948055044683756 -0.02511480197906018 0.9948286875965895 -0.02516428766998891 0.004967114835116142 6.298958985248641e-05
3200000000.0 0.005012939895987099 2.310379589665835e-05 0.9947684786992663 -0.02592075956370852 0.9947898861057236 -0.025971123032302618 0.004979446597730446 6.23455747327268e-05
3300000000.0 0.005024519928221831 2.134329195143328e-05 0.9947303759091493 -0.02672633467420135 0.9947499767765877 -0.026777513614914657 0.004992110423293542 6.145639749401869e-05
3400000000.0 0.00503640392515769 1.936194996279681e-05 0.9946912048179452 -0.027531517981391078 0.994708970496217 -0.02758344905625823 0.005005101014109534 6.031586974112035e-05
3500000000.0 0.005048587348893774 1.7154305955917382e-05 0.9946509743387845 -0.02833630038241722 0.9946668783781528 -0.028388919296610745 0.005018412949998753 5.8917930443238236e-05
3600000000.0 0.00506106555792994 1.4714999437063322e-05 0.9946096935717181 -0.02914067300526067 0.9946237117534813 -0.02919391458367614 0.005032040691673784 5.7256648551691845e-05
3700000000.0 0.005073833809760452 1.2038775521949163e-05 0.9945673717973205 -0.029944627213112644 0.9945794821617354 -0.029998425477882826 0.005045978584178482 5.532622551944644e-05
3800000000.0 0.005086887263519526 9.120486993163902e-06 0.9945240184701797 -0.030748154608554113 0.9945342013416608 -0.030802442857396556 0.005060220860378539 5.3120997720076214e-05
3900000000.0 0.0051002209826661 5.95509628479819e-06 0.9944796432122949 -0.03155124703754438 0.9944878812218647 -0.031605957922842653 0.005074761644504805 5.0635438765957797e-05
4000000000.0 0.0051138299377139615 2.5376773934724524e-06 0.9944342558063741 -0.032353896593215 0.9944405339113497 -0.03240896220173651 0.005089594955744816 4.786416172313834e-05
4100000000.0 0.005127709008997833 -1.1365822849681849e-06 0.9943878661890511 -0.03315609561946948 0.9943921716899446 -0.033211447552619566 0.005104714711880443 4.4801921224448565e-05
4200000000.0 0.005141852989479379 -5.072380194024665e-06 0.9943404844440136 -0.033957836714382586 0.9943428069986475 -0.03401340616889682 0.005120114732965028 4.14436154767872e-05
4300000000.0 0.00515625658758518 -9.274296930459107e-06 0.9942921207950589 -0.034759112733403146 0.9942924524298784 -0.034814830582379004 0.005135788745042356 3.7784288166014674e-05
4400000000.0 0.005170914430081916 -1.3746794635519698e-05 0.9942427855990856 -0.03555991679235306 0.9942411207176652 -0.035615713666521914 0.005151730383897836 3.3819130253912923e-05
4500000000.0 0.005185821064976797 -1.8494215462143627e-05 0.9941924893390112 -0.036360242270226384 0.9941888247277652 -0.036416048639366094 0.005167933198845218 2.9543481672416706e-05
4600000000.0 0.005200970964448814 -2.3520780121051578e-05 0.9941412426166429 -0.03716008281178292 0.9941355774477287 -0.03721582906617648 0.005184390656536494 2.4952832908303567e-05
4700000000.0 0.005216358527806494 -2.8830586502998132e-05 0.9940890561454916 -0.03795943232993907 0.9940813919769251 -0.03801504886177728 0.005201096144805616 2.0042826485897403e-05
4800000000.0 0.0052319780844676846 -3.442760838071039e-05 0.9940359407435456 -0.03875828500795244 0.9940262815165304 -0.03881370229258744 0.005218042976525933 1.4809258339150668e-05
4900000000.0 0.00524782389696092 -4.0315694188821595e-05 0.9939819073260016 -0.03955663530140215 0.9939702593594902 -0.0396117839783547 0.005235224393492396 9.2480790808585e-06
5000000000.0 0.005263890163946766 -4.6498565882260485e-05 0.9939269668979673 -0.04035447793996158 0.9939133388804703 -0.040409288893586026 0.005252633570317763 3.35539516304653e-06
5100000000.0 0.005280171023255451 -5.297981787340514e-05 0.9938711305471352 -0.04115180792896728 0.9938555335257984 -0.04120621236868163 0.005270263618342009 -2.8725300671883216e-06
5200000000.0 0.005296660554939251 -5.976291604931071e-05 0.9938144094364385 -0.04194862055077967 0.9937968568034126 -0.042002550090767955 0.005288107589550268 -9.439275417891127e-06
5300000000.0 0.005313352784336914 -6.685119686541782e-05 0.9937568147966922 -0.04274491136594064 0.9937373222728187 -0.04279829810423482 0.0053061584804997095 -1.6348261008050134e-05
5400000000.0 0.0053302416851493395 -7.424786652081788e-05 0.9936983579192245 -0.043540676214123414 0.9936769435350735 -0.04359345281097633 0.005324409236246909 -2.3602747529215413e-05
5500000000.0 0.005347321182522021 -8.195600020930984e-05 0.9936390501485097 -0.044335911214879835 0.9936157342227974 -0.04438801097033926 0.005342852754279102 -3.1205835608377716e-05
5600000000.0 0.005364585156134953 -8.997854145156465e-05 0.9935789028748038 -0.04513061276818284 0.9935537079902236 -0.04518196969878128 0.005361481888439858 -3.9160465278568655e-05
5700000000.0 0.00538202744329346 -9.83183015036892e-05 0.9935179275267887 -0.0459247775547671 0.9934908785033034 -0.0459753264692397 0.005380289452851789 -4.74694155487539e-05
5800000000.0 0.005399641842026115 -0.00010697795884328983 0.9934561355642325 -0.04671840253626667 0.9934272594298619 -0.04676807911021626 0.005399268225830524 -5.613530407790594e-05
5900000000.0 0.005417422114175061 -0.00011596005873459846 0.9933935384706717 -0.04751148495515484 0.9933628644298188 -0.04756022580458102 0.005418410953786396 -6.516058694915763e-05
6000000000.0 0.005435361988489356 -0.00012526701286939932 0.9933301477461219 -0.04830402233448205 0.9932977071454903 -0.04835176508809463 0.0054377103551149115 -7.45475585439015e-05
6100000000.0 0.00545345516371268 -0.0001349010990840293 0.9932659748998174 -0.049096012477420105 0.9932318011919637 -0.049142695847660116 0.005457159124068876 -8.429835151567673e-05
6200000000.0 0.00547169531166204 -0.00014486446115319668 0.9932010314429915 -0.04988745346660899 0.9931651601475676 -0.04993301731930101 0.005476749934611078 -9.441493686102107e-05
6300000000.0 0.0054900760803020645 -0.0001551591086583947 0.9931353288816996 -0.05067834366331073 0.9930977975444378 -0.05072272908587372 0.005496475444248981 -0.0001048991240869722
6400000000.0 0.005508591096804623 -0.00016578691693101602 0.9930688787096915 -0.05146868170637324 0.9930297268591871 -0.05151183107451845 0.0055163282978411155 -0.00011575256147431641
6500000000.0 0.005527233970599901 -0.0001767496270692444 0.9930016924013364 -0.05225846651100376 0.9929609615036885 -0.05230032355385095 0.005536301131379129 -0.00012697673643416292
6600000000.0 0.0055459982964116885 -0.00018804884602810346 0.9929337814046062 -0.053047697267358425 0.992891514815977 -0.05308820713090421 0.0055563865757419515 -0.00013857297595723427
6700000000.0 0.0055648776572752995 -0.00019968604678189856 0.9928651571341277 -0.0538363734389444 0.9928214000512782 -0.05387548274781827 0.0055765772604159216 -0.00015054244715448017
6800000000.0 0.0055838656275413396 -0.00021166256855694864 0.992795830964296 -0.05462449476084429 0.9927506303731684 -0.054662151678291485 0.0055968658171847135 -0.00016288615788599835
6900000000.0 0.00560295577585672 -0.00022397961713668588 0.9927258142224683 -0.05541206123775971 0.9926792188448758 -0.055448215523791144 0.005617244883781838 -0.00017560495747945113
7000000000.0 0.005622141668126111 -0.00023663826523418908 0.9926551181822304 -0.056199073141881786 0.9926071784207271 -0.056233676209534435 0.005637707107507777 -0.00018869953753282965
7100000000.0 0.005641416870450959 -0.000249639452934496 0.9925837540567528 -0.05698553101058597 0.9925345219377446 -0.05701853598024066 0.0056582451488028694 -0.0002021704328043249
7200000000.0 0.005660774952042898 -0.0002629839882041555 0.992511732992224 -0.05777143564396221 0.9924612621073985 -0.05780279739566675 0.005678851684785705 -0.00021601802218201957
7300000000.0 0.005680209488111772 -0.0002766725474668691 0.9924390660613868 -0.05855678810217382 0.9923874115075301 -0.058586463325922766 0.00569951941274199 -0.00023024252973634373
7400000000.0 0.005699714062727164 -0.0002907056762446479 0.9923657642571599 -0.05934158970265877 0.9923129825744347 -0.05936953694658347 0.0057202410535716255 -0.00024484402585277026
7500000000.0 0.005719282271649501 -0.0003050837898627101 0.9922918384863676 -0.06012584201716768 0.9922379875951213 -0.06015202173359494 0.005741009355188012 -0.0002598224284396692
7600000000.0 0.005738907725131014 -0.00031980717421890555 0.992217299563564 -0.060909546868651465 0.9921624386997547 -0.06093392145798553 0.005761817095869123 -0.000275177504213232
7700000000.0 0.005758584050686363 -0.0003348759866122179 0.9921421582049751 -0.06169270632798914 0.9920863478542725 -0.06171524018038691 0.005782657087558597 -0.00029090887005627186
7800000000.0 0.005778304895829209 -0.0003502902566344567 0.9920664250225416 -0.06247532271057664 0.9920097268531963 -0.06249598224537034 0.005803522179114757 -0.00030701599444807657
7900000000.0 0.005798063930773441 -0.00036604988712002085 0.9919901105180837 -0.06325739857276375 0.9919325873126346 -0.06327615227560758 0.0058244052595078245 -0.0003234981989647945
8000000000.0 0.005817854851100696 -0.0003821546551542922 0.991913225077579 -0.06403893670815511 0.9918549406634751 -0.06405575516586075 0.005845299260962188 -0.00034035465984733797
8100000000.0 0.005837671380389836 -0.00039860421313784347 0.9918357789655636 -0.0648199401437718 0.9917767981447851 -0.06483479607680684 0.005866197162042029 -0.0003575844096366352
8200000000.0 0.005857507272809497 -0.0004153980899074935 0.991757782319657 -0.06560041213608289 0.9916981707974079 -0.065613280428708 0.005887091990683456 -0.00037518633887049526
8300000000.0 0.005877356315670763 -0.0004325356919103311 0.9916792451452134 -0.06638035616690635 0.9916190694577693 -0.06639121389492729 0.005907976827164175 -0.0003931591978456286
8400000000.0 0.0058972123319398495 -0.00045001630443156765 0.9916001773101049 -0.06715977593918628 0.9915395047518955 -0.0671686023953045 0.0059288448070201364 -0.0004115015984373131
8500000000.0 0.00591706918271019 -0.00046783909287299207 0.9915205885396325 -0.06793867537265154 0.9914594870896347 -0.06794545208939232 0.0059496891238950385 -0.0004302120159788251
8600000000.0 0.005936920769631377 -0.0004860031040822782 0.9914404884115802 -0.06871705859935388 0.9913790266591049 -0.06872176936956423 0.005970503032335695 -0.0004492887911963229
8700000000.0 0.005956761037297432 -0.0005045072677301152 0.9913598863513975 -0.06949492995910064 0.9912981334213531 -0.06949756085399729 0.0059912798505220004 -0.00046873013219847243
8800000000.0 0.0059765839755890615 -0.0005233503977357737 0.9912787916275289 -0.07027229399477433 0.9912168171052302 -0.07027283337954134 0.0060120129629341644 -0.0004885341165178656
8900000000.0 0.005996383621971773 -0.0005425311937382056 0.9911972133468814 -0.07104915544755182 0.9911350872024988 -0.07104759399447341 0.006032695822959822 -0.000508698693203194
9000000000.0 0.006016154063748838 -0.0005620482426105043 0.9911151604504395 -0.07182551925202453 0.9910529529631537 -0.07182184995115595 0.006053321955433639 -0.0005292216849587889
9100000000.0 0.0060358894402691285 -0.0005819000200202834 0.9910326417090216 -0.072601390531223 0.9909704233909706 -0.07259560869859362 0.006073884959113947 -0.0005501007903325126
9200000000.0 0.006055583945086277 -0.0006020848920278762 0.9909496657191874 -0.07337677459155222 0.9908875072392859 -0.07336887787490497 0.006094378509095244 -0.0005713335859460983
9300000000.0 0.006075231828070458 -0.0006226011167290316 0.9908662408992933 -0.07415167691764178 0.9908042130069966 -0.07414166529970849 0.006114796359153324 -0.0005929175287690902
9400000000.0 0.006094827397475139 -0.0006434468459337647 0.9907823754857007 -0.07492610316711229 0.990720548934794 -0.07491397896643534 0.006135132344025598 -0.0006148499584327908
9500000000.0 0.006114365021950283 -0.0006646201268832241 0.9906980775291311 -0.07570005916526874 0.990636523001623 -0.07568582703457329 0.006155380381624019 -0.0006371280995837804
9600000000.0 0.006133839132511411 -0.0006861189040028812 0.9906133548911819 -0.07647355089971687 0.9905521429213765 -0.0764572178218467 0.006175534475183528 -0.0006597490642730702
9700000000.0 0.006153244224454207 -0.0007079410206910071 0.9905282152409908 -0.07724658451491552 0.9904674161398132 -0.07722815979634447 0.006195588715339414 -0.0006827098543816869
9800000000.0 0.006172574859224498 -0.0007300842211393331 0.9904426660520578 -0.07801916630666227 0.9903823498317136 -0.07799866156859499 0.006215537282141933 -0.0007060073640782588
9900000000.0 0.006191825666231928 -0.0007525461521860449 0.990356714599224 -0.07879130271652161 0.9902969508982573 -0.0787687318836032 0.006235374447000804 -0.0007296383823082662
10000000000.0 0.006210991344617674 -0.0007753243651997199 0.990270367955807 -0.07956300032619787 0.9902112259646411 -0.07953837961284917 0.00625509457456182 -0.0007535995953121733
10100000000.0 0.0062300666649676584 -0.0007984163179913769 0.9901836329908936 -0.08033426585185487 0.9901251813779182 -0.08030761374625782 0.006274692124517891 -0.0007778875891730177
10200000000.0 0.006249046470977465 -0.0008218193767556684 0.9900965163667906 -0.08110510613839711 0.9900388232050731 -0.08107644338414868 0.0062941616533514376 -0.0008024988523883109
10300000000.0 0.00626792568106186 -0.0008455308180367141 0.9900090245366359 -0.08187552815369828 0.9899521572313223 -0.08184487772916485 0.006313497816007335 -0.0008274297784659528
10400000000.0 0.006286699289915729 -0.0008695478307200889 0.9899211637421658 -0.0826455389828006 0.989865188958645 -0.08261292607819443 0.006332695367501188 -0.0008526766685452052
10500000000.0 0.0063053623700214554 -0.0008938675180484927 0.9898329400116432 -0.08341514582207932 0.9897779236045391 -0.08338059781429064 0.006351749164457718 -0.0008782357340350353
10600000000.0 0.006323910073104042 -0.0009184868996596458 0.9897443591579449 -0.08418435597337298 0.9896903661010051 -0.08414790239858627 0.006370654166582422 -0.0009041030992742763
10700000000.0 0.006342337631534068 -0.0009434029136441026 0.9896554267768064 -0.08495317683809889 0.9896025210937561 -0.08491484936222707 0.006389405438065865 -0.0009302748042082537
10800000000.0 0.006360640359678886 -0.0009686124186239314 0.9895661482452272 -0.085721615911337 0.9895143929416451 -0.08568144829830958 0.006407998148921288 -0.0009567468070814899
10900000000.0 0.006378813655200056 -0.0009941121958502255 0.989476528720033 -0.08648968077590709 0.9894259857163239 -0.08644770885384664 0.006426427576253638 -0.0009835149871447
