#   Hz   S  RI   R   50
!
0.0 0.010163629414403236 0.0 0.9903377200961814 0.0 0.990337433269157 0.0 0.01016359674837344 0.0
100000000.0 0.010164487361215748 2.6742822236795614e-05 0.9903347225967043 -0.0018782009360337568 0.99033443578833 -0.0018781978095881013 0.010164454673797606 2.6741867866973236e-05
200000000.0 0.010167060457538471 5.3437401928267534e-05 0.990325731636123 -0.003756309750328797 0.9903254448837181 -0.0037563034972888827 0.010167027705991557 5.34354948810063e-05
300000000.0 0.010171346472040509 8.003554829653517e-05 0.9903107518254539 -0.0056342344408161545 0.9903104651663991 -0.005634225060887204 0.010171313613732238 8.00326919534628e-05
400000000.0 0.010177341689207845 0.00010648917400920898 0.9902897908412999 -0.007511883244533997 0.9902895043130764 -0.00751187073727991 0.010177308681685602 0.00010648537343498155
500000000.0 0.010185040914395226 0.00013275034667919395 0.9902628594132302 -0.00938916475660077 0.9902625730534593 -0.00938914912145136 0.01018500771545651 0.00013274560861213503
600000000.0 0.010194437480878931 0.00015877134009747347 0.9902299713061548 -0.011265988048493922 0.9902296851526381 -0.011265969284754563 0.010194404048643538 0.00015876567293714286
700000000.0 0.010205523258901488 0.00018450468511119992 0.9901911432977346 -0.01314226278540544 0.9901908573884928 -0.013142240892269034 0.010205489551881138 0.000184498098902928
800000000.0 0.010218288666682498 0.00020990322006024742 0.9901463951508777 -0.01501789934244863 0.9901461095241881 -0.015017874319010055 0.010218254643850016 0.00020989572647658498
900000000.0 0.010232722683376822 0.00023492014068686155 0.9900957495813831 -0.0168928089194937 0.9900954642758186 -0.016892780764766285 0.010232688304235961 0.0002349117530061166
1000000000.0 0.010248812863947477 0.00025950904943403624 0.9900392322208162 -0.01876690365441287 0.9900389472752796 -0.01876687236734756 0.010248778088598498 0.00025949978251584135
1100000000.0 0.010266545355921641 0.0002836240040506716 0.9899768715746867 -0.02064009673452165 0.9899765870284483 -0.020640062314027922 0.010266510145129514 0.00028361387430856256
1200000000.0 0.010285904917997515 0.0003072195654228507 0.9899086989760372 -0.02251230250600647 0.9899084148687688 -0.022512264950975785 0.010285869233256181 0.00030720859079421634
1300000000.0 0.01030687494045336 0.00033025084455315525 0.9898347485345443 -0.02438343658113569 0.9898344649063523 -0.024383395890466914 0.010306838744049992 0.0003302390444661758
1400000000.0 0.010329437467324926 0.000352673548612012 0.9897550570812433 -0.02625341594305611 0.9897547739727003 -0.026253372115682874 0.010329400722401417 0.00035266094395006555
1500000000.0 0.010353573220294161 0.00037444402598813675 0.9896696641090101 -0.0281221590479848 0.9896693815611864 -0.02812211208290513 0.010353535890907936 0.000374430639051429
1600000000.0 0.01037926162424552 0.00039551931026691746 0.989578611708929 -0.029989585924612316 0.9895783297634217 -0.029989535820920094 0.010379223675428513 0.00039550516473176717
1700000000.0 0.010406480834430035 0.0004158571630697177 0.989481944502686 -0.03185561827054235 0.9894816632016449 -0.03185556502746046 0.010406442232245917 0.0004158422839451095
1800000000.0 0.010435207765186704 0.00043541611568903403 0.9893797095711462 -0.033720179545598264 0.9893794289573019 -0.03372012316251367 0.010435168476786237 0.00043540052927111143
1900000000.0 0.010465418120154783 0.00045415550945870545 0.9892719563792672 -0.03558319506183887 0.989271676495954 -0.03558313553833941 0.010465378113827367 0.00045413924328245033
2000000000.0 0.01049708642391605 0.000472035534800208 0.989158736697517 -0.037444592070131504 0.9891584575886941 -0.03744452940604428 0.010497045669141227 0.0004720186175895595
2100000000.0 0.01053018605500623 0.0004890172688920152 0.9890401045199596 -0.03930429984314185 0.9890398262302335 -0.039304234038572826 0.010530144522502368 0.000488999730507334
2200000000.0 0.010564689280222436 0.0005050627119094171 0.9889161159792013 -0.0411622497546068 0.9889158385538425 -0.041162180809982504 0.010564646941993008 0.0005050445832933814
2300000000.0 0.010600567290161445 0.0005201348217887487 0.9887868292583634 -0.043018375354769656 0.9887865527433227 -0.04301830327087962 0.010600524119538476 0.0005201161349100936
2400000000.0 0.010637790235916487 0.0005341975474719572 0.9886523045002791 -0.04487261244186349 0.9886520289422023 -0.04487253721990431 0.010637746207602052 0.0005341783352675036
2500000000.0 0.010676327266860413 0.0005472158605918365 0.9885126037141033 -0.046724899129540066 0.988512329160342 -0.04672482077116001 0.010676282356964719 0.0005471961569070848
2600000000.0 0.01071614656944008 0.000559155785562097 0.9883677906795292 -0.048575175910152486 0.9883675171781516 -0.048575094417498 0.01071610075551941 0.0005591356250899019
2700000000.0 0.010757215406911989 0.0005699844280404417 0.9882179308488117 -0.05042338571380769 0.9882176584486088 -0.050423301089570195 0.01075716866799951 0.0005699638462584246
2800000000.0 0.01079950015993375 0.0005796700017357874 0.988063091246797 -0.05226947396311772 0.988062819997288 -0.05226938621058138 0.010799452476571651 0.0005796490348426095
2900000000.0 0.010842966367948029 0.0005881818535370988 0.9879033403691606 -0.054113388623588395 0.987903070320594 -0.05411329774667864 0.010842917722215455 0.0005881605383872955
3000000000.0 0.010887578771269705 0.0005954904869411674 0.9877387480790566 -0.055955080249590804 0.9877384792824138 -0.05595498625292331 0.01088752914680726 0.0005954688609790976
3100000000.0 0.010933301353808914 0.0006015675837650489 0.9875693855023886 -0.05779450202587819 0.9875691180093772 -0.057794404914808965 0.010933250735841444 0.0006015456849578913
3200000000.0 0.01098009738634697 0.0006063860241295396 0.9873953249218927 -0.059631609804614634 0.9873950587849444 -0.05963150958528959 0.010980045761702039 0.0006063638908993997
3300000000.0 0.011027929470291001 0.0006099199047049751 0.9872166396702557 -0.06146636213789393 0.9872163749425178 -0.061466258817298995 0.011027876827415696 0.0006098975758603617
3400000000.0 0.011076759581832041 0.0006121445552138717 0.9870334040224548 -0.06329872030573859 0.9870331407577803 -0.0632986138917503 0.011076705910806443 0.0006121220698808783
3500000000.0 0.011126549116427192 0.0006130365531904705 0.9868456930875273 -0.06512864833957724 0.986845431340463 -0.06512853884101323 0.011126494408974383 0.0006130139507426574
3600000000.0 0.011177258933536454 0.0006125737369969127 0.9866535826999756 -0.06695611304120688 0.9866533225257466 -0.06695600046787628 0.011177203183030702 0.0006125510569863849
3700000000.0 0.011228849401534492 0.0006107352171036077 0.9864571493109918 -0.0687810839972595 0.9864568907654844 -0.06878096836001245 0.0112287926030046 0.000610712499190484
3800000000.0 0.01128128044272946 0.0006075013856421473 0.9862564698797097 -0.07060353358919585 0.9862562130194505 -0.07060341489997445 0.011281222592861831 0.0006074786695246658
3900000000.0 0.011334511578416298 0.0006028539242424279 0.9860516217646644 -0.07242343699886548 0.9860513666467975 -0.07242331527075169 0.011334452675551812 0.0006028312495872056
4000000000.0 0.011388501973890955 0.0005967758101695999 0.9858426826156564 -0.07424077220967247 0.9858424292979204 -0.07424064745693823 0.011388442018022247 0.0005967532165419143
4100000000.0 0.011443210483365246 0.000589251320780063 0.9856297302661966 -0.07605552000340066 0.9856294788068943 -0.07605539224155544 0.011443149476128118 0.0005892288475744055
4200000000.0 0.011498595694704565 0.0005802660363154604 0.9854128426267158 -0.07786766395275693 0.9854125930846862 -0.0778675331985955 0.01149853363936892 0.0005802437226868139
4300000000.0 0.01155461597393858 0.0005698068410617034 0.9851920975787073 -0.07967719040969984 0.9851918500132911 -0.0796770566813486 0.011554552875394067 0.0005697847258570815
4400000000.0 0.011611229509466076 0.0005578619228962661 0.9849675728699835 -0.08148408848962657 0.9849673273409891 -0.08148395180658904 0.011611165374207384 0.0005578400445870211
4500000000.0 0.011668394355906749 0.0005444207712554515 0.9847393460111901 -0.083288350051499 0.9847391025788585 -0.08328821043470036 0.011668329192014127 0.000544399167870738
4600000000.0 0.011726068477533182 0.0005294741735505799 0.984507494173765 -0.08508996967399635 0.9845072528987254 -0.08508982714582711 0.011726002294651905 0.0005294528826112918
4700000000.0 0.011784209791232202 0.0005130142100681903 0.9842720940894608 -0.08688894462778829 0.984271855032693 -0.08688879921214562 0.011784142600547432 0.0005129932685220418
4800000000.0 0.01184277620893788 0.0004950342473887835 0.9840332219516092 -0.08868527484402297 0.9840329851743965 -0.08868512656635166 0.011842708023148596 0.0004950136915468401
4900000000.0 0.011901725679488034 0.00047552893036140073 0.9837909533182458 -0.09047896287913978 0.983790718882131 -0.0904788117664714 0.011901656512776587 0.0004755087958350844
5000000000.0 0.011961016229850824 0.00045449417267177976 0.9835453630172375 -0.09227001387610868 0.9835451309839728 -0.09226985995709884 0.011960946097852752 0.0004544744943126105
5100000000.0 0.012020606005682817 0.0004319271460472284 0.9832965250535436 -0.09405843552221584 0.9832962954850406 -0.09405827882718018 0.012020534925450917 0.000431907957886349
5200000000.0 0.012080453311164453 0.00040782626813651676 0.9830445125187217 -0.09584423800350593 0.9830442854769991 -0.09584407856445422 0.012080381301132934 0.0004078076033269933
5300000000.0 0.012140516648080083 0.0003821911891096492 0.9827893975028055 -0.09762743395600745 0.9827891730499347 -0.09762727180667533 0.012140443728024839 0.0003821730798697923
5400000000.0 0.012200754754097027 0.00035502277702095396 0.9825312510086535 -0.09940803841385969 0.9825310292067021 -0.09940787358973904 0.012200680945094822 0.000355005254579881
5500000000.0 0.012261126640213938 0.000326323101980492 0.9822701428688704 -0.10118606875447182 0.9822699237798439 -0.10118590129283936 0.012261051964598452 0.0003263061965248063
5600000000.0 0.012321591627337912 0.00029609541917854346 0.9820061416654002 -0.10296154464084349 0.9820059253511827 -0.10296137458078679 0.012321516108653724 0.0002960791598013534
5700000000.0 0.012382109381961255 0.00026434415081005353 0.9817393146518797 -0.10473448796117338 0.9817391011741727 -0.1047343153436138 0.012382033044917218 0.00026432856546209634
5800000000.0 0.01244263995091312 0.00023107486694589065 0.9814697276788252 -0.10650492276589617 0.9814695170990835 -0.10650474763361173 0.012442562821332052 0.0002310599823882447
5900000000.0 0.012503143795150776 0.0001962942653971623 0.9811974451217355 -0.10827287520227592 0.9811972375011052 -0.10827269759992007 0.012503065899918168 0.00019628010715662346
6000000000.0 0.01256358182257682 0.00016001015062012847 0.980922529812182 -0.11003837344669685 0.9809223252114327 -0.11003819342081454 0.012563503189587547 0.00015999674294617228
6100000000.0 0.012623915419849118 0.00012223141170885442 0.9806450429719354 -0.1118014476347841 0.980644841451394 -0.11180126523382773 0.01262383607795328 0.00012221877753330193
6200000000.0 0.012684106483174737 8.296799952391393e-05 0.9803650441501971 -0.11356212978949441 0.980364845769679 -0.11356194506383538 0.012684026462119972 8.295616042260768e-05
6300000000.0 0.012744117448062536 4.223090300135987e-05 0.9800825911639808 -0.11532045374731517 0.9800823959827226 -0.1153202667492519 0.012744036778437856 4.221987915876859e-05
6400000000.0 0.012803911318024561 3.212469425678294e-08 0.9797977400416857 -0.11707645508270348 0.9797975481182729 -0.1170762658664698 0.012803830031199052 2.1934869021927134e-08
6500000000.0 0.012863451692208532 -4.3615344414119445e-05 0.9795105449698998 -0.11883017103091 0.9795103563621974 -0.11882997965267841 0.012863369820272825 -4.3624682918843994e-05
6600000000.0 0.012922702791955959 -8.869755077142658e-05 0.9792210582434697 -0.12058164040932014 0.9792208730085492 -0.12058144692720339 0.0129226203676595 -8.870602213713466e-05
6700000000.0 0.012981629486271455 -0.00013519960475183297 0.9789293302188553 -0.12233090353744862 0.9789291484129227 -0.12233070801149808 0.0129815465429598 -0.00013520719467079108
6800000000.0 0.013040197316198435 -0.00018310570773882756 0.978635409270797 -0.12407800215572258 0.9786352309491205 -0.1240778046479243 0.013040113887750795 -0.00018311240343681686
6900000000.0 0.013098372518100641 -0.00023239917974933325 0.978339341752308 -0.12582297934319048 0.9783391669691432 -0.1258227799174583 0.01309828863886317 -0.00023240497000691333
7000000000.0 0.013156122045833241 -0.00028306248755936495 0.9780411719579999 -0.12756587943428385 0.9780410007665171 -0.12756567815644893 0.013156037750555283 -0.0002830673627298156
7100000000.0 0.013213413591816566 -0.0003350772732834989 0.977740942090752 -0.1293067479347682 0.9777407745429625 -0.12930654487256704 0.013213328915584778 -0.0003350812253080828
7200000000.0 0.013270215607002435 -0.00038842438337028 0.9774386922317242 -0.13104563143700887 0.9774385283784034 -0.1310454266600673 0.013270130585173021 -0.00038842740579147394
7300000000.0 0.013326497319736369 -0.0004430838979696586 0.9771344603137012 -0.13278257753468245 0.9771343002043172 -0.13278237111449778 0.01332641198786941 -0.00044308598594111474
7400000000.0 0.013382228753519455 -0.0004990351606329238 0.9768282820977716 -0.134517634737059 0.9768281257804103 -0.1345174267469767 0.013382143147310736 -0.0004990363109267606
7500000000.0 0.013437380743672907 -0.0005562568083068253 0.9765201911533227 -0.13625085238297538 0.9765200386746155 -0.13625064289816707 0.01343729489888728 -0.0005562570193181311
7600000000.0 0.013491924952910826 -0.0006147268015801783 0.976210218841336 -0.13798228055462958 0.9762100702463811 -0.13798206965206408 0.01349183890531362 -0.0006147260733295947
7700000000.0 0.013545833885826138 -0.0006744224551510613 0.9758983943009587 -0.13971196999130664 0.9758982496332536 -0.13971175774972033 0.013545747671116066 -0.0006744207892833781
7800000000.0 0.013599080902297877 -0.0007353204684717691 0.9755847444393331 -0.14143997200316086 0.9755846037406998 -0.1414397585030247 0.013598994556038961 -0.0007353178682534217
7900000000.0 0.013651640229828284 -0.0007973969565424842 0.9752692939246557 -0.1431663383851637 0.9752691572351676 -0.1431661237086464 0.013651553787383693 -0.00079739342685427
8000000000.0 0.013703486974819396 -0.0008606274808127865 0.9749520651824259 -0.1448911213313346 0.9749519325403394 -0.1448909055622647 0.013703400471281858 -0.0008606230281424107
8100000000.0 0.013754597132796819 -0.0009249870801643736 0.974633078394862 -0.14661437334936434 0.9746329498365425 -0.14661415657318663 0.013754510602924442 -0.0009249817125939942
8200000000.0 0.013804947597594023 -0.0009904503019368242 0.9743123515034348 -0.14833614717573393 0.9743122270632909 -0.14833592947946667 0.013804861075742468 -0.0009904440291294639
8300000000.0 0.013854516169508203 -0.0010569912329701492 0.9739899002144901 -0.1500564956914433 0.9739897799249023 -0.15005627716362885 0.013854429689565205 -0.0010569840661526144
8400000000.0 0.013903281562437643 -0.001124583530628714 0.9736657380079058 -0.1517754718384438 0.9736656218991628 -0.15177525256909902 0.013903195157758298 -0.0011245754825723463
8500000000.0 0.013951223410016745 -0.0011932004537822418 0.9733398761487453 -0.15349312853688138 0.9733397642489754 -0.15349290861744366 0.01395113711335958 -0.0011931915387814024
8600000000.0 0.013998322270760016 -0.001262814893712815 0.9730123237018516 -0.15520951860324556 0.9730122160369603 -0.15520929812651782 0.01399823611422268 -0.0012628051275600939
8700000000.0 0.01404455963222683 -0.0013333994049205167 0.9726830875493387 -0.15692469466951833 0.9726829841429445 -0.1569244737296096 0.014044473647184813 -0.0013333888048793572
8800000000.0 0.014089917914226993 -0.001404926235801987 0.9723521724109174 -0.15863870910342145 0.972352073284293 -0.15863848779568507 0.014089832131271693 -0.0014049148205782765
8900000000.0 0.014134380471073522 -0.001477367359177868 0.9720195808670115 -0.16035161392984523 0.9720194860390213 -0.16035139235081544 0.014134294919951844 -0.0014773551488870772
9000000000.0 0.014177931592904425 -0.0015506945026403595 0.9716853133845904 -0.1620634607535515 0.9716852228716367 -0.16206323900087619 0.014177846302460226 -0.0015506815187740484
9100000000.0 0.014220556506083629 -0.0016248791787026608 0.9713493683456763 -0.1637743006832366 0.9713492821616412 -0.16377407885560843 0.014220471504200591 -0.0016248654440917901
9200000000.0 0.014262241372701982 -0.0016998927147220547 0.9710117420784505 -0.16548418425703215 0.971011660234643 -0.16548396245411737 0.014262156686246164 -0.0016998782534978414
9300000000.0 0.01430297328918273 -0.0017757062825793628 0.9706724288908971 -0.1671931613695329 0.9706723513960038 -0.16719293969189608 0.014302888943949835 -0.0017756911201323303
9400000000.0 0.014342740284023632 -0.0018522909280881297 0.970331421106926 -0.16890128120042106 0.9703313479669597 -0.1689010597494497 0.0143426563046841 -0.0018522750910249474
9500000000.0 0.01438153131467517 -0.0019296176001185727 0.9699887091048992 -0.17060859214476506 0.9699886403231538 -0.17060837102259035 0.014381447724723646 -0.0019296011162166645
9600000000.0 0.014419336263580397 -0.0020076571794117428 0.969644281358494 -0.17231514174507326 0.9696442169354997 -0.17231492105448978 0.014419253085286224 -0.0020076400775720623
9700000000.0 0.014456145933389777 -0.0020863805070667515 0.9692981244798348 -0.17402097662516056 0.969298064413318 -0.17402075646954251 0.014456063187749795 -0.0020863628172639796
9800000000.0 0.014491952041366834 -0.0021657584126820394 0.9689502232648161 -0.17572614242590825 0.9689501675496585 -0.1757259229091254 0.014491869748057624 -0.002165740165914031
9900000000.0 0.01452674721299897 -0.0022457617421332596 0.9686005607405482 -0.17743068374297466 0.9686005093687529 -0.17743046496930417 0.014526665390334948 -0.0022457429703672976
10000000000.0 0.014560524974834715 -0.002326361384967004 0.9682491182148472 -0.17913464406652652 0.9682490711755037 -0.179134426140566 0.01456044363972448 -0.002326342121085411
10100000000.0 0.01459327974655524 -0.0024075283013999687 0.9678958753276904 -0.18083806572304914 0.9678958326069459 -0.18083784874962375 0.014593198914464325 -0.002407508579142661
10200000000.0 0.014625006832307328 -0.0024892335488981314 0.9675408101045633 -0.18254098981929082 0.967540771685594 -0.18254077390336296 0.014624926517217545 -0.0024892134028051934
10300000000.0 0.014655702411300944 -0.002571448308327102 0.9671838990116177 -0.1842434561884088 0.9671838648746051 -0.18424324143498258 0.014655622625677494 -0.0025714277736789545
10400000000.0 0.014685363527699663 -0.0026541439096561957 0.9668251170125529 -0.1859455033383545 0.966825087134662 -0.18594528985238296 0.014685284282456993 -0.002654123022412168
10500000000.0 0.014713988079813002 -0.0027372918571986955 0.9664644376271473 -0.1876471684025708 0.9664644119825101 -0.18764695628885675 0.014713909384284454 -0.0027372706539345922
10600000000.0 0.014741574808608498 -0.0028208638543748663 0.9661018329913518 -0.18934848709302698 0.9661018115510526 -0.18934827645612629 0.01474149667051831 -0.002820842372218972
10700000000.0 0.014768123285560897 -0.0029048318279839736 0.9657372739188578 -0.19104949365565674 0.9657372566509212 -0.1910492845997792 0.014768045710997735 -0.002904810104552556
10800000000.0 0.014793633899854771 -0.0029891679519703407 0.9653707299640591 -0.19275022082823498 0.9653707168334419 -0.19275001345714526 0.014793556893248893 -0.0029891460253011273
10900000000.0 0.014818107844955334 -0.003073844670669626 0.9650021694863125 -0.19445069980073765 0.9650021604549008 -0.1944504942176521 0.014818031409057826 -0.0030738225791544643
11000000000.0 0.014841547104565306 -0.0031588347215214954 0.9646315597154165 -0.19615096017821887 0.964631554742024 -0.19615075648570604 0.014841471240430469 -0.0031588125038386618
